!Agilent Technologies,E5061B,MY49305579,A.02.22
!Date: Thu Aug 24 16:22:29 2017
!Data & Calibration Information:
!Freq	S11:SOLT2(ON)	S21:SOLT2(ON)	S12:SOLT2(ON)	S22:SOLT2(ON)
# Hz S dB R 50
1710000000.000	-2.786125e+001	-1.189458e+002	-2.222486e+001	-4.609693e+001	-2.235335e+001	-4.586184e+001	-2.073761e+001	-6.246961e+001
1714900000.000	-2.594213e+001	-1.321230e+002	-2.169643e+001	-8.901073e+001	-2.164398e+001	-8.821236e+001	-2.127606e+001	-1.284472e+002
1719800000.000	-2.487604e+001	-1.476639e+002	-2.134986e+001	-1.331222e+002	-2.122710e+001	-1.332131e+002	-2.234614e+001	1.723204e+002
1724700000.000	-2.421318e+001	-1.621962e+002	-2.097380e+001	-1.785859e+002	-2.094229e+001	-1.787746e+002	-2.552990e+001	1.163234e+002
1729600000.000	-2.389101e+001	-1.766504e+002	-2.079277e+001	1.353792e+002	-2.074139e+001	1.354324e+002	-3.387246e+001	5.489476e+001
1734500000.000	-2.398256e+001	1.710009e+002	-2.067706e+001	9.012064e+001	-2.060571e+001	8.989776e+001	-3.843778e+001	-1.326593e+002
1739400000.000	-2.429007e+001	1.607099e+002	-2.046882e+001	4.471717e+001	-2.043619e+001	4.451987e+001	-3.158998e+001	1.609590e+002
1744300000.000	-2.467146e+001	1.518962e+002	-2.030682e+001	-1.260285e+000	-2.024182e+001	-1.574860e+000	-3.365136e+001	9.610992e+001
1749200000.000	-2.518142e+001	1.428805e+002	-2.018371e+001	-4.704339e+001	-2.015868e+001	-4.806205e+001	-3.556402e+001	-3.688713e+001
1754100000.000	-2.598486e+001	1.330208e+002	-1.999332e+001	-9.360304e+001	-2.014123e+001	-9.433779e+001	-2.753376e+001	-1.197161e+002
1759000000.000	-2.715404e+001	1.221945e+002	-2.001464e+001	-1.409779e+002	-2.015575e+001	-1.403220e+002	-2.447362e+001	-1.778255e+002
1763900000.000	-2.886510e+001	1.090760e+002	-2.019761e+001	1.729098e+002	-2.016810e+001	1.735318e+002	-2.466989e+001	1.254636e+002
1768800000.000	-3.169102e+001	9.369278e+001	-2.024762e+001	1.275271e+002	-2.022162e+001	1.271257e+002	-2.574817e+001	5.431050e+001
1773700000.000	-3.679739e+001	7.923038e+001	-2.024285e+001	8.089808e+001	-2.036989e+001	8.063635e+001	-2.479266e+001	-2.777505e+001
1778600000.000	-4.930263e+001	8.663984e+001	-2.055362e+001	3.381580e+001	-2.064423e+001	3.472436e+001	-2.241667e+001	-9.874201e+001
1783500000.000	-4.217078e+001	-1.578300e+002	-2.094835e+001	-1.072211e+001	-2.088313e+001	-9.913886e+000	-2.123253e+001	-1.597493e+002
1788400000.000	-3.544158e+001	-1.695697e+002	-2.105802e+001	-5.477314e+001	-2.098641e+001	-5.465019e+001	-2.138154e+001	1.393272e+002
1793300000.000	-3.236140e+001	1.769344e+002	-2.112780e+001	-1.002679e+002	-2.108778e+001	-1.001913e+002	-2.281692e+001	7.211011e+001
1798200000.000	-3.060355e+001	1.617957e+002	-2.140665e+001	-1.455334e+002	-2.132375e+001	-1.455623e+002	-2.417618e+001	-2.601346e+000
1803100000.000	-2.998565e+001	1.456220e+002	-2.160555e+001	1.704752e+002	-2.157690e+001	1.697860e+002	-2.401051e+001	-7.686076e+001
1808000000.000	-3.032853e+001	1.288489e+002	-2.167755e+001	1.256101e+002	-2.177740e+001	1.251289e+002	-2.360772e+001	-1.391307e+002
1812900000.000	-3.184697e+001	1.088803e+002	-2.194123e+001	8.044673e+001	-2.204096e+001	8.078665e+001	-2.428898e+001	1.667820e+002
1817800000.000	-3.534881e+001	8.104044e+001	-2.210449e+001	3.677244e+001	-2.207594e+001	3.723118e+001	-2.742999e+001	1.154549e+002
1822700000.000	-4.126554e+001	2.927814e+001	-2.229588e+001	-8.704918e+000	-2.224158e+001	-8.597721e+000	-3.199486e+001	6.408890e+001
1827600000.000	-3.940858e+001	-4.698146e+001	-2.260439e+001	-5.344780e+001	-2.259879e+001	-5.345521e+001	-3.601809e+001	2.712265e+000
1832500000.000	-3.468531e+001	-8.171268e+001	-2.298986e+001	-9.725801e+001	-2.297728e+001	-9.722093e+001	-3.480430e+001	-4.640117e+001
1837400000.000	-3.187076e+001	-9.819272e+001	-2.325440e+001	-1.406030e+002	-2.325769e+001	-1.402831e+002	-3.037636e+001	-8.121349e+001
1842300000.000	-2.952470e+001	-1.126972e+002	-2.352518e+001	1.756341e+002	-2.349922e+001	1.761450e+002	-2.693771e+001	-1.253435e+002
1847200000.000	-2.802714e+001	-1.292038e+002	-2.398690e+001	1.322897e+002	-2.389775e+001	1.327337e+002	-2.520789e+001	-1.739013e+002
1852100000.000	-2.734395e+001	-1.425476e+002	-2.428214e+001	9.238508e+001	-2.419572e+001	9.236533e+001	-2.428774e+001	1.337250e+002
1857000000.000	-2.659101e+001	-1.548622e+002	-2.417708e+001	5.019952e+001	-2.410450e+001	5.033567e+001	-2.400374e+001	7.190496e+001
1861900000.000	-2.587460e+001	-1.654786e+002	-2.434945e+001	6.954202e+000	-2.421790e+001	7.208051e+000	-2.382270e+001	4.343598e+000
1866800000.000	-2.499301e+001	-1.752124e+002	-2.468969e+001	-3.359775e+001	-2.453337e+001	-3.422163e+001	-2.196163e+001	-6.422796e+001
1871700000.000	-2.421173e+001	1.750758e+002	-2.441125e+001	-7.264004e+001	-2.443832e+001	-7.359761e+001	-1.972680e+001	-1.333753e+002
1876600000.000	-2.344580e+001	1.654141e+002	-2.395316e+001	-1.150659e+002	-2.401611e+001	-1.147347e+002	-1.854313e+001	1.644592e+002
1881500000.000	-2.283366e+001	1.546307e+002	-2.377807e+001	-1.578369e+002	-2.357457e+001	-1.573963e+002	-1.843543e+001	1.023489e+002
1886400000.000	-2.259426e+001	1.412840e+002	-2.343877e+001	1.607256e+002	-2.322342e+001	1.586784e+002	-1.901674e+001	3.348516e+001
1891300000.000	-2.302109e+001	1.267252e+002	-2.282667e+001	1.175485e+002	-2.305372e+001	1.148478e+002	-1.889322e+001	-3.941513e+001
1896200000.000	-2.419510e+001	1.121701e+002	-2.236851e+001	7.248240e+001	-2.283552e+001	7.245553e+001	-1.786930e+001	-1.053385e+002
1901100000.000	-2.581069e+001	1.008397e+002	-2.214968e+001	2.666276e+001	-2.232764e+001	2.883966e+001	-1.712124e+001	-1.635709e+002
1906000000.000	-2.746357e+001	8.576280e+001	-2.210817e+001	-1.666682e+001	-2.194492e+001	-1.558204e+001	-1.715861e+001	1.373764e+002
1910900000.000	-3.033947e+001	6.947204e+001	-2.165840e+001	-6.035651e+001	-2.155105e+001	-6.102222e+001	-1.779739e+001	7.140915e+001
1915800000.000	-3.442063e+001	5.419402e+001	-2.132362e+001	-1.061784e+002	-2.141731e+001	-1.066332e+002	-1.813617e+001	3.244320e-001
1920700000.000	-4.235628e+001	3.613765e+001	-2.118598e+001	-1.512751e+002	-2.125943e+001	-1.509767e+002	-1.778232e+001	-6.764191e+001
1925600000.000	-4.843858e+001	-1.725584e+002	-2.099349e+001	1.645222e+002	-2.100589e+001	1.649187e+002	-1.741265e+001	-1.306934e+002
1930500000.000	-3.791822e+001	1.727260e+002	-2.055835e+001	1.195061e+002	-2.057972e+001	1.201326e+002	-1.737682e+001	1.681116e+002
1935400000.000	-3.424846e+001	1.575416e+002	-2.025025e+001	7.274196e+001	-2.013832e+001	7.361825e+001	-1.768111e+001	1.054671e+002
1940300000.000	-3.331364e+001	1.434363e+002	-2.021452e+001	2.616780e+001	-1.997331e+001	2.596176e+001	-1.828489e+001	4.086689e+001
1945200000.000	-3.318644e+001	1.352444e+002	-2.012996e+001	-1.930132e+001	-2.003108e+001	-2.103506e+001	-1.888750e+001	-2.465611e+001
1950100000.000	-3.350112e+001	1.298642e+002	-1.996912e+001	-6.566443e+001	-2.014783e+001	-6.684022e+001	-1.894145e+001	-8.867191e+001
1955000000.000	-3.464316e+001	1.247866e+002	-2.000382e+001	-1.129367e+002	-2.020024e+001	-1.122403e+002	-1.863171e+001	-1.486415e+002
1959900000.000	-3.569537e+001	1.326237e+002	-2.030850e+001	-1.586717e+002	-2.024666e+001	-1.574513e+002	-1.850578e+001	1.549372e+002
1964800000.000	-3.496131e+001	1.312243e+002	-2.038167e+001	1.574230e+002	-2.020989e+001	1.573004e+002	-1.894534e+001	9.774424e+001
1969700000.000	-3.557732e+001	1.242362e+002	-2.024768e+001	1.120438e+002	-2.022201e+001	1.109806e+002	-2.000254e+001	3.519302e+001
1974600000.000	-3.619296e+001	1.119940e+002	-2.029967e+001	6.604393e+001	-2.040996e+001	6.569803e+001	-2.093118e+001	-3.264154e+001
1979500000.000	-4.017799e+001	9.672351e+001	-2.042025e+001	2.062010e+001	-2.049345e+001	2.099351e+001	-2.084802e+001	-1.009891e+002
1984400000.000	-4.790593e+001	1.213030e+002	-2.043880e+001	-2.422584e+001	-2.043849e+001	-2.378862e+001	-2.035943e+001	-1.644118e+002
1989300000.000	-4.419216e+001	-1.757312e+002	-2.036109e+001	-7.054282e+001	-2.032886e+001	-7.001241e+001	-2.036103e+001	1.352872e+002
1994200000.000	-3.833955e+001	-1.661592e+002	-2.056285e+001	-1.178092e+002	-2.042480e+001	-1.173083e+002	-2.133259e+001	7.332352e+001
1999100000.000	-3.445411e+001	-1.720571e+002	-2.100547e+001	-1.638873e+002	-2.082159e+001	-1.642573e+002	-2.328437e+001	7.203486e+000
2004000000.000	-3.218702e+001	-1.793218e+002	-2.140190e+001	1.516940e+002	-2.131273e+001	1.505806e+002	-2.471348e+001	-5.894245e+001
2008900000.000	-3.067191e+001	1.748912e+002	-2.170899e+001	1.072596e+002	-2.173336e+001	1.063517e+002	-2.477148e+001	-1.200842e+002
2013800000.000	-2.961169e+001	1.706898e+002	-2.206118e+001	6.294930e+001	-2.209486e+001	6.261593e+001	-2.525625e+001	-1.701092e+002
2018700000.000	-2.873137e+001	1.672184e+002	-2.246618e+001	1.932746e+001	-2.244968e+001	1.903028e+001	-2.701315e+001	1.511805e+002
2023600000.000	-2.810360e+001	1.626854e+002	-2.281005e+001	-2.275503e+001	-2.277728e+001	-2.341119e+001	-2.899928e+001	1.218038e+002
2028500000.000	-2.803497e+001	1.582602e+002	-2.283394e+001	-6.551915e+001	-2.283771e+001	-6.631600e+001	-3.088124e+001	8.269248e+001
2033400000.000	-2.797391e+001	1.562890e+002	-2.300690e+001	-1.092819e+002	-2.306838e+001	-1.101949e+002	-3.111305e+001	2.023221e+001
2038300000.000	-2.754678e+001	1.525675e+002	-2.330648e+001	-1.518773e+002	-2.342106e+001	-1.524235e+002	-2.735178e+001	-4.985996e+001
2043200000.000	-2.721248e+001	1.464283e+002	-2.339750e+001	1.661067e+002	-2.350287e+001	1.662833e+002	-2.342748e+001	-1.114503e+002
2048100000.000	-2.688625e+001	1.379943e+002	-2.344155e+001	1.243405e+002	-2.345184e+001	1.248379e+002	-2.119127e+001	-1.678330e+002
2053000000.000	-2.664980e+001	1.285298e+002	-2.323370e+001	8.239562e+001	-2.317324e+001	8.265569e+001	-2.002009e+001	1.331966e+002
2057900000.000	-2.629563e+001	1.192006e+002	-2.301856e+001	3.871449e+001	-2.289005e+001	3.864360e+001	-1.960711e+001	6.848435e+001
2062800000.000	-2.591519e+001	1.075147e+002	-2.296969e+001	-5.135384e+000	-2.285029e+001	-6.095637e+000	-1.935058e+001	4.747275e-001
2067700000.000	-2.590183e+001	9.621011e+001	-2.291294e+001	-4.780350e+001	-2.293733e+001	-4.938714e+001	-1.882076e+001	-6.767483e+001
2072600000.000	-2.599811e+001	8.636334e+001	-2.256102e+001	-9.128955e+001	-2.276564e+001	-9.205064e+001	-1.792207e+001	-1.315862e+002
2077500000.000	-2.610181e+001	7.724299e+001	-2.242785e+001	-1.368418e+002	-2.254009e+001	-1.359576e+002	-1.677473e+001	1.664905e+002
2082400000.000	-2.633907e+001	6.729700e+001	-2.249100e+001	1.785365e+002	-2.230461e+001	1.793090e+002	-1.607087e+001	1.035648e+002
2087300000.000	-2.662006e+001	5.729868e+001	-2.248458e+001	1.348185e+002	-2.226220e+001	1.333965e+002	-1.605010e+001	3.813052e+001
2092200000.000	-2.679084e+001	4.335310e+001	-2.245696e+001	9.026122e+001	-2.255095e+001	8.794985e+001	-1.627743e+001	-2.919394e+001
2097100000.000	-2.734141e+001	2.640685e+001	-2.264284e+001	4.571187e+001	-2.294591e+001	4.512264e+001	-1.618077e+001	-9.395618e+001
2102000000.000	-2.775399e+001	8.622792e+000	-2.295262e+001	4.110506e+000	-2.313348e+001	5.149286e+000	-1.573378e+001	-1.533275e+002
2106900000.000	-2.769813e+001	-1.414773e+001	-2.268511e+001	-3.642413e+001	-2.265193e+001	-3.523868e+001	-1.528263e+001	1.477229e+002
2111800000.000	-2.755723e+001	-4.062876e+001	-2.213632e+001	-7.940734e+001	-2.199365e+001	-7.892168e+001	-1.514818e+001	8.498129e+001
2116700000.000	-2.739600e+001	-6.808383e+001	-2.168113e+001	-1.245471e+002	-2.153824e+001	-1.249401e+002	-1.520787e+001	1.747379e+001
2121600000.000	-2.686409e+001	-9.436874e+001	-2.147643e+001	-1.703426e+002	-2.144704e+001	-1.711279e+002	-1.511288e+001	-4.908016e+001
2126500000.000	-2.627358e+001	-1.209018e+002	-2.126161e+001	1.447083e+002	-2.136302e+001	1.443642e+002	-1.469081e+001	-1.113139e+002
2131400000.000	-2.568741e+001	-1.440159e+002	-2.107076e+001	9.857553e+001	-2.111330e+001	9.969703e+001	-1.410670e+001	-1.714610e+002
2136300000.000	-2.499419e+001	-1.641894e+002	-2.108943e+001	5.216084e+001	-2.079430e+001	5.352950e+001	-1.360226e+001	1.256897e+002
2141200000.000	-2.436229e+001	1.769530e+002	-2.124240e+001	6.918343e+000	-2.073263e+001	5.594461e+000	-1.357522e+001	5.738960e+001
2146100000.000	-2.443572e+001	1.608522e+002	-2.125951e+001	-3.766909e+001	-2.113899e+001	-4.167770e+001	-1.400968e+001	-1.398254e+001
2151000000.000	-2.453557e+001	1.489835e+002	-2.123223e+001	-8.299440e+001	-2.161384e+001	-8.566517e+001	-1.419609e+001	-8.337856e+001
2155900000.000	-2.504791e+001	1.392869e+002	-2.146174e+001	-1.288074e+002	-2.184292e+001	-1.281880e+002	-1.393219e+001	-1.481147e+002
2160800000.000	-2.557810e+001	1.335467e+002	-2.177151e+001	-1.721855e+002	-2.175413e+001	-1.707608e+002	-1.362966e+001	1.492006e+002
2165700000.000	-2.576285e+001	1.294110e+002	-2.173395e+001	1.450496e+002	-2.152135e+001	1.444962e+002	-1.388970e+001	8.334766e+001
2170600000.000	-2.564829e+001	1.225103e+002	-2.160747e+001	1.001687e+002	-2.161704e+001	9.824475e+001	-1.477726e+001	1.257049e+001
2175500000.000	-2.590642e+001	1.140505e+002	-2.180274e+001	5.512476e+001	-2.203912e+001	5.400555e+001	-1.549996e+001	-5.915519e+001
2180400000.000	-2.612391e+001	1.071857e+002	-2.200941e+001	1.222432e+001	-2.225384e+001	1.268911e+001	-1.578488e+001	-1.268047e+002
2185300000.000	-2.613661e+001	1.001180e+002	-2.192013e+001	-2.992091e+001	-2.199617e+001	-2.881501e+001	-1.612207e+001	1.687093e+002
2190200000.000	-2.589012e+001	9.232921e+001	-2.164435e+001	-7.331905e+001	-2.153318e+001	-7.267867e+001	-1.694286e+001	1.032000e+002
2195100000.000	-2.558297e+001	8.368297e+001	-2.136351e+001	-1.180372e+002	-2.121997e+001	-1.185447e+002	-1.843856e+001	3.653156e+001
2200000000.000	-2.540645e+001	7.390481e+001	-2.120268e+001	-1.634023e+002	-2.120508e+001	-1.645452e+002	-2.056670e+001	-2.969408e+001
2204900000.000	-2.541371e+001	6.424815e+001	-2.110808e+001	1.511311e+002	-2.122613e+001	1.505605e+002	-2.328631e+001	-9.608195e+001
2209800000.000	-2.561981e+001	5.509419e+001	-2.106535e+001	1.055160e+002	-2.114581e+001	1.056261e+002	-2.625333e+001	-1.649503e+002
2214700000.000	-2.590764e+001	4.501936e+001	-2.108667e+001	5.983786e+001	-2.108686e+001	5.985899e+001	-2.970069e+001	1.269474e+002
2219600000.000	-2.645387e+001	3.396431e+001	-2.117595e+001	1.420707e+001	-2.118633e+001	1.389576e+001	-3.591544e+001	7.152226e+001
2224500000.000	-2.711261e+001	2.123965e+001	-2.131048e+001	-3.120378e+001	-2.135445e+001	-3.154099e+001	-4.332312e+001	1.227776e+002
2229400000.000	-2.788736e+001	6.065500e+000	-2.147978e+001	-7.650355e+001	-2.152308e+001	-7.670275e+001	-3.269311e+001	9.423134e+001
2234300000.000	-2.863976e+001	-1.214464e+001	-2.173019e+001	-1.216162e+002	-2.177138e+001	-1.219874e+002	-2.820630e+001	2.873299e+001
2239200000.000	-2.945645e+001	-3.506640e+001	-2.200892e+001	-1.659845e+002	-2.212337e+001	-1.664131e+002	-2.475551e+001	-4.003743e+001
2244100000.000	-3.043530e+001	-6.000220e+001	-2.225441e+001	1.501426e+002	-2.244189e+001	1.503118e+002	-2.190195e+001	-1.029352e+002
2249000000.000	-3.136443e+001	-8.594939e+001	-2.246110e+001	1.066878e+002	-2.257772e+001	1.078065e+002	-2.000151e+001	-1.614515e+002
2253900000.000	-3.197475e+001	-1.123217e+002	-2.259601e+001	6.310699e+001	-2.250725e+001	6.471718e+001	-1.897625e+001	1.384403e+002
2258800000.000	-3.220540e+001	-1.366010e+002	-2.274813e+001	1.959154e+001	-2.247360e+001	2.004117e+001	-1.852782e+001	7.304808e+001
2263700000.000	-3.125673e+001	-1.552432e+002	-2.286886e+001	-2.350042e+001	-2.264953e+001	-2.489664e+001	-1.813523e+001	3.710773e+000
2268600000.000	-2.929726e+001	-1.769628e+002	-2.291378e+001	-6.689152e+001	-2.294943e+001	-6.870048e+001	-1.755886e+001	-6.414315e+001
2273500000.000	-2.782816e+001	1.607055e+002	-2.299427e+001	-1.105085e+002	-2.318091e+001	-1.110964e+002	-1.678528e+001	-1.279100e+002
2278400000.000	-2.725409e+001	1.407616e+002	-2.308621e+001	-1.537143e+002	-2.313591e+001	-1.530293e+002	-1.597712e+001	1.703297e+002
2283300000.000	-2.741629e+001	1.263150e+002	-2.311230e+001	1.631066e+002	-2.293592e+001	1.631371e+002	-1.531659e+001	1.073862e+002
2288200000.000	-2.761180e+001	1.166498e+002	-2.313881e+001	1.195228e+002	-2.295908e+001	1.178763e+002	-1.507925e+001	4.114931e+001
2293100000.000	-2.782524e+001	1.079736e+002	-2.322926e+001	7.586059e+001	-2.332034e+001	7.348614e+001	-1.515282e+001	-2.619834e+001
2298000000.000	-2.812709e+001	9.964798e+001	-2.336380e+001	3.316078e+001	-2.369065e+001	3.204184e+001	-1.505387e+001	-9.116009e+001
2302900000.000	-2.853234e+001	9.104956e+001	-2.329742e+001	-8.823040e+000	-2.360027e+001	-8.032664e+000	-1.464975e+001	-1.534567e+002
2307800000.000	-2.906946e+001	8.425227e+001	-2.306324e+001	-5.203746e+001	-2.310367e+001	-5.033325e+001	-1.424397e+001	1.440860e+002
2312700000.000	-2.920466e+001	8.045473e+001	-2.292626e+001	-9.646894e+001	-2.271841e+001	-9.582351e+001	-1.401999e+001	7.865137e+001
2317600000.000	-2.862958e+001	7.737970e+001	-2.293393e+001	-1.408134e+002	-2.277087e+001	-1.422767e+002	-1.408834e+001	1.143773e+001
2322500000.000	-2.750325e+001	7.119433e+001	-2.303282e+001	1.752907e+002	-2.317469e+001	1.734066e+002	-1.431008e+001	-5.326259e+001
2327400000.000	-2.665322e+001	6.111796e+001	-2.313553e+001	1.321239e+002	-2.346714e+001	1.320061e+002	-1.439928e+001	-1.150833e+002
2332300000.000	-2.644223e+001	4.903772e+001	-2.319070e+001	8.982853e+001	-2.335797e+001	9.161058e+001	-1.408111e+001	-1.772963e+002
2337200000.000	-2.728186e+001	3.796981e+001	-2.304031e+001	4.801919e+001	-2.283294e+001	4.975665e+001	-1.338983e+001	1.178364e+002
2342100000.000	-2.870486e+001	3.364064e+001	-2.273321e+001	4.814571e+000	-2.238047e+001	4.138585e+000	-1.295345e+001	5.125944e+001
2347000000.000	-2.966314e+001	3.325165e+001	-2.258947e+001	-3.897791e+001	-2.248564e+001	-4.152131e+001	-1.315010e+001	-1.488547e+001
2351900000.000	-3.013296e+001	3.008332e+001	-2.246713e+001	-8.220862e+001	-2.271559e+001	-8.426069e+001	-1.358685e+001	-7.933343e+001
2356800000.000	-3.075399e+001	2.307548e+001	-2.222211e+001	-1.250938e+002	-2.259673e+001	-1.250132e+002	-1.358200e+001	-1.420971e+002
2361700000.000	-3.111332e+001	1.198776e+001	-2.185290e+001	-1.685554e+002	-2.203113e+001	-1.666591e+002	-1.312213e+001	1.558577e+002
2366600000.000	-3.137754e+001	-7.576390e+000	-2.151893e+001	1.467990e+002	-2.130646e+001	1.482426e+002	-1.278023e+001	9.104924e+001
2371500000.000	-3.202729e+001	-3.173905e+001	-2.127110e+001	1.020304e+002	-2.100417e+001	1.008174e+002	-1.300988e+001	2.246311e+001
2376400000.000	-3.255289e+001	-5.295158e+001	-2.100078e+001	5.731940e+001	-2.113368e+001	5.501414e+001	-1.342362e+001	-4.536233e+001
2381300000.000	-3.252776e+001	-7.296502e+001	-2.073947e+001	1.188432e+001	-2.117179e+001	1.173924e+001	-1.354784e+001	-1.080503e+002
2386200000.000	-3.247536e+001	-9.492541e+001	-2.061303e+001	-3.367283e+001	-2.085624e+001	-3.087572e+001	-1.355810e+001	-1.678020e+002
2391100000.000	-3.253081e+001	-1.188746e+002	-2.050174e+001	-7.831118e+001	-2.024096e+001	-7.568654e+001	-1.377507e+001	1.298036e+002
2396000000.000	-3.241845e+001	-1.474273e+002	-2.020847e+001	-1.229562e+002	-1.977436e+001	-1.233218e+002	-1.423984e+001	6.177182e+001
2400900000.000	-3.195517e+001	-1.786411e+002	-1.988916e+001	-1.690191e+002	-1.976144e+001	-1.712961e+002	-1.480506e+001	-6.748301e+000
2405800000.000	-3.130581e+001	1.547344e+002	-1.974522e+001	1.440854e+002	-1.991389e+001	1.425402e+002	-1.533085e+001	-7.052682e+001
2410700000.000	-3.042678e+001	1.363630e+002	-1.975496e+001	9.793481e+001	-1.993037e+001	9.795483e+001	-1.591170e+001	-1.311101e+002
2415600000.000	-2.937672e+001	1.221823e+002	-1.963472e+001	5.235946e+001	-1.966950e+001	5.301211e+001	-1.631666e+001	1.671932e+002
2420500000.000	-2.886947e+001	1.085042e+002	-1.941719e+001	5.204574e+000	-1.931858e+001	5.441346e+000	-1.659082e+001	1.025942e+002
2425400000.000	-2.901387e+001	9.888961e+001	-1.954792e+001	-4.325066e+001	-1.941708e+001	-4.403254e+001	-1.732180e+001	3.786653e+001
2430300000.000	-2.921877e+001	9.223063e+001	-1.992358e+001	-9.016422e+001	-1.993305e+001	-9.165718e+001	-1.886250e+001	-2.523656e+001
2435200000.000	-2.892274e+001	8.603949e+001	-2.025433e+001	-1.358696e+002	-2.042974e+001	-1.369649e+002	-2.110937e+001	-8.733253e+001
