!Agilent Technologies,E5061B,MY49305579,A.02.22
!Date: Thu Aug 24 16:23:08 2017
!Data & Calibration Information:
!Freq	S11:SOLT2(ON)	S21:SOLT2(ON)	S12:SOLT2(ON)	S22:SOLT2(ON)
# Hz S dB R 50
1710000000.000	-2.346162e+001	-1.040487e+002	-1.673605e+001	7.384797e+001	-1.651758e+001	7.427997e+001	-2.509856e+001	1.612381e+002
1714900000.000	-2.203884e+001	-1.259330e+002	-1.683119e+001	2.963236e+001	-1.671084e+001	2.872959e+001	-2.552664e+001	7.841443e+001
1719800000.000	-2.132672e+001	-1.462575e+002	-1.693779e+001	-1.510349e+001	-1.696564e+001	-1.549324e+001	-2.402256e+001	-1.541577e+001
1724700000.000	-2.091152e+001	-1.651151e+002	-1.720532e+001	-5.891139e+001	-1.715140e+001	-5.882624e+001	-2.064891e+001	-9.570764e+001
1729600000.000	-2.074973e+001	1.764200e+002	-1.713678e+001	-1.006453e+002	-1.709741e+001	-1.011175e+002	-1.811199e+001	-1.614765e+002
1734500000.000	-2.101278e+001	1.590221e+002	-1.674325e+001	-1.448594e+002	-1.680422e+001	-1.446550e+002	-1.687724e+001	1.362365e+002
1739400000.000	-2.164369e+001	1.421887e+002	-1.664410e+001	1.692872e+002	-1.647567e+001	1.700313e+002	-1.665594e+001	6.873454e+001
1744300000.000	-2.279401e+001	1.260575e+002	-1.666273e+001	1.256768e+002	-1.638970e+001	1.238182e+002	-1.658547e+001	-8.767101e+000
1749200000.000	-2.448610e+001	1.098045e+002	-1.615014e+001	8.201832e+001	-1.643249e+001	7.918542e+001	-1.551145e+001	-8.596425e+001
1754100000.000	-2.699906e+001	9.267751e+001	-1.569912e+001	3.386821e+001	-1.622168e+001	3.525922e+001	-1.420565e+001	-1.558932e+002
1759000000.000	-3.064136e+001	7.203001e+001	-1.591092e+001	-1.374362e+001	-1.574445e+001	-1.040861e+001	-1.367777e+001	1.344905e+002
1763900000.000	-3.671814e+001	3.760972e+001	-1.588968e+001	-5.782378e+001	-1.546495e+001	-5.909055e+001	-1.411367e+001	5.731968e+001
1768800000.000	-4.135965e+001	-5.392686e+001	-1.546594e+001	-1.052882e+002	-1.570278e+001	-1.076110e+002	-1.474794e+001	-2.491268e+001
1773700000.000	-3.468007e+001	-1.143350e+002	-1.575712e+001	-1.550679e+002	-1.607415e+001	-1.535523e+002	-1.492350e+001	-1.016722e+002
1778600000.000	-3.063232e+001	-1.419286e+002	-1.634850e+001	1.599442e+002	-1.620030e+001	1.616678e+002	-1.537365e+001	-1.726643e+002
1783500000.000	-2.809367e+001	-1.641552e+002	-1.636499e+001	1.158568e+002	-1.621288e+001	1.154044e+002	-1.691714e+001	1.148832e+002
1788400000.000	-2.650492e+001	1.741335e+002	-1.648224e+001	6.890899e+001	-1.649559e+001	6.858972e+001	-1.940498e+001	3.464714e+001
1793300000.000	-2.570001e+001	1.536510e+002	-1.695176e+001	2.333416e+001	-1.691338e+001	2.329889e+001	-2.138849e+001	-5.253845e+001
1798200000.000	-2.547585e+001	1.333095e+002	-1.725888e+001	-2.016691e+001	-1.726533e+001	-2.053656e+001	-2.197315e+001	-1.345342e+002
1803100000.000	-2.595216e+001	1.126913e+002	-1.737327e+001	-6.422607e+001	-1.741144e+001	-6.406882e+001	-2.301104e+001	1.484338e+002
1808000000.000	-2.702472e+001	9.031317e+001	-1.759948e+001	-1.086848e+002	-1.753896e+001	-1.087235e+002	-2.523455e+001	6.008252e+001
1812900000.000	-2.855723e+001	6.287704e+001	-1.782867e+001	-1.518997e+002	-1.787321e+001	-1.528841e+002	-2.458707e+001	-4.146600e+001
1817800000.000	-2.997173e+001	2.535445e+001	-1.780085e+001	1.651910e+002	-1.806169e+001	1.653650e+002	-2.125922e+001	-1.222955e+002
1822700000.000	-3.031077e+001	-2.042656e+001	-1.786624e+001	1.205067e+002	-1.789509e+001	1.227312e+002	-1.942908e+001	1.680449e+002
1827600000.000	-2.905712e+001	-5.794467e+001	-1.803051e+001	7.773711e+001	-1.768758e+001	7.854661e+001	-1.878613e+001	9.615656e+001
1832500000.000	-2.749634e+001	-8.584811e+001	-1.781091e+001	3.526163e+001	-1.766055e+001	3.347790e+001	-1.806865e+001	1.903280e+001
1837400000.000	-2.632834e+001	-1.060345e+002	-1.758833e+001	-1.005674e+001	-1.780462e+001	-1.059309e+001	-1.690783e+001	-5.517594e+001
1842300000.000	-2.522662e+001	-1.234709e+002	-1.778229e+001	-5.454195e+001	-1.782422e+001	-5.297686e+001	-1.578379e+001	-1.220447e+002
1847200000.000	-2.447201e+001	-1.414642e+002	-1.772880e+001	-9.586778e+001	-1.751083e+001	-9.524872e+001	-1.495840e+001	1.726034e+002
1852100000.000	-2.410564e+001	-1.583980e+002	-1.705627e+001	-1.391300e+002	-1.694969e+001	-1.397926e+002	-1.456603e+001	1.039916e+002
1857000000.000	-2.394635e+001	-1.753698e+002	-1.667727e+001	1.730741e+002	-1.664012e+001	1.732572e+002	-1.449790e+001	3.066259e+001
1861900000.000	-2.423244e+001	1.698103e+002	-1.686998e+001	1.275828e+002	-1.668149e+001	1.271713e+002	-1.449336e+001	-4.413077e+001
1866800000.000	-2.453430e+001	1.586022e+002	-1.658484e+001	8.473144e+001	-1.660162e+001	8.304621e+001	-1.407169e+001	-1.164979e+002
1871700000.000	-2.505797e+001	1.490516e+002	-1.595202e+001	3.770474e+001	-1.619830e+001	3.813034e+001	-1.357427e+001	1.739328e+002
1876600000.000	-2.560249e+001	1.431648e+002	-1.599207e+001	-1.148141e+001	-1.579371e+001	-9.563399e+000	-1.374813e+001	1.025662e+002
1881500000.000	-2.604566e+001	1.384506e+002	-1.621613e+001	-5.694379e+001	-1.580309e+001	-5.882870e+001	-1.494686e+001	2.526496e+001
1886400000.000	-2.655013e+001	1.325912e+002	-1.601030e+001	-1.030590e+002	-1.621732e+001	-1.063496e+002	-1.614558e+001	-5.584462e+001
1891300000.000	-2.763248e+001	1.266642e+002	-1.610378e+001	-1.519143e+002	-1.653276e+001	-1.515205e+002	-1.677510e+001	-1.313512e+002
1896200000.000	-2.942725e+001	1.230520e+002	-1.662934e+001	1.616574e+002	-1.661109e+001	1.632880e+002	-1.817595e+001	1.585343e+002
1901100000.000	-3.071128e+001	1.326865e+002	-1.683675e+001	1.166847e+002	-1.671450e+001	1.161424e+002	-2.169358e+001	8.169283e+001
1906000000.000	-3.056978e+001	1.318038e+002	-1.714098e+001	7.025308e+001	-1.727074e+001	6.966018e+001	-2.559070e+001	-2.381432e+001
1910900000.000	-3.076694e+001	1.314662e+002	-1.766899e+001	2.526124e+001	-1.775372e+001	2.591056e+001	-2.465460e+001	-1.270875e+002
1915800000.000	-3.049444e+001	1.272082e+002	-1.801941e+001	-1.786510e+001	-1.797582e+001	-1.755016e+001	-2.392959e+001	1.480389e+002
1920700000.000	-3.043087e+001	1.210166e+002	-1.818313e+001	-6.190801e+001	-1.816638e+001	-6.196826e+001	-2.347825e+001	5.641010e+001
1925600000.000	-3.018744e+001	1.129743e+002	-1.852276e+001	-1.060556e+002	-1.850036e+001	-1.061431e+002	-2.136340e+001	-3.260015e+001
1930500000.000	-3.026388e+001	1.012731e+002	-1.879286e+001	-1.483974e+002	-1.881965e+001	-1.487541e+002	-1.912023e+001	-1.078008e+002
1935400000.000	-3.073659e+001	8.861896e+001	-1.875837e+001	1.686422e+002	-1.887945e+001	1.690814e+002	-1.741160e+001	-1.762986e+002
1940300000.000	-3.212480e+001	6.880297e+001	-1.888505e+001	1.241796e+002	-1.880872e+001	1.256687e+002	-1.617448e+001	1.150144e+002
1945200000.000	-3.562044e+001	4.667989e+001	-1.920161e+001	8.131863e+001	-1.886694e+001	8.103322e+001	-1.545925e+001	4.374369e+001
1950100000.000	-4.130568e+001	1.404114e+001	-1.923442e+001	3.980587e+001	-1.918608e+001	3.736995e+001	-1.499649e+001	-2.862939e+001
1955000000.000	-4.258327e+001	-6.576939e+001	-1.908832e+001	-3.056280e+000	-1.945659e+001	-3.775610e+000	-1.426861e+001	-9.761112e+001
1959900000.000	-3.601305e+001	-1.206977e+002	-1.910941e+001	-4.640001e+001	-1.926665e+001	-4.395843e+001	-1.329977e+001	-1.629084e+002
1964800000.000	-3.266480e+001	-1.495789e+002	-1.906801e+001	-8.748970e+001	-1.872315e+001	-8.608046e+001	-1.257902e+001	1.323791e+002
1969700000.000	-3.061403e+001	-1.694020e+002	-1.853185e+001	-1.294764e+002	-1.825611e+001	-1.313047e+002	-1.245121e+001	6.369465e+001
1974600000.000	-2.974156e+001	1.697065e+002	-1.805257e+001	-1.745433e+002	-1.819365e+001	-1.763085e+002	-1.290964e+001	-8.790607e+000
1979500000.000	-2.985003e+001	1.557437e+002	-1.793314e+001	1.407032e+002	-1.812602e+001	1.408294e+002	-1.323979e+001	-7.975170e+001
1984400000.000	-2.926501e+001	1.441755e+002	-1.753329e+001	9.859419e+001	-1.759008e+001	9.922003e+001	-1.287303e+001	-1.470199e+002
1989300000.000	-2.869935e+001	1.260799e+002	-1.655986e+001	5.242970e+001	-1.655796e+001	5.327267e+001	-1.234320e+001	1.432727e+002
1994200000.000	-2.939376e+001	1.050684e+002	-1.618988e+001	2.317147e+000	-1.600022e+001	3.206691e+000	-1.286678e+001	7.046916e+001
1999100000.000	-3.145632e+001	8.339308e+001	-1.631331e+001	-4.581754e+001	-1.605431e+001	-4.696319e+001	-1.426337e+001	-4.322756e+000
2004000000.000	-3.595978e+001	5.559742e+001	-1.628781e+001	-9.269053e+001	-1.636877e+001	-9.464619e+001	-1.573988e+001	-7.818391e+001
2008900000.000	-4.363093e+001	-2.769016e+001	-1.631928e+001	-1.412051e+002	-1.654298e+001	-1.410151e+002	-1.700453e+001	-1.480386e+002
2013800000.000	-3.497150e+001	-1.104649e+002	-1.673312e+001	1.705581e+002	-1.664706e+001	1.717036e+002	-1.915612e+001	1.455890e+002
2018700000.000	-2.948162e+001	-1.365805e+002	-1.724620e+001	1.241680e+002	-1.702696e+001	1.235364e+002	-2.400697e+001	7.734517e+001
2023600000.000	-2.655015e+001	-1.556211e+002	-1.774795e+001	7.837520e+001	-1.772150e+001	7.696959e+001	-3.407547e+001	-2.194904e+001
2028500000.000	-2.496035e+001	-1.712168e+002	-1.835753e+001	3.349848e+001	-1.840057e+001	3.272539e+001	-3.263883e+001	-1.773612e+002
2033400000.000	-2.405123e+001	1.750371e+002	-1.892400e+001	-9.696343e+000	-1.894015e+001	-1.058899e+001	-2.995575e+001	8.274594e+001
2038300000.000	-2.349283e+001	1.609378e+002	-1.933703e+001	-5.240727e+001	-1.946228e+001	-5.336704e+001	-2.595926e+001	-1.859519e+001
2043200000.000	-2.344040e+001	1.471602e+002	-1.977452e+001	-9.466511e+001	-1.993469e+001	-9.460786e+001	-2.148698e+001	-9.514730e+001
2048100000.000	-2.346384e+001	1.335271e+002	-2.005487e+001	-1.352075e+002	-2.009050e+001	-1.346914e+002	-1.874580e+001	-1.597821e+002
2053000000.000	-2.360566e+001	1.199896e+002	-1.997834e+001	-1.759825e+002	-1.992035e+001	-1.757219e+002	-1.726655e+001	1.361132e+002
2057900000.000	-2.372082e+001	1.067577e+002	-1.981676e+001	1.414030e+002	-1.969304e+001	1.412559e+002	-1.645867e+001	6.765643e+001
2062800000.000	-2.384528e+001	9.263270e+001	-1.985779e+001	9.872954e+001	-1.974873e+001	9.756092e+001	-1.599490e+001	-3.441447e+000
2067700000.000	-2.429435e+001	7.887743e+001	-1.977448e+001	5.754496e+001	-1.986640e+001	5.571188e+001	-1.539986e+001	-7.293912e+001
2072600000.000	-2.494785e+001	6.600239e+001	-1.938437e+001	1.556449e+001	-1.969905e+001	1.539284e+001	-1.448835e+001	-1.391060e+002
2077500000.000	-2.579456e+001	5.454221e+001	-1.908226e+001	-2.849281e+001	-1.917946e+001	-2.641806e+001	-1.348016e+001	1.560047e+002
2082400000.000	-2.685551e+001	4.268032e+001	-1.897196e+001	-7.154483e+001	-1.860741e+001	-7.053044e+001	-1.279483e+001	8.969688e+001
2087300000.000	-2.796392e+001	3.054300e+001	-1.867364e+001	-1.136286e+002	-1.836610e+001	-1.160434e+002	-1.272175e+001	2.024394e+001
2092200000.000	-2.907082e+001	1.409289e+001	-1.813840e+001	-1.569165e+002	-1.835136e+001	-1.597792e+002	-1.292176e+001	-4.919908e+001
2097100000.000	-3.053712e+001	-7.786672e+000	-1.771508e+001	1.587727e+002	-1.812374e+001	1.589088e+002	-1.269794e+001	-1.152319e+002
2102000000.000	-3.220081e+001	-3.373212e+001	-1.722351e+001	1.151667e+002	-1.731518e+001	1.171943e+002	-1.212235e+001	-1.796323e+002
2106900000.000	-3.331970e+001	-6.704103e+001	-1.641743e+001	7.050534e+001	-1.617978e+001	7.141548e+001	-1.175041e+001	1.118678e+002
2111800000.000	-3.462409e+001	-1.062534e+002	-1.564394e+001	2.193372e+001	-1.544868e+001	2.091474e+001	-1.214963e+001	3.614782e+001
2116700000.000	-3.687368e+001	-1.433072e+002	-1.537565e+001	-2.761863e+001	-1.543046e+001	-2.900406e+001	-1.318401e+001	-4.105070e+001
2121600000.000	-3.997733e+001	-1.637943e+002	-1.528880e+001	-7.589149e+001	-1.547867e+001	-7.602755e+001	-1.426455e+001	-1.135629e+002
2126500000.000	-4.369758e+001	-1.657237e+002	-1.517712e+001	-1.247818e+002	-1.524563e+001	-1.234832e+002	-1.569003e+001	1.764975e+002
2131400000.000	-4.095164e+001	-1.194682e+002	-1.541691e+001	-1.742788e+002	-1.521001e+001	-1.732528e+002	-1.835719e+001	1.047015e+002
2136300000.000	-3.373492e+001	-1.254295e+002	-1.590695e+001	1.380680e+002	-1.565986e+001	1.374626e+002	-2.301896e+001	2.722679e+001
2141200000.000	-2.979954e+001	-1.454392e+002	-1.635915e+001	9.196370e+001	-1.625334e+001	9.075538e+001	-2.891484e+001	-6.747795e+001
2146100000.000	-2.754828e+001	-1.591832e+002	-1.676211e+001	4.600231e+001	-1.668853e+001	4.511593e+001	-3.164473e+001	1.775296e+002
2151000000.000	-2.531738e+001	-1.739334e+002	-1.727623e+001	7.593022e-001	-1.719798e+001	-7.585123e-001	-3.172252e+001	5.708838e+001
2155900000.000	-2.425860e+001	1.713823e+002	-1.775573e+001	-4.328080e+001	-1.786351e+001	-4.519078e+001	-2.662779e+001	-5.437102e+001
2160800000.000	-2.353541e+001	1.594494e+002	-1.820885e+001	-8.684186e+001	-1.844607e+001	-8.744911e+001	-2.176733e+001	-1.299775e+002
2165700000.000	-2.296169e+001	1.480575e+002	-1.859505e+001	-1.290981e+002	-1.869883e+001	-1.286400e+002	-1.902176e+001	1.664294e+002
2170600000.000	-2.248731e+001	1.349053e+002	-1.876818e+001	-1.709681e+002	-1.869867e+001	-1.709453e+002	-1.774086e+001	1.016693e+002
2175500000.000	-2.249514e+001	1.204965e+002	-1.881388e+001	1.465733e+002	-1.877752e+001	1.454432e+002	-1.721264e+001	3.034592e+001
2180400000.000	-2.276708e+001	1.079234e+002	-1.890045e+001	1.040560e+002	-1.904768e+001	1.027876e+002	-1.659355e+001	-4.264746e+001
2185300000.000	-2.288353e+001	9.587745e+001	-1.892038e+001	6.224136e+001	-1.917224e+001	6.200264e+001	-1.563237e+001	-1.108498e+002
2190200000.000	-2.293359e+001	8.367829e+001	-1.871551e+001	2.067773e+001	-1.889653e+001	2.173273e+001	-1.459085e+001	-1.754370e+002
2195100000.000	-2.294286e+001	7.103948e+001	-1.836455e+001	-2.220186e+001	-1.829113e+001	-2.070325e+001	-1.358011e+001	1.187692e+002
2200000000.000	-2.314211e+001	5.714809e+001	-1.805140e+001	-6.587997e+001	-1.777449e+001	-6.608661e+001	-1.296256e+001	5.014741e+001
2204900000.000	-2.361853e+001	4.298647e+001	-1.774923e+001	-1.096551e+002	-1.767850e+001	-1.117981e+002	-1.302908e+001	-1.838614e+001
2209800000.000	-2.453753e+001	2.829157e+001	-1.738411e+001	-1.538489e+002	-1.767279e+001	-1.551374e+002	-1.334280e+001	-8.558359e+001
2214700000.000	-2.577328e+001	1.303961e+001	-1.702884e+001	1.612700e+002	-1.729719e+001	1.625259e+002	-1.333536e+001	-1.523963e+002
2219600000.000	-2.757787e+001	-5.256521e+000	-1.669212e+001	1.161969e+002	-1.656889e+001	1.181461e+002	-1.294220e+001	1.395542e+002
2224500000.000	-3.013287e+001	-2.738076e+001	-1.628566e+001	7.057984e+001	-1.594318e+001	7.010951e+001	-1.286153e+001	6.881369e+001
2229400000.000	-3.387110e+001	-5.493839e+001	-1.595534e+001	2.368769e+001	-1.589129e+001	2.118497e+001	-1.360016e+001	-3.050130e+000
2234300000.000	-3.861087e+001	-9.168269e+001	-1.574196e+001	-2.346288e+001	-1.603359e+001	-2.506892e+001	-1.465401e+001	-7.254674e+001
2239200000.000	-4.199141e+001	-1.529429e+002	-1.560580e+001	-7.096374e+001	-1.592645e+001	-7.043520e+001	-1.566479e+001	-1.383691e+002
2244100000.000	-4.085773e+001	1.374802e+002	-1.558495e+001	-1.188036e+002	-1.567869e+001	-1.173413e+002	-1.714895e+001	1.580040e+002
2249000000.000	-3.906044e+001	8.589017e+001	-1.573108e+001	-1.668413e+002	-1.564806e+001	-1.660915e+002	-1.997076e+001	9.404587e+001
2253900000.000	-3.854017e+001	4.290358e+001	-1.604810e+001	1.456721e+002	-1.599052e+001	1.456728e+002	-2.435402e+001	3.059243e+001
2258800000.000	-3.887933e+001	-3.118759e-001	-1.645799e+001	9.913457e+001	-1.642847e+001	9.914172e+001	-2.950685e+001	-2.359229e+001
2263700000.000	-3.823123e+001	-5.841730e+001	-1.689198e+001	5.338943e+001	-1.683582e+001	5.324662e+001	-3.125282e+001	-4.703602e+001
2268600000.000	-3.558502e+001	-1.203319e+002	-1.738018e+001	8.235825e+000	-1.733715e+001	7.685607e+000	-2.690479e+001	-8.054079e+001
2273500000.000	-3.290827e+001	-1.634724e+002	-1.789088e+001	-3.594410e+001	-1.790659e+001	-3.635988e+001	-2.298975e+001	-1.318539e+002
2278400000.000	-3.168350e+001	1.707474e+002	-1.836975e+001	-7.894072e+001	-1.834955e+001	-7.881820e+001	-2.032752e+001	1.711287e+002
2283300000.000	-3.094736e+001	1.599712e+002	-1.868161e+001	-1.209546e+002	-1.853739e+001	-1.211207e+002	-1.857367e+001	1.102562e+002
2288200000.000	-2.957673e+001	1.534221e+002	-1.883307e+001	-1.630045e+002	-1.868321e+001	-1.644632e+002	-1.753813e+001	4.461238e+001
2293100000.000	-2.824455e+001	1.455293e+002	-1.893077e+001	1.546568e+002	-1.899469e+001	1.524838e+002	-1.692350e+001	-2.358776e+001
2298000000.000	-2.708070e+001	1.365189e+002	-1.897773e+001	1.125563e+002	-1.925887e+001	1.113559e+002	-1.625923e+001	-8.990272e+001
2302900000.000	-2.599176e+001	1.254873e+002	-1.892402e+001	7.063609e+001	-1.919174e+001	7.121021e+001	-1.546542e+001	-1.529697e+002
2307800000.000	-2.512458e+001	1.134868e+002	-1.872248e+001	2.846789e+001	-1.874874e+001	2.983827e+001	-1.470785e+001	1.435577e+002
2312700000.000	-2.411755e+001	1.008743e+002	-1.844858e+001	-1.452719e+001	-1.824303e+001	-1.428478e+001	-1.418294e+001	7.637136e+001
2317600000.000	-2.301021e+001	8.692937e+001	-1.819567e+001	-5.796973e+001	-1.806931e+001	-5.981573e+001	-1.399702e+001	7.172199e+000
2322500000.000	-2.191639e+001	7.054866e+001	-1.791307e+001	-1.015833e+002	-1.815060e+001	-1.035191e+002	-1.402709e+001	-5.980144e+001
2327400000.000	-2.123154e+001	5.161288e+001	-1.758701e+001	-1.455147e+002	-1.800984e+001	-1.451230e+002	-1.397477e+001	-1.243157e+002
2332300000.000	-2.115369e+001	3.074653e+001	-1.723093e+001	1.701146e+002	-1.738918e+001	1.727620e+002	-1.362369e+001	1.702797e+002
2337200000.000	-2.189725e+001	7.994322e+000	-1.683561e+001	1.251924e+002	-1.654508e+001	1.271834e+002	-1.304432e+001	1.023270e+002
2342100000.000	-2.355314e+001	-1.667948e+001	-1.647516e+001	7.916453e+001	-1.609686e+001	7.833328e+001	-1.294734e+001	3.278736e+001
2347000000.000	-2.614391e+001	-4.507550e+001	-1.624158e+001	3.299991e+001	-1.617303e+001	3.057818e+001	-1.356018e+001	-3.548707e+001
2351900000.000	-2.931237e+001	-8.181272e+001	-1.602109e+001	-1.319884e+001	-1.624349e+001	-1.463917e+001	-1.429297e+001	-1.021418e+002
2356800000.000	-3.169648e+001	-1.329263e+002	-1.579918e+001	-5.993943e+001	-1.602121e+001	-5.948891e+001	-1.457584e+001	-1.678241e+002
2361700000.000	-3.185440e+001	1.746914e+002	-1.566438e+001	-1.075362e+002	-1.564393e+001	-1.064015e+002	-1.487474e+001	1.258842e+002
2366600000.000	-3.121667e+001	1.348190e+002	-1.572745e+001	-1.553185e+002	-1.554900e+001	-1.556267e+002	-1.608310e+001	5.735452e+001
2371500000.000	-3.070111e+001	1.016968e+002	-1.591557e+001	1.573707e+002	-1.591252e+001	1.557136e+002	-1.822610e+001	-1.187126e+001
2376400000.000	-3.025314e+001	6.893642e+001	-1.620017e+001	1.102985e+002	-1.642643e+001	1.093331e+002	-2.032507e+001	-7.483177e+001
2381300000.000	-2.985333e+001	3.550081e+001	-1.660141e+001	6.376153e+001	-1.685193e+001	6.421357e+001	-2.204261e+001	-1.245087e+002
2386200000.000	-2.973945e+001	4.506479e+000	-1.709926e+001	1.821161e+001	-1.724444e+001	1.953512e+001	-2.306080e+001	-1.608262e+002
2391100000.000	-2.984269e+001	-2.332597e+001	-1.760723e+001	-2.608250e+001	-1.761056e+001	-2.438957e+001	-2.272233e+001	1.622586e+002
2396000000.000	-3.034552e+001	-5.065208e+001	-1.805942e+001	-6.923003e+001	-1.786394e+001	-6.800029e+001	-2.164257e+001	1.117619e+002
2400900000.000	-3.123560e+001	-7.845379e+001	-1.836590e+001	-1.115051e+002	-1.809096e+001	-1.117156e+002	-2.004839e+001	4.910528e+001
2405800000.000	-3.135449e+001	-1.080914e+002	-1.848925e+001	-1.539533e+002	-1.837011e+001	-1.552851e+002	-1.850517e+001	-1.601125e+001
2410700000.000	-3.019592e+001	-1.388589e+002	-1.863081e+001	1.633029e+002	-1.868717e+001	1.622043e+002	-1.748502e+001	-7.772043e+001
2415600000.000	-2.805826e+001	-1.669655e+002	-1.871900e+001	1.215242e+002	-1.882709e+001	1.213200e+002	-1.675594e+001	-1.386413e+002
2420500000.000	-2.607071e+001	1.683416e+002	-1.858338e+001	7.980090e+001	-1.859979e+001	8.025235e+001	-1.589710e+001	1.587075e+002
2425400000.000	-2.456764e+001	1.474245e+002	-1.834058e+001	3.693576e+001	-1.818080e+001	3.716763e+001	-1.491906e+001	9.416086e+001
2430300000.000	-2.346003e+001	1.285817e+002	-1.815179e+001	-6.534074e+000	-1.793571e+001	-7.887395e+000	-1.443246e+001	2.871503e+001
2435200000.000	-2.254224e+001	1.098683e+002	-1.796266e+001	-4.948296e+001	-1.798971e+001	-5.230266e+001	-1.461293e+001	-3.604467e+001
