!Agilent Technologies,E5061B,MY49305579,A.02.22
!Date: Thu Aug 24 16:23:21 2017
!Data & Calibration Information:
!Freq	S11:SOLT2(ON)	S21:SOLT2(ON)	S12:SOLT2(ON)	S22:SOLT2(ON)
# Hz S dB R 50
1710000000.000	-2.278408e+001	-1.408185e+002	-1.467086e+001	4.783849e+001	-1.412597e+001	4.454023e+001	-9.959438e+000	8.404578e+001
1714900000.000	-2.225545e+001	-1.574769e+002	-1.403109e+001	-2.492842e+000	-1.438528e+001	-5.230568e+000	-9.905560e+000	4.560969e+000
1719800000.000	-2.232499e+001	-1.763105e+002	-1.473244e+001	-5.332463e+001	-1.494318e+001	-5.170818e+001	-1.004245e+001	-7.102557e+001
1724700000.000	-2.280361e+001	1.673735e+002	-1.534016e+001	-9.544213e+001	-1.516574e+001	-9.519065e+001	-9.848398e+000	-1.406737e+002
1729600000.000	-2.346255e+001	1.511108e+002	-1.478828e+001	-1.392584e+002	-1.487712e+001	-1.397762e+002	-9.679707e+000	1.506507e+002
1734500000.000	-2.482846e+001	1.358000e+002	-1.469494e+001	1.702130e+002	-1.465756e+001	1.719468e+002	-1.033721e+001	7.762279e+001
1739400000.000	-2.715987e+001	1.222317e+002	-1.544348e+001	1.241758e+002	-1.502795e+001	1.235005e+002	-1.201382e+001	-9.823799e-002
1744300000.000	-3.109808e+001	1.161319e+002	-1.546819e+001	8.174409e+001	-1.554313e+001	7.853252e+001	-1.341941e+001	-7.768178e+001
1749200000.000	-3.619722e+001	1.337957e+002	-1.524752e+001	3.504441e+001	-1.569144e+001	3.536344e+001	-1.417330e+001	-1.502063e+002
1754100000.000	-3.580681e+001	1.757439e+002	-1.560427e+001	-1.186155e+001	-1.555367e+001	-9.265862e+000	-1.564123e+001	1.395370e+002
1759000000.000	-3.184389e+001	-1.710494e+002	-1.584478e+001	-5.503955e+001	-1.552907e+001	-5.563926e+001	-1.885588e+001	6.213586e+001
1763900000.000	-2.911468e+001	-1.785365e+002	-1.566553e+001	-9.970158e+001	-1.577124e+001	-1.013103e+002	-2.239219e+001	-3.448080e+001
1768800000.000	-2.780302e+001	1.687739e+002	-1.575683e+001	-1.456663e+002	-1.590846e+001	-1.450887e+002	-2.279101e+001	-1.339311e+002
1773700000.000	-2.724752e+001	1.544629e+002	-1.586306e+001	1.706170e+002	-1.578653e+001	1.708639e+002	-2.288979e+001	1.341563e+002
1778600000.000	-2.724909e+001	1.389073e+002	-1.559106e+001	1.260716e+002	-1.565211e+001	1.252865e+002	-2.229299e+001	3.260106e+001
1783500000.000	-2.768686e+001	1.231663e+002	-1.556199e+001	7.954079e+001	-1.571865e+001	8.001867e+001	-1.909064e+001	-5.796923e+001
1788400000.000	-2.840921e+001	1.065058e+002	-1.569015e+001	3.527784e+001	-1.566850e+001	3.610991e+001	-1.623804e+001	-1.312064e+002
1793300000.000	-3.016763e+001	8.853474e+001	-1.536971e+001	-8.361884e+000	-1.535712e+001	-8.214388e+000	-1.433659e+001	1.610216e+002
1798200000.000	-3.279107e+001	7.192786e+001	-1.494528e+001	-5.577209e+001	-1.491101e+001	-5.478647e+001	-1.309967e+001	8.995992e+001
1803100000.000	-3.721664e+001	4.949894e+001	-1.515903e+001	-1.033231e+002	-1.483716e+001	-1.033915e+002	-1.237803e+001	1.511576e+001
1808000000.000	-4.455723e+001	9.656789e+000	-1.519124e+001	-1.469445e+002	-1.514598e+001	-1.500402e+002	-1.168416e+001	-5.760494e+001
1812900000.000	-4.415713e+001	-8.010715e+001	-1.467406e+001	1.668229e+002	-1.527586e+001	1.658826e+002	-1.081968e+001	-1.242902e+002
1817800000.000	-3.869012e+001	-1.018180e+002	-1.470063e+001	1.170833e+002	-1.499576e+001	1.220007e+002	-9.670539e+000	1.711276e+002
1822700000.000	-3.398735e+001	-1.174239e+002	-1.523824e+001	7.132338e+001	-1.440788e+001	7.418431e+001	-8.906423e+000	1.007186e+002
1827600000.000	-3.197034e+001	-1.306950e+002	-1.498582e+001	2.836440e+001	-1.445872e+001	2.326039e+001	-8.834800e+000	2.602424e+001
1832500000.000	-3.087530e+001	-1.425002e+002	-1.449092e+001	-2.108843e+001	-1.513626e+001	-2.472894e+001	-9.097705e+000	-4.621104e+001
1837400000.000	-3.104158e+001	-1.518391e+002	-1.508817e+001	-7.213489e+001	-1.562517e+001	-6.870506e+001	-9.154485e+000	-1.127739e+002
1842300000.000	-3.097456e+001	-1.555597e+002	-1.602108e+001	-1.153990e+002	-1.563963e+001	-1.121156e+002	-8.935422e+000	-1.783730e+002
1847200000.000	-3.084651e+001	-1.631856e+002	-1.575042e+001	-1.570895e+002	-1.536630e+001	-1.584916e+002	-8.855119e+000	1.109745e+002
1852100000.000	-3.131212e+001	-1.671362e+002	-1.547236e+001	1.535321e+002	-1.555546e+001	1.525649e+002	-9.586023e+000	3.575313e+001
1857000000.000	-3.120534e+001	-1.674467e+002	-1.635552e+001	1.057577e+002	-1.629787e+001	1.061716e+002	-1.081624e+001	-3.808176e+001
1861900000.000	-3.013940e+001	-1.664097e+002	-1.687205e+001	6.481680e+001	-1.680637e+001	6.382380e+001	-1.181956e+001	-1.078967e+002
1866800000.000	-2.851496e+001	-1.680989e+002	-1.659567e+001	2.159805e+001	-1.678140e+001	2.154998e+001	-1.247407e+001	-1.752845e+002
1871700000.000	-2.679577e+001	-1.729030e+002	-1.665692e+001	-2.518698e+001	-1.658673e+001	-2.315822e+001	-1.360551e+001	1.162625e+002
1876600000.000	-2.513712e+001	-1.796664e+002	-1.707650e+001	-6.917812e+001	-1.663048e+001	-6.939830e+001	-1.604393e+001	4.466228e+001
1881500000.000	-2.368600e+001	1.698809e+002	-1.703536e+001	-1.117366e+002	-1.690340e+001	-1.144970e+002	-1.920644e+001	-3.209389e+001
1886400000.000	-2.289613e+001	1.566415e+002	-1.685199e+001	-1.566688e+002	-1.706800e+001	-1.582171e+002	-2.167529e+001	-1.104555e+002
1891300000.000	-2.284619e+001	1.424223e+002	-1.691882e+001	1.579893e+002	-1.704802e+001	1.578375e+002	-2.510460e+001	1.777960e+002
1896200000.000	-2.353337e+001	1.286854e+002	-1.695408e+001	1.135928e+002	-1.705064e+001	1.128506e+002	-3.822263e+001	8.012544e+001
1901100000.000	-2.438262e+001	1.196561e+002	-1.699297e+001	6.936944e+001	-1.723895e+001	6.931566e+001	-2.595347e+001	-1.021160e+002
1906000000.000	-2.480213e+001	1.049442e+002	-1.687971e+001	2.480736e+001	-1.695365e+001	2.621156e+001	-2.026621e+001	-1.707145e+002
1910900000.000	-2.619307e+001	8.764121e+001	-1.676844e+001	-1.946862e+001	-1.662819e+001	-1.911394e+001	-1.813061e+001	1.213179e+002
1915800000.000	-2.800080e+001	7.072570e+001	-1.645035e+001	-6.512103e+001	-1.644460e+001	-6.583466e+001	-1.667974e+001	4.623237e+001
1920700000.000	-3.070123e+001	5.067662e+001	-1.648725e+001	-1.125766e+002	-1.657292e+001	-1.126650e+002	-1.519281e+001	-2.845808e+001
1925600000.000	-3.462937e+001	3.466255e+001	-1.678612e+001	-1.570495e+002	-1.684523e+001	-1.569093e+002	-1.377964e+001	-9.713024e+001
1930500000.000	-3.914753e+001	1.161622e+001	-1.653595e+001	1.597695e+002	-1.666876e+001	1.603063e+002	-1.250806e+001	-1.629289e+002
1935400000.000	-4.570556e+001	-4.877875e+001	-1.615026e+001	1.128790e+002	-1.613669e+001	1.150560e+002	-1.144032e+001	1.296550e+002
1940300000.000	-4.092915e+001	-1.184456e+002	-1.629287e+001	6.529206e+001	-1.580043e+001	6.623384e+001	-1.078426e+001	5.834464e+001
1945200000.000	-3.529854e+001	-1.472436e+002	-1.637243e+001	2.062903e+001	-1.604727e+001	1.726652e+001	-1.078823e+001	-1.419714e+001
1950100000.000	-3.180415e+001	-1.669057e+002	-1.611286e+001	-2.565345e+001	-1.651792e+001	-2.848140e+001	-1.089575e+001	-8.316445e+001
1955000000.000	-3.021272e+001	1.761705e+002	-1.621563e+001	-7.445686e+001	-1.667326e+001	-7.237280e+001	-1.063696e+001	-1.483653e+002
1959900000.000	-2.874411e+001	1.635624e+002	-1.672588e+001	-1.200259e+002	-1.645198e+001	-1.169434e+002	-1.027151e+001	1.468446e+002
1964800000.000	-2.789923e+001	1.440139e+002	-1.663283e+001	-1.637669e+002	-1.614968e+001	-1.651514e+002	-1.032802e+001	7.846108e+001
1969700000.000	-2.817145e+001	1.246977e+002	-1.641928e+001	1.476894e+002	-1.650447e+001	1.447207e+002	-1.116429e+001	6.174598e+000
1974600000.000	-2.869039e+001	1.028587e+002	-1.695719e+001	9.838929e+001	-1.730063e+001	9.818364e+001	-1.217770e+001	-6.464816e+001
1979500000.000	-3.060491e+001	7.717325e+001	-1.777120e+001	5.330321e+001	-1.788417e+001	5.456087e+001	-1.265692e+001	-1.314381e+002
1984400000.000	-3.364185e+001	5.360462e+001	-1.820685e+001	1.049931e+001	-1.818708e+001	1.139617e+001	-1.281104e+001	1.644862e+002
1989300000.000	-3.709229e+001	2.184801e+001	-1.829168e+001	-3.370646e+001	-1.819324e+001	-3.272877e+001	-1.306062e+001	9.781430e+001
1994200000.000	-3.990280e+001	-4.014575e+001	-1.880324e+001	-7.929689e+001	-1.855555e+001	-7.899232e+001	-1.439654e+001	2.711351e+001
1999100000.000	-3.630460e+001	-1.005515e+002	-1.932991e+001	-1.211356e+002	-1.917011e+001	-1.223814e+002	-1.617097e+001	-4.324114e+001
2004000000.000	-3.206890e+001	-1.315962e+002	-1.940530e+001	-1.626837e+002	-1.948977e+001	-1.637665e+002	-1.759131e+001	-1.107981e+002
2008900000.000	-2.917135e+001	-1.503108e+002	-1.940387e+001	1.542029e+002	-1.945663e+001	1.545390e+002	-1.898265e+001	-1.730130e+002
2013800000.000	-2.707027e+001	-1.638818e+002	-1.953046e+001	1.112841e+002	-1.936602e+001	1.114796e+002	-2.154960e+001	1.283256e+002
2018700000.000	-2.545120e+001	-1.764806e+002	-1.945964e+001	6.929131e+001	-1.931995e+001	6.805612e+001	-2.711764e+001	7.144524e+001
2023600000.000	-2.441999e+001	1.701952e+002	-1.921462e+001	2.638666e+001	-1.923811e+001	2.489868e+001	-3.964797e+001	1.841703e+001
2028500000.000	-2.417157e+001	1.568750e+002	-1.900713e+001	-1.764161e+001	-1.907207e+001	-1.864117e+001	-4.227340e+001	9.470969e+001
2033400000.000	-2.440439e+001	1.448951e+002	-1.877400e+001	-6.147378e+001	-1.887941e+001	-6.249079e+001	-3.199094e+001	2.072118e+000
2038300000.000	-2.488353e+001	1.327521e+002	-1.849315e+001	-1.064861e+002	-1.867677e+001	-1.068883e+002	-2.476571e+001	-7.268566e+001
2043200000.000	-2.579152e+001	1.209078e+002	-1.839046e+001	-1.517186e+002	-1.851659e+001	-1.511880e+002	-2.074148e+001	-1.340201e+002
2048100000.000	-2.696733e+001	1.097468e+002	-1.823183e+001	1.639573e+002	-1.821901e+001	1.646054e+002	-1.847837e+001	1.662032e+002
2053000000.000	-2.840987e+001	1.012497e+002	-1.790722e+001	1.185242e+002	-1.782204e+001	1.187428e+002	-1.728024e+001	1.010748e+002
2057900000.000	-2.977566e+001	9.817757e+001	-1.776764e+001	7.182942e+001	-1.764137e+001	7.150041e+001	-1.661087e+001	3.067383e+001
2062800000.000	-3.031464e+001	9.828682e+001	-1.780224e+001	2.598002e+001	-1.773558e+001	2.468455e+001	-1.611280e+001	-4.040218e+001
2067700000.000	-3.038661e+001	1.006131e+002	-1.772598e+001	-1.929715e+001	-1.786625e+001	-2.047684e+001	-1.544223e+001	-1.078996e+002
2072600000.000	-2.947659e+001	1.017331e+002	-1.764146e+001	-6.542046e+001	-1.782745e+001	-6.489515e+001	-1.448133e+001	-1.718161e+002
2077500000.000	-2.816888e+001	9.800315e+001	-1.769700e+001	-1.119912e+002	-1.756848e+001	-1.105678e+002	-1.365541e+001	1.233439e+002
2082400000.000	-2.725091e+001	8.973512e+001	-1.794439e+001	-1.570245e+002	-1.758506e+001	-1.579688e+002	-1.341075e+001	5.703862e+001
2087300000.000	-2.639681e+001	8.106225e+001	-1.767913e+001	1.599317e+002	-1.763857e+001	1.565747e+002	-1.314707e+001	-1.131981e+001
2092200000.000	-2.534492e+001	6.356267e+001	-1.737979e+001	1.107795e+002	-1.781725e+001	1.092147e+002	-1.324527e+001	-8.366037e+001
2097100000.000	-2.534403e+001	4.215988e+001	-1.779505e+001	6.323753e+001	-1.810413e+001	6.473513e+001	-1.330824e+001	-1.493065e+002
2102000000.000	-2.556313e+001	2.073893e+001	-1.811733e+001	1.873774e+001	-1.802602e+001	2.045401e+001	-1.322501e+001	1.459310e+002
2106900000.000	-2.556671e+001	-4.538560e+000	-1.807773e+001	-2.635075e+001	-1.787730e+001	-2.650443e+001	-1.369206e+001	7.689086e+001
2111800000.000	-2.563808e+001	-3.256444e+001	-1.823129e+001	-7.355912e+001	-1.820771e+001	-7.458455e+001	-1.469251e+001	3.481018e+000
2116700000.000	-2.571091e+001	-6.038607e+001	-1.867707e+001	-1.191461e+002	-1.879777e+001	-1.195006e+002	-1.560527e+001	-6.782855e+001
2121600000.000	-2.535452e+001	-8.740865e+001	-1.896136e+001	-1.635677e+002	-1.907266e+001	-1.626904e+002	-1.627185e+001	-1.342355e+002
2126500000.000	-2.497662e+001	-1.143114e+002	-1.926933e+001	1.521740e+002	-1.918107e+001	1.537313e+002	-1.723745e+001	1.614448e+002
2131400000.000	-2.442504e+001	-1.377210e+002	-1.949245e+001	1.085946e+002	-1.916492e+001	1.092344e+002	-1.905586e+001	9.422162e+001
2136300000.000	-2.362986e+001	-1.589574e+002	-1.959103e+001	6.562626e+001	-1.927245e+001	6.422223e+001	-2.181304e+001	2.201755e+001
2141200000.000	-2.287895e+001	1.795427e+002	-1.938834e+001	2.150049e+001	-1.930474e+001	1.926958e+001	-2.420749e+001	-5.415126e+001
2146100000.000	-2.311756e+001	1.598995e+002	-1.955919e+001	-2.537556e+001	-1.963993e+001	-2.687307e+001	-2.515946e+001	-1.308710e+002
2151000000.000	-2.344913e+001	1.465758e+002	-1.992764e+001	-6.890967e+001	-1.998995e+001	-6.992970e+001	-2.748571e+001	1.624230e+002
2155900000.000	-2.409347e+001	1.347554e+002	-2.001491e+001	-1.121586e+002	-2.009219e+001	-1.131450e+002	-3.494294e+001	1.081837e+002
2160800000.000	-2.502950e+001	1.263331e+002	-2.004038e+001	-1.559520e+002	-2.017736e+001	-1.566586e+002	-3.731527e+001	-1.446574e+002
2165700000.000	-2.582084e+001	1.220686e+002	-2.012420e+001	1.601341e+002	-2.023303e+001	1.600372e+002	-2.803543e+001	1.658527e+002
2170600000.000	-2.605358e+001	1.169895e+002	-2.013586e+001	1.172839e+002	-2.017019e+001	1.171577e+002	-2.537534e+001	1.037044e+002
2175500000.000	-2.655111e+001	1.099496e+002	-1.990229e+001	7.341136e+001	-1.993272e+001	7.291691e+001	-2.451958e+001	2.784608e+001
2180400000.000	-2.699872e+001	1.056797e+002	-1.979478e+001	2.824093e+001	-1.989174e+001	2.772822e+001	-2.273896e+001	-5.005775e+001
2185300000.000	-2.688002e+001	1.014229e+002	-1.980107e+001	-1.637571e+001	-1.993356e+001	-1.639636e+001	-2.045643e+001	-1.194291e+002
2190200000.000	-2.638581e+001	9.543595e+001	-1.966175e+001	-6.070963e+001	-1.973360e+001	-5.997612e+001	-1.869130e+001	1.755446e+002
2195100000.000	-2.564128e+001	8.709455e+001	-1.948878e+001	-1.066848e+002	-1.938828e+001	-1.059620e+002	-1.743888e+001	1.092443e+002
2200000000.000	-2.520314e+001	7.539659e+001	-1.960585e+001	-1.529642e+002	-1.941796e+001	-1.535022e+002	-1.686538e+001	4.071260e+001
2204900000.000	-2.522390e+001	6.386455e+001	-1.982013e+001	1.621905e+002	-1.981177e+001	1.605375e+002	-1.700752e+001	-2.608720e+001
2209800000.000	-2.560242e+001	5.288929e+001	-1.991218e+001	1.180343e+002	-2.012531e+001	1.170796e+002	-1.721695e+001	-9.247944e+001
2214700000.000	-2.628277e+001	4.209763e+001	-1.996793e+001	7.371628e+001	-2.015232e+001	7.445026e+001	-1.712208e+001	-1.589722e+002
2219600000.000	-2.727907e+001	3.210427e+001	-2.001477e+001	2.975222e+001	-1.995824e+001	3.076425e+001	-1.668800e+001	1.349231e+002
2224500000.000	-2.828424e+001	2.246048e+001	-1.994271e+001	-1.415905e+001	-1.976042e+001	-1.453506e+001	-1.648701e+001	6.834023e+001
2229400000.000	-2.909079e+001	1.175723e+001	-1.976476e+001	-5.847481e+001	-1.974574e+001	-6.028619e+001	-1.658528e+001	7.540072e-001
2234300000.000	-2.949769e+001	-4.231361e+000	-1.957716e+001	-1.045860e+002	-1.982232e+001	-1.059190e+002	-1.679749e+001	-6.828655e+001
2239200000.000	-3.041230e+001	-2.525546e+001	-1.974097e+001	-1.506809e+002	-2.003340e+001	-1.502417e+002	-1.715889e+001	-1.326750e+002
2244100000.000	-3.137144e+001	-4.588507e+001	-1.987145e+001	1.648419e+002	-1.999216e+001	1.664515e+002	-1.761418e+001	1.662100e+002
2249000000.000	-3.194760e+001	-6.678534e+001	-1.988551e+001	1.205198e+002	-1.978511e+001	1.218495e+002	-1.874802e+001	1.029088e+002
2253900000.000	-3.187980e+001	-8.978373e+001	-1.983879e+001	7.587956e+001	-1.966797e+001	7.603424e+001	-2.035585e+001	3.549251e+001
2258800000.000	-3.130737e+001	-1.141089e+002	-1.980914e+001	3.087624e+001	-1.972258e+001	3.027748e+001	-2.144152e+001	-3.403154e+001
2263700000.000	-2.975518e+001	-1.382195e+002	-1.980040e+001	-1.423166e+001	-1.980414e+001	-1.464398e+001	-2.172965e+001	-9.975954e+001
2268600000.000	-2.781254e+001	-1.650282e+002	-1.975176e+001	-5.884175e+001	-1.971574e+001	-5.880690e+001	-2.178954e+001	-1.617356e+002
2273500000.000	-2.635709e+001	1.688704e+002	-1.957499e+001	-1.046470e+002	-1.944795e+001	-1.049754e+002	-2.267914e+001	1.334582e+002
2278400000.000	-2.584805e+001	1.455430e+002	-1.960710e+001	-1.516192e+002	-1.951696e+001	-1.528058e+002	-2.602853e+001	6.720785e+001
2283300000.000	-2.611391e+001	1.287633e+002	-1.987108e+001	1.618784e+002	-1.989643e+001	1.605929e+002	-3.229958e+001	7.964055e+000
2288200000.000	-2.634368e+001	1.175323e+002	-2.021797e+001	1.168598e+002	-2.029078e+001	1.158677e+002	-4.015445e+001	-1.942418e+001
2293100000.000	-2.637619e+001	1.069996e+002	-2.044954e+001	7.270779e+001	-2.053838e+001	7.189702e+001	-3.695157e+001	-2.949273e+001
2298000000.000	-2.661618e+001	9.489029e+001	-2.059929e+001	2.844930e+001	-2.072524e+001	2.783976e+001	-3.088149e+001	-7.969765e+001
2302900000.000	-2.721045e+001	8.199272e+001	-2.074560e+001	-1.589385e+001	-2.089516e+001	-1.603868e+001	-2.685820e+001	-1.351999e+002
2307800000.000	-2.827376e+001	7.032247e+001	-2.089362e+001	-6.007604e+001	-2.099563e+001	-5.962026e+001	-2.460082e+001	1.666815e+002
2312700000.000	-2.949321e+001	6.347686e+001	-2.102028e+001	-1.040978e+002	-2.101259e+001	-1.035167e+002	-2.347159e+001	1.047349e+002
2317600000.000	-3.030893e+001	6.223805e+001	-2.118332e+001	-1.480527e+002	-2.110143e+001	-1.481584e+002	-2.232110e+001	3.901373e+001
2322500000.000	-3.017968e+001	6.390675e+001	-2.130277e+001	1.686535e+002	-2.129983e+001	1.678754e+002	-2.114393e+001	-2.754049e+001
2327400000.000	-2.939712e+001	6.295132e+001	-2.135208e+001	1.253914e+002	-2.148919e+001	1.249452e+002	-2.028091e+001	-9.234593e+001
2332300000.000	-2.880353e+001	5.785983e+001	-2.143316e+001	8.250157e+001	-2.154154e+001	8.309452e+001	-1.942307e+001	-1.570067e+002
2337200000.000	-2.904615e+001	5.432032e+001	-2.136606e+001	4.047501e+001	-2.128641e+001	4.138658e+001	-1.819852e+001	1.370455e+002
2342100000.000	-2.905730e+001	5.631806e+001	-2.106681e+001	-1.438482e+000	-2.084150e+001	-1.647929e+000	-1.682094e+001	7.075705e+001
2347000000.000	-2.783828e+001	5.525216e+001	-2.040979e+001	-4.435512e+001	-2.029295e+001	-4.621035e+001	-1.588400e+001	1.753360e+000
2351900000.000	-2.688322e+001	4.249577e+001	-1.969731e+001	-9.159244e+001	-1.988783e+001	-9.342667e+001	-1.575926e+001	-7.026685e+001
2356800000.000	-2.702595e+001	2.619159e+001	-1.957053e+001	-1.399705e+002	-1.987258e+001	-1.400531e+002	-1.589856e+001	-1.395134e+002
2361700000.000	-2.728803e+001	7.045430e+000	-1.962353e+001	1.728676e+002	-1.976244e+001	1.742586e+002	-1.572387e+001	1.552937e+002
2366600000.000	-2.759850e+001	-1.748706e+001	-1.983329e+001	1.264550e+002	-1.970003e+001	1.275031e+002	-1.575861e+001	8.956112e+001
2371500000.000	-2.810642e+001	-4.557056e+001	-2.006108e+001	8.145262e+001	-1.989794e+001	8.069054e+001	-1.630492e+001	2.030287e+001
2376400000.000	-2.872502e+001	-7.274466e+001	-2.013538e+001	3.755556e+001	-2.024761e+001	3.623279e+001	-1.673593e+001	-4.870558e+001
2381300000.000	-2.934606e+001	-9.806938e+001	-2.000649e+001	-6.897346e+000	-2.028003e+001	-6.714750e+000	-1.687575e+001	-1.122304e+002
2386200000.000	-2.990358e+001	-1.224315e+002	-1.994970e+001	-5.222387e+001	-2.005656e+001	-5.035493e+001	-1.716002e+001	-1.711389e+002
2391100000.000	-3.035093e+001	-1.489275e+002	-1.989020e+001	-9.694569e+001	-1.968282e+001	-9.536804e+001	-1.784689e+001	1.270298e+002
2396000000.000	-3.040347e+001	-1.791267e+002	-1.965417e+001	-1.420152e+002	-1.937605e+001	-1.425604e+002	-1.889814e+001	5.782491e+001
2400900000.000	-3.020953e+001	1.492499e+002	-1.938182e+001	1.708665e+002	-1.931868e+001	1.693985e+002	-1.978702e+001	-1.366272e+001
2405800000.000	-3.035428e+001	1.216240e+002	-1.946909e+001	1.223909e+002	-1.955718e+001	1.216288e+002	-2.124097e+001	-7.919126e+001
2410700000.000	-3.107404e+001	1.047500e+002	-1.988197e+001	7.587022e+001	-1.994297e+001	7.563312e+001	-2.364186e+001	-1.341146e+002
2415600000.000	-3.160476e+001	9.719012e+001	-2.015911e+001	3.104653e+001	-2.018555e+001	3.103428e+001	-2.569917e+001	1.770617e+002
2420500000.000	-3.204405e+001	9.246114e+001	-2.025240e+001	-1.351155e+001	-2.024446e+001	-1.372469e+001	-2.674513e+001	1.303548e+002
2425400000.000	-3.304670e+001	9.273472e+001	-2.028697e+001	-5.949768e+001	-2.026540e+001	-5.971219e+001	-2.651344e+001	8.813887e+001
2430300000.000	-3.305735e+001	1.013578e+002	-2.051616e+001	-1.058861e+002	-2.047946e+001	-1.063113e+002	-2.502265e+001	4.643958e+001
2435200000.000	-3.120341e+001	1.032239e+002	-2.086770e+001	-1.513251e+002	-2.084622e+001	-1.522831e+002	-2.334972e+001	-4.998246e+000
