!Agilent Technologies,E5061B,MY49305579,A.02.22
!Date: Thu Aug 24 16:23:43 2017
!Data & Calibration Information:
!Freq	S11:SOLT2(ON)	S21:SOLT2(ON)	S12:SOLT2(ON)	S22:SOLT2(ON)
# Hz S dB R 50
1710000000.000	-2.965149e+001	-1.158768e+002	-1.790890e+001	-2.695468e+001	-1.760710e+001	-2.884789e+001	-1.446294e+001	7.415065e+001
1714900000.000	-2.711491e+001	-1.274125e+002	-1.726055e+001	-7.606497e+001	-1.743521e+001	-7.738644e+001	-1.439897e+001	4.592113e-001
1719800000.000	-2.568382e+001	-1.407148e+002	-1.749987e+001	-1.251927e+002	-1.757194e+001	-1.241888e+002	-1.426761e+001	-7.032292e+001
1724700000.000	-2.459475e+001	-1.546420e+002	-1.768132e+001	-1.695727e+002	-1.753804e+001	-1.693911e+002	-1.382204e+001	-1.346121e+002
1729600000.000	-2.386694e+001	-1.683557e+002	-1.718186e+001	1.454814e+002	-1.719077e+001	1.450190e+002	-1.353030e+001	1.647317e+002
1734500000.000	-2.344555e+001	1.790354e+002	-1.678264e+001	9.617496e+001	-1.679804e+001	9.718434e+001	-1.382183e+001	1.029770e+002
1739400000.000	-2.315518e+001	1.669256e+002	-1.700275e+001	4.729322e+001	-1.667838e+001	4.778059e+001	-1.478421e+001	3.608225e+001
1744300000.000	-2.312685e+001	1.540956e+002	-1.712680e+001	1.774124e+000	-1.688993e+001	-8.189090e-001	-1.552908e+001	-3.540453e+001
1749200000.000	-2.351251e+001	1.399492e+002	-1.681219e+001	-4.499546e+001	-1.712866e+001	-4.759964e+001	-1.533461e+001	-1.037254e+002
1754100000.000	-2.451992e+001	1.247649e+002	-1.677792e+001	-9.510357e+001	-1.718268e+001	-9.378680e+001	-1.489938e+001	-1.663085e+002
1759000000.000	-2.622764e+001	1.089162e+002	-1.728410e+001	-1.433043e+002	-1.715301e+001	-1.410202e+002	-1.526186e+001	1.304698e+002
1763900000.000	-2.865604e+001	9.117730e+001	-1.756238e+001	1.716744e+002	-1.730833e+001	1.707511e+002	-1.676723e+001	6.115562e+001
1768800000.000	-3.250907e+001	6.800125e+001	-1.756054e+001	1.245808e+002	-1.772705e+001	1.230736e+002	-1.835449e+001	-1.454055e+001
1773700000.000	-3.978675e+001	2.987928e+001	-1.798229e+001	7.683483e+001	-1.821849e+001	7.767634e+001	-1.934777e+001	-8.709236e+001
1778600000.000	-4.249891e+001	-8.715379e+001	-1.852043e+001	3.204408e+001	-1.848534e+001	3.332716e+001	-2.059926e+001	-1.498757e+002
1783500000.000	-3.471941e+001	-1.386680e+002	-1.872266e+001	-1.158939e+001	-1.862283e+001	-1.132363e+001	-2.362895e+001	1.544621e+002
1788400000.000	-3.121090e+001	-1.657954e+002	-1.880650e+001	-5.620377e+001	-1.877317e+001	-5.616413e+001	-2.972027e+001	1.090485e+002
1793300000.000	-2.935289e+001	1.736073e+002	-1.892421e+001	-1.006350e+002	-1.888922e+001	-1.005859e+002	-3.746346e+001	1.360392e+002
1798200000.000	-2.842751e+001	1.549657e+002	-1.893592e+001	-1.448549e+002	-1.889542e+001	-1.448298e+002	-2.915846e+001	1.157509e+002
1803100000.000	-2.839052e+001	1.371215e+002	-1.893098e+001	1.704303e+002	-1.883271e+001	1.704551e+002	-2.504707e+001	4.594445e+001
1808000000.000	-2.912237e+001	1.185209e+002	-1.893813e+001	1.264173e+002	-1.884425e+001	1.251891e+002	-2.134428e+001	-2.849884e+001
1812900000.000	-3.083729e+001	9.737913e+001	-1.866759e+001	8.248376e+001	-1.889381e+001	8.097905e+001	-1.803036e+001	-9.629483e+001
1817800000.000	-3.361022e+001	6.718336e+001	-1.832375e+001	3.617908e+001	-1.869697e+001	3.766026e+001	-1.570314e+001	-1.584744e+002
1822700000.000	-3.672596e+001	1.445914e+001	-1.839665e+001	-1.082066e+001	-1.821862e+001	-7.561434e+000	-1.423369e+001	1.381810e+002
1827600000.000	-3.537789e+001	-4.387846e+001	-1.840673e+001	-5.476251e+001	-1.785858e+001	-5.534781e+001	-1.325739e+001	6.974832e+001
1832500000.000	-3.254599e+001	-7.735539e+001	-1.790894e+001	-1.002642e+002	-1.794840e+001	-1.037625e+002	-1.244226e+001	-1.804506e+000
1837400000.000	-3.019212e+001	-9.491850e+001	-1.775049e+001	-1.496555e+002	-1.825910e+001	-1.495538e+002	-1.167698e+001	-6.966800e+001
1842300000.000	-2.811790e+001	-1.114865e+002	-1.827488e+001	1.636214e+002	-1.832070e+001	1.669504e+002	-1.088553e+001	-1.327113e+002
1847200000.000	-2.679274e+001	-1.281457e+002	-1.824489e+001	1.219470e+002	-1.784055e+001	1.228841e+002	-9.873883e+000	1.637007e+002
1852100000.000	-2.588926e+001	-1.433358e+002	-1.742030e+001	7.562844e+001	-1.728620e+001	7.441071e+001	-9.102785e+000	9.469846e+001
1857000000.000	-2.522560e+001	-1.588076e+002	-1.733410e+001	2.362256e+001	-1.730178e+001	2.391165e+001	-8.920386e+000	2.157119e+001
1861900000.000	-2.486109e+001	-1.723568e+002	-1.813071e+001	-2.328110e+001	-1.785425e+001	-2.407885e+001	-9.175799e+000	-4.999434e+001
1866800000.000	-2.446326e+001	1.767298e+002	-1.812499e+001	-6.568954e+001	-1.823306e+001	-6.828575e+001	-9.132305e+000	-1.170755e+002
1871700000.000	-2.419691e+001	1.671040e+002	-1.759891e+001	-1.133949e+002	-1.808105e+001	-1.123833e+002	-8.626358e+000	1.778658e+002
1876600000.000	-2.378503e+001	1.590875e+002	-1.799714e+001	-1.642244e+002	-1.772192e+001	-1.599033e+002	-8.232277e+000	1.097706e+002
1881500000.000	-2.336262e+001	1.492901e+002	-1.877706e+001	1.518757e+002	-1.788667e+001	1.498536e+002	-8.679251e+000	3.678559e+001
1886400000.000	-2.329067e+001	1.372421e+002	-1.851431e+001	1.090757e+002	-1.861969e+001	1.022507e+002	-9.631708e+000	-3.603882e+001
1891300000.000	-2.385433e+001	1.235232e+002	-1.828656e+001	5.976123e+001	-1.923398e+001	5.843824e+001	-1.016753e+001	-1.037022e+002
1896200000.000	-2.531495e+001	1.088100e+002	-1.900586e+001	1.161228e+001	-1.936549e+001	1.627170e+001	-1.037097e+001	-1.672609e+002
1901100000.000	-2.754922e+001	9.981868e+001	-1.948543e+001	-3.105732e+001	-1.900807e+001	-2.889764e+001	-1.087930e+001	1.277102e+002
1906000000.000	-2.958067e+001	8.803325e+001	-1.934014e+001	-7.520570e+001	-1.909914e+001	-7.752921e+001	-1.207591e+001	5.713320e+001
1910900000.000	-3.344536e+001	7.571869e+001	-1.941725e+001	-1.227266e+002	-1.967510e+001	-1.241343e+002	-1.351391e+001	-1.552024e+001
1915800000.000	-3.954865e+001	7.884859e+001	-1.999085e+001	-1.686078e+002	-2.018516e+001	-1.676961e+002	-1.455527e+001	-8.395957e+001
1920700000.000	-4.401082e+001	1.405476e+002	-2.042209e+001	1.489567e+002	-2.041315e+001	1.499027e+002	-1.551901e+001	-1.480836e+002
1925600000.000	-3.650755e+001	1.622644e+002	-2.031113e+001	1.062401e+002	-2.027470e+001	1.068046e+002	-1.700052e+001	1.477317e+002
1930500000.000	-3.291147e+001	1.503780e+002	-2.028293e+001	6.113949e+001	-2.017881e+001	6.155441e+001	-1.937959e+001	7.983432e+001
1935400000.000	-3.102969e+001	1.349546e+002	-2.040082e+001	1.666084e+001	-2.026433e+001	1.627864e+001	-2.292086e+001	8.069314e+000
1940300000.000	-3.086382e+001	1.174819e+002	-2.039340e+001	-2.720069e+001	-2.039016e+001	-2.787721e+001	-2.762606e+001	-7.043188e+001
1945200000.000	-3.174677e+001	1.026307e+002	-2.032873e+001	-7.185974e+001	-2.033878e+001	-7.201506e+001	-3.475623e+001	-1.674098e+002
1950100000.000	-3.357262e+001	8.665276e+001	-2.032519e+001	-1.164904e+002	-2.029810e+001	-1.168225e+002	-3.520778e+001	1.616424e+001
1955000000.000	-3.751369e+001	6.249128e+001	-2.025372e+001	-1.611525e+002	-2.034629e+001	-1.616544e+002	-2.583244e+001	-7.522067e+001
1959900000.000	-5.020692e+001	9.578679e-001	-2.022932e+001	1.536565e+002	-2.035547e+001	1.544447e+002	-2.074614e+001	-1.410072e+002
1964800000.000	-4.208340e+001	-1.270610e+002	-2.029399e+001	1.093519e+002	-2.018905e+001	1.105465e+002	-1.791761e+001	1.571322e+002
1969700000.000	-3.552894e+001	-1.505862e+002	-2.015736e+001	6.577715e+001	-1.992624e+001	6.538640e+001	-1.643494e+001	9.282863e+001
1974600000.000	-3.285667e+001	-1.750337e+002	-1.982706e+001	2.049492e+001	-1.981552e+001	1.912166e+001	-1.566492e+001	2.295216e+001
1979500000.000	-3.200487e+001	1.700888e+002	-1.983448e+001	-2.587666e+001	-1.997187e+001	-2.619748e+001	-1.498178e+001	-4.914159e+001
1984400000.000	-3.092021e+001	1.554571e+002	-1.983398e+001	-6.934597e+001	-1.989865e+001	-6.901451e+001	-1.392209e+001	-1.174602e+002
1989300000.000	-3.055800e+001	1.377563e+002	-1.929269e+001	-1.140106e+002	-1.935314e+001	-1.134021e+002	-1.267218e+001	1.766092e+002
1994200000.000	-3.146691e+001	1.219253e+002	-1.892750e+001	-1.622808e+002	-1.884791e+001	-1.607628e+002	-1.178971e+001	1.092814e+002
1999100000.000	-3.335933e+001	1.109243e+002	-1.909281e+001	1.497565e+002	-1.867933e+001	1.499458e+002	-1.162366e+001	3.834692e+001
2004000000.000	-3.710699e+001	1.061795e+002	-1.923074e+001	1.047987e+002	-1.900761e+001	1.016950e+002	-1.197171e+001	-3.242561e+001
2008900000.000	-4.414553e+001	1.373066e+002	-1.901401e+001	5.961084e+001	-1.936454e+001	5.714743e+001	-1.201505e+001	-9.818644e+001
2013800000.000	-3.841548e+001	-1.515295e+002	-1.876212e+001	1.151053e+001	-1.917984e+001	1.332041e+001	-1.140337e+001	-1.608370e+002
2018700000.000	-3.193552e+001	-1.505452e+002	-1.902700e+001	-3.645452e+001	-1.871883e+001	-3.327457e+001	-1.102488e+001	1.349829e+002
2023600000.000	-2.823310e+001	-1.597526e+002	-1.916187e+001	-8.194733e+001	-1.853621e+001	-8.374445e+001	-1.124854e+001	6.566681e+001
2028500000.000	-2.608969e+001	-1.722148e+002	-1.908835e+001	-1.293391e+002	-1.913295e+001	-1.339026e+002	-1.201920e+001	-7.062153e+000
2033400000.000	-2.486216e+001	1.753083e+002	-1.942361e+001	-1.782661e+002	-1.995705e+001	-1.796870e+002	-1.246807e+001	-7.581762e+001
2038300000.000	-2.408726e+001	1.620052e+002	-2.019249e+001	1.356198e+002	-2.046461e+001	1.374347e+002	-1.244101e+001	-1.391206e+002
2043200000.000	-2.378751e+001	1.485109e+002	-2.064899e+001	9.314147e+001	-2.052345e+001	9.452063e+001	-1.242147e+001	1.588728e+002
2048100000.000	-2.366694e+001	1.338116e+002	-2.063540e+001	4.944699e+001	-2.046254e+001	4.916954e+001	-1.280207e+001	9.345059e+001
2053000000.000	-2.382789e+001	1.190887e+002	-2.084546e+001	4.043998e+000	-2.075906e+001	3.137979e+000	-1.361851e+001	2.448670e+001
2057900000.000	-2.404538e+001	1.052834e+002	-2.112283e+001	-3.894413e+001	-2.111821e+001	-4.028425e+001	-1.432541e+001	-4.373071e+001
2062800000.000	-2.431923e+001	9.014295e+001	-2.105579e+001	-8.219600e+001	-2.122207e+001	-8.320335e+001	-1.475864e+001	-1.105211e+002
2067700000.000	-2.512110e+001	7.596304e+001	-2.093525e+001	-1.263209e+002	-2.112301e+001	-1.257977e+002	-1.512689e+001	-1.738970e+002
2072600000.000	-2.628270e+001	6.408456e+001	-2.077624e+001	-1.712764e+002	-2.071125e+001	-1.699705e+002	-1.552756e+001	1.229036e+002
2077500000.000	-2.772001e+001	5.569561e+001	-2.080858e+001	1.434879e+002	-2.054703e+001	1.432149e+002	-1.668229e+001	5.738282e+001
2082400000.000	-2.926562e+001	5.045262e+001	-2.070798e+001	9.922590e+001	-2.062320e+001	9.736683e+001	-1.848208e+001	-9.006303e+000
2087300000.000	-3.054100e+001	4.913554e+001	-2.055105e+001	5.361949e+001	-2.070797e+001	5.224919e+001	-2.011933e+001	-7.663471e+001
2092200000.000	-3.067044e+001	4.473557e+001	-2.049696e+001	7.964754e+000	-2.065843e+001	8.002808e+000	-2.137445e+001	-1.402400e+002
2097100000.000	-3.095629e+001	3.272569e+001	-2.043020e+001	-3.771855e+001	-2.046116e+001	-3.736156e+001	-2.283853e+001	1.619564e+002
2102000000.000	-3.110388e+001	1.832608e+001	-2.038076e+001	-8.417128e+001	-2.036931e+001	-8.427996e+001	-2.577792e+001	1.062118e+002
2106900000.000	-3.094000e+001	-4.249980e+000	-2.049448e+001	-1.305162e+002	-2.051552e+001	-1.308091e+002	-3.151719e+001	4.487068e+001
2111800000.000	-3.081149e+001	-3.041635e+001	-2.065121e+001	-1.765919e+002	-2.070355e+001	-1.764527e+002	-4.181832e+001	-4.911551e+001
2116700000.000	-3.038651e+001	-5.708733e+001	-2.085420e+001	1.380177e+002	-2.086300e+001	1.384673e+002	-4.490390e+001	1.231779e+002
2121600000.000	-2.932704e+001	-8.478546e+001	-2.106578e+001	9.285026e+001	-2.100123e+001	9.319962e+001	-3.361558e+001	-1.385955e+000
2126500000.000	-2.846216e+001	-1.131656e+002	-2.128178e+001	4.865551e+001	-2.120009e+001	4.859921e+001	-2.639011e+001	-7.531572e+001
2131400000.000	-2.757284e+001	-1.362971e+002	-2.137263e+001	4.609009e+000	-2.131543e+001	4.599388e+000	-2.267681e+001	-1.377236e+002
2136300000.000	-2.647238e+001	-1.565274e+002	-2.145061e+001	-3.962591e+001	-2.133016e+001	-3.922636e+001	-2.058132e+001	1.624647e+002
2141200000.000	-2.560619e+001	-1.761964e+002	-2.157249e+001	-8.275985e+001	-2.130072e+001	-8.307529e+001	-1.947245e+001	9.841155e+001
2146100000.000	-2.568698e+001	1.689138e+002	-2.127312e+001	-1.253132e+002	-2.104022e+001	-1.275695e+002	-1.913699e+001	2.669597e+001
2151000000.000	-2.548257e+001	1.595671e+002	-2.090391e+001	-1.705031e+002	-2.101902e+001	-1.733307e+002	-1.867342e+001	-4.688225e+001
2155900000.000	-2.550721e+001	1.523260e+002	-2.069920e+001	1.432121e+002	-2.103297e+001	1.423183e+002	-1.745836e+001	-1.155322e+002
2160800000.000	-2.530493e+001	1.475459e+002	-2.071774e+001	9.786828e+001	-2.088004e+001	9.869038e+001	-1.618807e+001	-1.779762e+002
2165700000.000	-2.469015e+001	1.424590e+002	-2.052460e+001	5.408465e+001	-2.041337e+001	5.451243e+001	-1.527532e+001	1.196091e+002
2170600000.000	-2.384303e+001	1.321090e+002	-1.989449e+001	7.569797e+000	-1.978475e+001	6.372825e+000	-1.500451e+001	4.944444e+001
2175500000.000	-2.378184e+001	1.183982e+002	-1.977403e+001	-4.212168e+001	-1.990415e+001	-4.376435e+001	-1.536151e+001	-2.430831e+001
2180400000.000	-2.401163e+001	1.070817e+002	-2.003769e+001	-8.961735e+001	-2.029861e+001	-9.004325e+001	-1.528185e+001	-9.312837e+001
2185300000.000	-2.409849e+001	9.599917e+001	-2.018811e+001	-1.356841e+002	-2.038750e+001	-1.348434e+002	-1.485848e+001	-1.571243e+002
2190200000.000	-2.419221e+001	8.431806e+001	-2.023350e+001	1.775465e+002	-2.021913e+001	1.789261e+002	-1.447607e+001	1.388977e+002
2195100000.000	-2.433801e+001	7.298720e+001	-2.046375e+001	1.302877e+002	-2.025925e+001	1.307103e+002	-1.446080e+001	7.278093e+001
2200000000.000	-2.466723e+001	6.096515e+001	-2.083177e+001	8.407034e+001	-2.067008e+001	8.277946e+001	-1.477176e+001	6.842346e+000
2204900000.000	-2.529974e+001	4.997080e+001	-2.115562e+001	3.898428e+001	-2.128547e+001	3.731075e+001	-1.524116e+001	-5.909136e+001
2209800000.000	-2.619051e+001	4.019808e+001	-2.139089e+001	-6.057584e+000	-2.165144e+001	-5.950548e+000	-1.573871e+001	-1.263756e+002
2214700000.000	-2.725010e+001	3.026987e+001	-2.165449e+001	-5.094947e+001	-2.171296e+001	-4.954834e+001	-1.604691e+001	1.670608e+002
2219600000.000	-2.874851e+001	2.059776e+001	-2.192022e+001	-9.536875e+001	-2.172637e+001	-9.476341e+001	-1.627442e+001	1.007232e+002
2224500000.000	-3.033592e+001	1.227871e+001	-2.212764e+001	-1.394231e+002	-2.197379e+001	-1.407119e+002	-1.697543e+001	3.453151e+001
2229400000.000	-3.171049e+001	2.574910e+000	-2.235624e+001	1.766123e+002	-2.244424e+001	1.749048e+002	-1.795020e+001	-3.145761e+001
2234300000.000	-3.291168e+001	-1.147966e+001	-2.247178e+001	1.338200e+002	-2.273164e+001	1.331874e+002	-1.870550e+001	-9.605950e+001
2239200000.000	-3.449834e+001	-3.102335e+001	-2.240706e+001	9.056702e+001	-2.261618e+001	9.123738e+001	-1.945700e+001	-1.570567e+002
2244100000.000	-3.634858e+001	-5.116148e+001	-2.233815e+001	4.663361e+001	-2.239697e+001	4.779182e+001	-2.087763e+001	1.449615e+002
2249000000.000	-3.842108e+001	-7.187072e+001	-2.223596e+001	3.148388e+000	-2.217460e+001	3.829315e+000	-2.307569e+001	8.592982e+001
2253900000.000	-3.980587e+001	-8.923005e+001	-2.196666e+001	-4.051805e+001	-2.188676e+001	-4.047539e+001	-2.556806e+001	1.977784e+001
2258800000.000	-3.934202e+001	-1.007945e+002	-2.154286e+001	-8.527210e+001	-2.150372e+001	-8.547916e+001	-2.712191e+001	-4.911177e+001
2263700000.000	-3.540733e+001	-1.192684e+002	-2.108907e+001	-1.326691e+002	-2.107066e+001	-1.326417e+002	-2.759023e+001	-1.138347e+002
2268600000.000	-3.164288e+001	-1.511838e+002	-2.113008e+001	1.786853e+002	-2.104071e+001	1.785458e+002	-2.958836e+001	-1.703341e+002
2273500000.000	-2.948356e+001	1.798640e+002	-2.144196e+001	1.321147e+002	-2.135811e+001	1.315100e+002	-3.354140e+001	1.606406e+002
2278400000.000	-2.853959e+001	1.579159e+002	-2.164327e+001	8.706748e+001	-2.160165e+001	8.631493e+001	-3.228687e+001	1.511332e+002
2283300000.000	-2.817461e+001	1.451104e+002	-2.172216e+001	4.225152e+001	-2.170024e+001	4.141651e+001	-2.899495e+001	1.126502e+002
2288200000.000	-2.735282e+001	1.357231e+002	-2.175241e+001	-3.313138e+000	-2.173881e+001	-4.369167e+000	-2.681663e+001	5.542861e+001
2293100000.000	-2.669683e+001	1.243320e+002	-2.187014e+001	-4.875356e+001	-2.192649e+001	-5.000360e+001	-2.520912e+001	-1.196973e+001
2298000000.000	-2.640748e+001	1.124690e+002	-2.196824e+001	-9.403433e+001	-2.214208e+001	-9.493746e+001	-2.342947e+001	-7.891677e+001
2302900000.000	-2.635943e+001	9.965554e+001	-2.212645e+001	-1.389628e+002	-2.231749e+001	-1.389439e+002	-2.178717e+001	-1.415997e+002
2307800000.000	-2.661652e+001	8.774913e+001	-2.218807e+001	1.763916e+002	-2.228424e+001	1.770717e+002	-2.067245e+001	1.568871e+002
2312700000.000	-2.685053e+001	7.841409e+001	-2.225421e+001	1.313412e+002	-2.219301e+001	1.317743e+002	-2.009226e+001	9.165924e+001
2317600000.000	-2.671706e+001	7.058430e+001	-2.234850e+001	8.651894e+001	-2.227446e+001	8.593238e+001	-1.963017e+001	2.416096e+001
2322500000.000	-2.625275e+001	6.212789e+001	-2.244633e+001	4.188701e+001	-2.251772e+001	4.090996e+001	-1.921819e+001	-4.184424e+001
2327400000.000	-2.583595e+001	5.155634e+001	-2.253013e+001	-2.437845e+000	-2.272459e+001	-2.583103e+000	-1.885987e+001	-1.052287e+002
2332300000.000	-2.594832e+001	3.862656e+001	-2.255425e+001	-4.626099e+001	-2.267947e+001	-4.513949e+001	-1.838079e+001	-1.689392e+002
2337200000.000	-2.714447e+001	2.550146e+001	-2.249589e+001	-8.958630e+001	-2.235846e+001	-8.834042e+001	-1.747300e+001	1.268141e+002
2342100000.000	-2.950567e+001	1.793304e+001	-2.213038e+001	-1.334872e+002	-2.185657e+001	-1.337767e+002	-1.639390e+001	6.156363e+001
2347000000.000	-3.186088e+001	2.127338e+001	-2.175238e+001	-1.799372e+002	-2.162924e+001	1.781144e+002	-1.586711e+001	-6.984555e+000
2351900000.000	-3.281011e+001	2.421351e+001	-2.172305e+001	1.325315e+002	-2.188222e+001	1.307091e+002	-1.620995e+001	-7.658900e+001
2356800000.000	-3.394755e+001	2.289518e+001	-2.187817e+001	8.645402e+001	-2.214646e+001	8.624485e+001	-1.644884e+001	-1.428917e+002
2361700000.000	-3.442836e+001	1.806346e+001	-2.195445e+001	4.112664e+001	-2.207920e+001	4.222162e+001	-1.640481e+001	1.542175e+002
2366600000.000	-3.476775e+001	2.120716e+000	-2.201307e+001	-4.278541e+000	-2.190678e+001	-3.409801e+000	-1.654867e+001	9.188083e+001
2371500000.000	-3.548497e+001	-1.931493e+001	-2.207660e+001	-4.949308e+001	-2.192878e+001	-5.020050e+001	-1.701235e+001	2.641130e+001
2376400000.000	-3.610132e+001	-3.793146e+001	-2.206518e+001	-9.452188e+001	-2.215419e+001	-9.593964e+001	-1.726185e+001	-3.981693e+001
2381300000.000	-3.581686e+001	-5.402558e+001	-2.204436e+001	-1.402380e+002	-2.233490e+001	-1.403875e+002	-1.711257e+001	-1.010203e+002
2386200000.000	-3.533650e+001	-7.260689e+001	-2.214147e+001	1.740071e+002	-2.234925e+001	1.757675e+002	-1.692780e+001	-1.575421e+002
2391100000.000	-3.514858e+001	-9.630649e+001	-2.226772e+001	1.287610e+002	-2.214129e+001	1.309713e+002	-1.699480e+001	1.441931e+002
2396000000.000	-3.551551e+001	-1.256769e+002	-2.242499e+001	8.375110e+001	-2.208932e+001	8.417037e+001	-1.722783e+001	7.979628e+001
2400900000.000	-3.569548e+001	-1.582459e+002	-2.259233e+001	4.022150e+001	-2.239016e+001	3.877308e+001	-1.707395e+001	1.186212e+001
2405800000.000	-3.500386e+001	1.762813e+002	-2.246538e+001	-2.740741e+000	-2.252794e+001	-4.223854e+000	-1.696914e+001	-5.393770e+001
2410700000.000	-3.305751e+001	1.608972e+002	-2.218330e+001	-4.652118e+001	-2.232086e+001	-4.690185e+001	-1.717206e+001	-1.154410e+002
2415600000.000	-3.055700e+001	1.473825e+002	-2.172396e+001	-9.096239e+001	-2.177394e+001	-9.053665e+001	-1.725962e+001	-1.782089e+002
2420500000.000	-2.857140e+001	1.317778e+002	-2.108776e+001	-1.379522e+002	-2.099573e+001	-1.377420e+002	-1.739006e+001	1.140438e+002
2425400000.000	-2.768557e+001	1.167474e+002	-2.083950e+001	1.721395e+002	-2.070241e+001	1.714316e+002	-1.841851e+001	4.647534e+001
2430300000.000	-2.734165e+001	1.053234e+002	-2.107899e+001	1.232918e+002	-2.106267e+001	1.219521e+002	-2.039420e+001	-1.457111e+001
2435200000.000	-2.662802e+001	9.397416e+001	-2.134427e+001	7.691079e+001	-2.147534e+001	7.564727e+001	-2.244997e+001	-7.098592e+001
