!Agilent Technologies,E5061B,MY49305579,A.02.22
!Date: Thu Aug 24 16:27:35 2017
!Data & Calibration Information:
!Freq	S11:SOLT2(ON)	S21:SOLT2(ON)	S12:SOLT2(ON)	S22:SOLT2(ON)
# Hz S dB R 50
1710000000.000	-1.961359e+001	1.641818e+002	-1.773411e+001	1.013992e+002	-1.776173e+001	1.007260e+002	-2.882994e+001	1.230108e+002
1714900000.000	-1.988789e+001	1.468403e+002	-1.744140e+001	5.478534e+001	-1.758435e+001	5.431607e+001	-2.811757e+001	2.937449e+001
1719800000.000	-2.046244e+001	1.280539e+002	-1.741806e+001	8.856092e+000	-1.753602e+001	9.429384e+000	-2.583971e+001	-5.080175e+001
1724700000.000	-2.135308e+001	1.087568e+002	-1.745084e+001	-3.619090e+001	-1.740772e+001	-3.561534e+001	-2.191762e+001	-1.163229e+002
1729600000.000	-2.276628e+001	8.887738e+001	-1.725507e+001	-8.043614e+001	-1.723575e+001	-8.060597e+001	-1.952884e+001	-1.749968e+002
1734500000.000	-2.479834e+001	6.772582e+001	-1.696680e+001	-1.263647e+002	-1.703339e+001	-1.260187e+002	-1.868669e+001	1.269867e+002
1739400000.000	-2.784894e+001	4.416283e+001	-1.692650e+001	-1.728321e+002	-1.681578e+001	-1.720501e+002	-1.880089e+001	6.130827e+001
1744300000.000	-3.196034e+001	1.360382e+001	-1.692853e+001	1.425725e+002	-1.676857e+001	1.415334e+002	-1.881727e+001	-1.656010e+001
1749200000.000	-3.636484e+001	-3.742924e+001	-1.655621e+001	9.798719e+001	-1.678088e+001	9.659326e+001	-1.773976e+001	-9.198359e+001
1754100000.000	-3.680305e+001	-9.366628e+001	-1.615459e+001	5.051087e+001	-1.648487e+001	5.200313e+001	-1.630471e+001	-1.574124e+002
1759000000.000	-3.483787e+001	-1.273345e+002	-1.625409e+001	2.914433e+000	-1.605848e+001	5.517913e+000	-1.582115e+001	1.370721e+002
1763900000.000	-3.403778e+001	-1.459132e+002	-1.616907e+001	-4.175492e+001	-1.577612e+001	-4.268084e+001	-1.634730e+001	6.565772e+001
1768800000.000	-3.369857e+001	-1.589971e+002	-1.571156e+001	-8.903418e+001	-1.583348e+001	-9.136033e+001	-1.667226e+001	-1.276632e+001
1773700000.000	-3.434409e+001	-1.694325e+002	-1.573326e+001	-1.389230e+002	-1.606431e+001	-1.382713e+002	-1.627956e+001	-8.758225e+001
1778600000.000	-3.581956e+001	-1.760561e+002	-1.617887e+001	1.740840e+002	-1.613003e+001	1.759896e+002	-1.599362e+001	-1.559844e+002
1783500000.000	-3.774374e+001	-1.698329e+002	-1.622800e+001	1.290855e+002	-1.604321e+001	1.291936e+002	-1.659058e+001	1.353584e+002
1788400000.000	-3.734053e+001	-1.526714e+002	-1.617539e+001	8.137809e+001	-1.614725e+001	8.106995e+001	-1.819623e+001	6.072254e+001
1793300000.000	-3.465409e+001	-1.438033e+002	-1.659368e+001	3.371194e+001	-1.654553e+001	3.375277e+001	-1.990512e+001	-2.081464e+001
1798200000.000	-3.187652e+001	-1.460365e+002	-1.698852e+001	-1.093829e+001	-1.695412e+001	-1.132071e+001	-2.069898e+001	-1.006597e+002
1803100000.000	-2.973980e+001	-1.524025e+002	-1.706172e+001	-5.583896e+001	-1.710230e+001	-5.575251e+001	-2.146964e+001	-1.726857e+002
1808000000.000	-2.803532e+001	-1.602147e+002	-1.723216e+001	-1.017545e+002	-1.714506e+001	-1.012068e+002	-2.379742e+001	1.148803e+002
1812900000.000	-2.678960e+001	-1.693888e+002	-1.745897e+001	-1.466859e+002	-1.729690e+001	-1.473504e+002	-2.731508e+001	2.251070e+001
1817800000.000	-2.635914e+001	-1.791448e+002	-1.752358e+001	1.685468e+002	-1.756571e+001	1.674252e+002	-2.618818e+001	-8.168019e+001
1822700000.000	-2.587799e+001	1.746644e+002	-1.759634e+001	1.225341e+002	-1.768487e+001	1.226625e+002	-2.375482e+001	-1.580446e+002
1827600000.000	-2.542877e+001	1.655005e+002	-1.784025e+001	7.721810e+001	-1.773824e+001	7.737946e+001	-2.315797e+001	1.301486e+002
1832500000.000	-2.521185e+001	1.533150e+002	-1.790248e+001	3.254628e+001	-1.786165e+001	3.129027e+001	-2.302390e+001	5.097847e+001
1837400000.000	-2.534352e+001	1.380309e+002	-1.794416e+001	-1.391988e+001	-1.816404e+001	-1.475910e+001	-2.149677e+001	-2.801204e+001
1842300000.000	-2.590900e+001	1.196549e+002	-1.835278e+001	-6.035794e+001	-1.854692e+001	-5.927773e+001	-1.960801e+001	-9.716290e+001
1847200000.000	-2.682094e+001	9.924693e+001	-1.880832e+001	-1.039812e+002	-1.874022e+001	-1.027567e+002	-1.832453e+001	-1.604208e+002
1852100000.000	-2.816405e+001	7.396883e+001	-1.885506e+001	-1.471610e+002	-1.875359e+001	-1.470177e+002	-1.749448e+001	1.360032e+002
1857000000.000	-3.021512e+001	4.264907e+001	-1.885486e+001	1.670470e+002	-1.883853e+001	1.673433e+002	-1.709368e+001	6.637831e+001
1861900000.000	-3.279987e+001	-1.559361e+000	-1.932167e+001	1.214265e+002	-1.919151e+001	1.217213e+002	-1.708091e+001	-9.135442e+000
1866800000.000	-3.359197e+001	-6.188289e+001	-1.985207e+001	7.925267e+001	-1.977273e+001	7.839944e+001	-1.743366e+001	-8.037818e+001
1871700000.000	-3.112873e+001	-1.075419e+002	-1.976879e+001	3.844748e+001	-1.993367e+001	3.795869e+001	-1.626725e+001	-1.421720e+002
1876600000.000	-2.829692e+001	-1.361475e+002	-1.955601e+001	-5.796570e+000	-1.963745e+001	-3.936332e+000	-1.517033e+001	1.553693e+002
1881500000.000	-2.623296e+001	-1.570915e+002	-1.971780e+001	-4.988571e+001	-1.929367e+001	-4.858359e+001	-1.485188e+001	8.933500e+001
1886400000.000	-2.495358e+001	-1.750844e+002	-1.968455e+001	-9.137517e+001	-1.928612e+001	-9.444898e+001	-1.511140e+001	1.691822e+001
1891300000.000	-2.438517e+001	1.679839e+002	-1.919726e+001	-1.349687e+002	-1.950341e+001	-1.386274e+002	-1.494561e+001	-5.614784e+001
1896200000.000	-2.464400e+001	1.509106e+002	-1.905918e+001	1.787128e+002	-1.959247e+001	1.794695e+002	-1.428433e+001	-1.229057e+002
1901100000.000	-2.580607e+001	1.372825e+002	-1.916660e+001	1.353005e+002	-1.915677e+001	1.379125e+002	-1.391748e+001	1.738992e+002
1906000000.000	-2.676687e+001	1.236989e+002	-1.882039e+001	9.290248e+001	-1.852091e+001	9.278443e+001	-1.422659e+001	1.068019e+002
1910900000.000	-2.881206e+001	1.058889e+002	-1.817054e+001	4.722779e+001	-1.819298e+001	4.558610e+001	-1.499969e+001	3.295458e+001
1915800000.000	-3.269376e+001	8.760937e+001	-1.797452e+001	-8.337568e-001	-1.817464e+001	-8.989164e-001	-1.556018e+001	-4.131245e+001
1920700000.000	-4.095363e+001	7.949172e+001	-1.808517e+001	-4.652982e+001	-1.814141e+001	-4.578719e+001	-1.587016e+001	-1.101070e+002
1925600000.000	-4.614392e+001	-1.732993e+002	-1.785380e+001	-9.125785e+001	-1.784805e+001	-9.065927e+001	-1.640152e+001	-1.757327e+002
1930500000.000	-3.602153e+001	-1.624016e+002	-1.756199e+001	-1.382984e+002	-1.750166e+001	-1.375123e+002	-1.751803e+001	1.174144e+002
1935400000.000	-3.162521e+001	-1.745111e+002	-1.758574e+001	1.744069e+002	-1.738447e+001	1.745705e+002	-1.935018e+001	4.778186e+001
1940300000.000	-2.949090e+001	1.719637e+002	-1.760589e+001	1.283235e+002	-1.747004e+001	1.272165e+002	-2.157688e+001	-2.379360e+001
1945200000.000	-2.827116e+001	1.610400e+002	-1.753718e+001	8.165928e+001	-1.757461e+001	8.059340e+001	-2.338636e+001	-9.558201e+001
1950100000.000	-2.746380e+001	1.516083e+002	-1.757223e+001	3.417651e+001	-1.763056e+001	3.397342e+001	-2.498218e+001	-1.623800e+002
1955000000.000	-2.685071e+001	1.420598e+002	-1.778189e+001	-1.309832e+001	-1.776410e+001	-1.334087e+001	-2.851760e+001	1.342410e+002
1959900000.000	-2.656583e+001	1.318122e+002	-1.802104e+001	-5.941302e+001	-1.808100e+001	-5.999389e+001	-4.921568e+001	3.966631e+001
1964800000.000	-2.619814e+001	1.213819e+002	-1.827969e+001	-1.058061e+002	-1.836802e+001	-1.057063e+002	-2.946333e+001	-1.642846e+002
1969700000.000	-2.588317e+001	1.068161e+002	-1.851494e+001	-1.516989e+002	-1.852716e+001	-1.514641e+002	-2.586865e+001	1.348604e+002
1974600000.000	-2.586989e+001	8.942973e+001	-1.876075e+001	1.623594e+002	-1.874752e+001	1.622792e+002	-2.460960e+001	7.578027e+001
1979500000.000	-2.609096e+001	6.817043e+001	-1.901772e+001	1.154742e+002	-1.905537e+001	1.153323e+002	-2.355937e+001	3.148140e+000
1984400000.000	-2.734341e+001	4.302838e+001	-1.969032e+001	6.850223e+001	-1.973757e+001	6.866589e+001	-2.203890e+001	-7.297009e+001
1989300000.000	-2.870662e+001	2.656597e+001	-2.034513e+001	2.649968e+001	-2.040443e+001	2.672976e+001	-1.988436e+001	-1.392657e+002
1994200000.000	-2.904883e+001	-2.058499e+000	-2.045347e+001	-1.721349e+001	-2.051391e+001	-1.624169e+001	-1.800481e+001	1.567405e+002
1999100000.000	-2.966350e+001	-3.595041e+001	-2.078046e+001	-6.243715e+001	-2.063272e+001	-6.087173e+001	-1.694267e+001	9.111098e+001
2004000000.000	-2.911778e+001	-7.025320e+001	-2.134605e+001	-1.062260e+002	-2.097849e+001	-1.065022e+002	-1.645564e+001	2.099377e+001
2008900000.000	-2.754407e+001	-1.007544e+002	-2.178941e+001	-1.482624e+002	-2.165353e+001	-1.505085e+002	-1.593497e+001	-5.026863e+001
2013800000.000	-2.576648e+001	-1.258404e+002	-2.201193e+001	1.698567e+002	-2.226382e+001	1.687506e+002	-1.495770e+001	-1.163775e+002
2018700000.000	-2.426484e+001	-1.456539e+002	-2.226489e+001	1.276477e+002	-2.235508e+001	1.292881e+002	-1.395442e+001	-1.786930e+002
2023600000.000	-2.315189e+001	-1.633473e+002	-2.249075e+001	8.734391e+001	-2.208891e+001	8.797092e+001	-1.354340e+001	1.169204e+002
2028500000.000	-2.256596e+001	-1.791087e+002	-2.222106e+001	4.744589e+001	-2.193889e+001	4.451114e+001	-1.378873e+001	4.676626e+001
2033400000.000	-2.242269e+001	1.663513e+002	-2.170724e+001	4.426703e+000	-2.198875e+001	1.290333e+000	-1.398816e+001	-2.622434e+001
2038300000.000	-2.265346e+001	1.529701e+002	-2.160247e+001	-4.005855e+001	-2.202952e+001	-3.998320e+001	-1.366263e+001	-9.467419e+001
2043200000.000	-2.300612e+001	1.409353e+002	-2.156106e+001	-8.196745e+001	-2.164520e+001	-8.032551e+001	-1.304318e+001	-1.586498e+002
2048100000.000	-2.338540e+001	1.286690e+002	-2.102349e+001	-1.237925e+002	-2.087811e+001	-1.231044e+002	-1.264737e+001	1.362657e+002
2053000000.000	-2.377012e+001	1.165715e+002	-2.035881e+001	-1.690048e+002	-2.021078e+001	-1.694743e+002	-1.274030e+001	6.576267e+001
2057900000.000	-2.414515e+001	1.042650e+002	-2.015544e+001	1.445591e+002	-2.006099e+001	1.433190e+002	-1.331289e+001	-7.312875e+000
2062800000.000	-2.459018e+001	9.224557e+001	-1.999613e+001	1.003944e+002	-2.009590e+001	9.869268e+001	-1.381006e+001	-7.844204e+001
2067700000.000	-2.491547e+001	8.003010e+001	-1.957829e+001	5.568118e+001	-1.984484e+001	5.547154e+001	-1.397043e+001	-1.465174e+002
2072600000.000	-2.549897e+001	6.346917e+001	-1.912460e+001	9.593949e+000	-1.919135e+001	1.126354e+001	-1.404134e+001	1.460446e+002
2077500000.000	-2.763213e+001	4.731360e+001	-1.882576e+001	-3.772406e+001	-1.851736e+001	-3.718433e+001	-1.469737e+001	7.597682e+001
2082400000.000	-3.069404e+001	3.553298e+001	-1.863344e+001	-8.471657e+001	-1.845051e+001	-8.679680e+001	-1.634367e+001	2.790243e+000
2087300000.000	-3.665031e+001	3.219486e+001	-1.847789e+001	-1.324138e+002	-1.863749e+001	-1.341672e+002	-1.817134e+001	-7.229903e+001
2092200000.000	-4.049709e+001	7.824234e+001	-1.850885e+001	1.795324e+002	-1.866887e+001	1.795281e+002	-1.960715e+001	-1.463468e+002
2097100000.000	-3.660220e+001	1.068841e+002	-1.865356e+001	1.322054e+002	-1.864104e+001	1.323045e+002	-2.178268e+001	1.414388e+002
2102000000.000	-3.245306e+001	1.073963e+002	-1.878466e+001	8.501153e+001	-1.878754e+001	8.434671e+001	-2.636256e+001	6.073873e+001
2106900000.000	-2.930110e+001	8.627697e+001	-1.903614e+001	3.738763e+001	-1.913729e+001	3.693872e+001	-3.006495e+001	-5.571059e+001
2111800000.000	-2.815588e+001	6.023168e+001	-1.942121e+001	-9.757762e+000	-1.952855e+001	-9.538836e+000	-2.690824e+001	-1.533671e+002
2116700000.000	-2.802607e+001	3.250798e+001	-2.001697e+001	-5.669235e+001	-2.004178e+001	-5.607520e+001	-2.474280e+001	1.304215e+002
2121600000.000	-2.953516e+001	1.142618e+001	-2.092748e+001	-9.938327e+001	-2.085815e+001	-9.906377e+001	-2.303115e+001	4.593367e+001
2126500000.000	-2.750619e+001	3.754804e-001	-2.066695e+001	-1.410813e+002	-2.065585e+001	-1.413277e+002	-2.160092e+001	-3.718194e+001
2131400000.000	-2.539872e+001	-3.202043e+001	-2.074796e+001	1.722218e+002	-2.082305e+001	1.725091e+002	-1.967143e+001	-1.060988e+002
2136300000.000	-2.397365e+001	-6.475572e+001	-2.113602e+001	1.263193e+002	-2.111040e+001	1.278273e+002	-1.799610e+001	-1.697436e+002
2141200000.000	-2.252047e+001	-9.504006e+001	-2.166912e+001	8.183488e+001	-2.131986e+001	8.320857e+001	-1.692877e+001	1.266694e+002
2146100000.000	-2.115823e+001	-1.220447e+002	-2.209081e+001	3.894062e+001	-2.158367e+001	3.763274e+001	-1.650856e+001	5.841645e+001
2151000000.000	-1.991204e+001	-1.452221e+002	-2.234154e+001	-3.726894e+000	-2.218783e+001	-7.573195e+000	-1.645377e+001	-1.415231e+001
2155900000.000	-1.879644e+001	-1.669888e+002	-2.257413e+001	-4.694822e+001	-2.287755e+001	-4.966361e+001	-1.592465e+001	-8.513224e+001
2160800000.000	-1.809134e+001	1.722186e+002	-2.287676e+001	-8.948891e+001	-2.321510e+001	-8.948073e+001	-1.489625e+001	-1.501900e+002
2165700000.000	-1.775788e+001	1.522836e+002	-2.307007e+001	-1.310320e+002	-2.308075e+001	-1.300865e+002	-1.402264e+001	1.470942e+002
2170600000.000	-1.779344e+001	1.327998e+002	-2.303825e+001	-1.724495e+002	-2.286903e+001	-1.730329e+002	-1.371507e+001	8.121950e+001
2175500000.000	-1.812615e+001	1.143440e+002	-2.289566e+001	1.448925e+002	-2.289437e+001	1.429034e+002	-1.389923e+001	1.050832e+001
2180400000.000	-1.863237e+001	9.659069e+001	-2.288508e+001	1.018244e+002	-2.313917e+001	1.002432e+002	-1.396004e+001	-5.934301e+001
2185300000.000	-1.926731e+001	7.956979e+001	-2.289846e+001	6.007988e+001	-2.325509e+001	6.007243e+001	-1.359329e+001	-1.246002e+002
2190200000.000	-1.983699e+001	6.408423e+001	-2.264329e+001	1.914957e+001	-2.286142e+001	2.082854e+001	-1.296626e+001	1.719038e+002
2195100000.000	-2.014637e+001	4.699520e+001	-2.204841e+001	-2.344357e+001	-2.194745e+001	-2.145166e+001	-1.230858e+001	1.058727e+002
2200000000.000	-2.080100e+001	2.670571e+001	-2.162835e+001	-6.781843e+001	-2.135515e+001	-6.795752e+001	-1.215239e+001	3.675713e+001
2204900000.000	-2.191916e+001	3.446958e+000	-2.124307e+001	-1.114883e+002	-2.119082e+001	-1.132321e+002	-1.265249e+001	-3.125154e+001
2209800000.000	-2.398132e+001	-2.318749e+001	-2.063723e+001	-1.562569e+002	-2.086234e+001	-1.569112e+002	-1.323883e+001	-9.777929e+001
2214700000.000	-2.660761e+001	-5.327917e+001	-2.014312e+001	1.572896e+002	-2.027293e+001	1.586783e+002	-1.344542e+001	-1.644118e+002
2219600000.000	-2.899361e+001	-9.304264e+001	-1.978622e+001	1.104382e+002	-1.956203e+001	1.116266e+002	-1.345222e+001	1.277159e+002
2224500000.000	-2.978281e+001	-1.416216e+002	-1.952470e+001	6.315189e+001	-1.923516e+001	6.193442e+001	-1.401305e+001	5.917512e+001
2229400000.000	-2.907978e+001	1.770444e+002	-1.946908e+001	1.594222e+001	-1.946353e+001	1.344869e+001	-1.511181e+001	-7.389811e+000
2234300000.000	-2.758292e+001	1.501671e+002	-1.937330e+001	-2.949298e+001	-1.964573e+001	-3.111595e+001	-1.566089e+001	-7.263538e+001
2239200000.000	-2.524758e+001	1.241871e+002	-1.893524e+001	-7.640761e+001	-1.924717e+001	-7.613644e+001	-1.615266e+001	-1.392380e+002
2244100000.000	-2.373769e+001	9.397581e+001	-1.870940e+001	-1.257123e+002	-1.883205e+001	-1.246688e+002	-1.761040e+001	1.556018e+002
2249000000.000	-2.302860e+001	6.413344e+001	-1.881263e+001	-1.754449e+002	-1.881972e+001	-1.750137e+002	-2.058015e+001	9.081160e+001
2253900000.000	-2.283297e+001	3.494170e+001	-1.917452e+001	1.353963e+002	-1.922178e+001	1.355127e+002	-2.507561e+001	2.687097e+001
2258800000.000	-2.297491e+001	6.529587e+000	-1.970658e+001	8.731309e+001	-1.975765e+001	8.785359e+001	-3.017822e+001	-2.971336e+001
2263700000.000	-2.311515e+001	-2.147366e+001	-2.032270e+001	4.052829e+001	-2.030377e+001	4.131969e+001	-3.280952e+001	-5.553968e+001
2268600000.000	-2.272775e+001	-5.131991e+001	-2.091548e+001	-5.121600e+000	-2.082091e+001	-4.645434e+000	-2.890081e+001	-8.373829e+001
2273500000.000	-2.186972e+001	-8.615313e+001	-2.148058e+001	-5.029671e+001	-2.133886e+001	-5.019628e+001	-2.483939e+001	-1.322886e+002
2278400000.000	-2.105708e+001	-1.216368e+002	-2.210279e+001	-9.476766e+001	-2.192052e+001	-9.506015e+001	-2.201108e+001	1.724263e+002
2283300000.000	-2.028488e+001	-1.533121e+002	-2.265508e+001	-1.382154e+002	-2.244587e+001	-1.390852e+002	-2.015631e+001	1.135489e+002
2288200000.000	-1.957627e+001	1.787739e+002	-2.304439e+001	1.789694e+002	-2.291311e+001	1.770480e+002	-1.903036e+001	5.019241e+001
2293100000.000	-1.911345e+001	1.534197e+002	-2.337594e+001	1.353920e+002	-2.343124e+001	1.330751e+002	-1.837806e+001	-1.679727e+001
2298000000.000	-1.892560e+001	1.302149e+002	-2.382532e+001	9.173313e+001	-2.409176e+001	9.014069e+001	-1.761322e+001	-8.248983e+001
2302900000.000	-1.890185e+001	1.081472e+002	-2.439103e+001	4.949847e+001	-2.468225e+001	4.953796e+001	-1.662626e+001	-1.450283e+002
2307800000.000	-1.897647e+001	8.646658e+001	-2.474670e+001	9.034870e+000	-2.488304e+001	9.938979e+000	-1.572898e+001	1.523901e+002
2312700000.000	-1.921872e+001	6.452692e+001	-2.485715e+001	-3.185546e+001	-2.478481e+001	-3.130121e+001	-1.517676e+001	8.633904e+001
2317600000.000	-1.969297e+001	4.281696e+001	-2.491777e+001	-7.321168e+001	-2.485936e+001	-7.395156e+001	-1.497186e+001	1.777098e+001
2322500000.000	-2.045725e+001	2.153841e+001	-2.491811e+001	-1.142515e+002	-2.510273e+001	-1.152417e+002	-1.500650e+001	-4.875689e+001
2327400000.000	-2.161488e+001	5.167247e-002	-2.480774e+001	-1.553314e+002	-2.510577e+001	-1.545366e+002	-1.499110e+001	-1.123164e+002
2332300000.000	-2.316575e+001	-2.297515e+001	-2.454964e+001	1.633897e+002	-2.462435e+001	1.658705e+002	-1.471250e+001	-1.756968e+002
2337200000.000	-2.513079e+001	-5.063684e+001	-2.422368e+001	1.209416e+002	-2.389680e+001	1.228083e+002	-1.405602e+001	1.192854e+002
2342100000.000	-2.705837e+001	-8.815844e+001	-2.403571e+001	7.810999e+001	-2.356731e+001	7.736668e+001	-1.350600e+001	5.261256e+001
2347000000.000	-2.790971e+001	-1.356867e+002	-2.377860e+001	3.650309e+001	-2.359553e+001	3.356286e+001	-1.365419e+001	-1.460299e+001
2351900000.000	-2.725438e+001	-1.780691e+002	-2.331669e+001	-5.340473e+000	-2.352074e+001	-7.885646e+000	-1.413984e+001	-7.997074e+001
2356800000.000	-2.605875e+001	1.532688e+002	-2.271591e+001	-4.787463e+001	-2.305727e+001	-4.833838e+001	-1.416251e+001	-1.435124e+002
2361700000.000	-2.464063e+001	1.323940e+002	-2.203379e+001	-9.134546e+001	-2.218888e+001	-9.010531e+001	-1.379424e+001	1.541827e+002
2366600000.000	-2.295655e+001	1.115908e+002	-2.121812e+001	-1.357582e+002	-2.105905e+001	-1.350245e+002	-1.357871e+001	8.998429e+001
2371500000.000	-2.139817e+001	8.624935e+001	-2.031759e+001	1.777623e+002	-2.015172e+001	1.760034e+002	-1.388035e+001	2.193970e+001
2376400000.000	-2.035741e+001	5.717891e+001	-1.956134e+001	1.287255e+002	-1.983587e+001	1.261899e+002	-1.436023e+001	-4.628077e+001
2381300000.000	-1.977862e+001	2.773464e+001	-1.919665e+001	7.854842e+001	-1.977323e+001	7.865524e+001	-1.458884e+001	-1.090258e+002
2386200000.000	-1.947194e+001	-9.705493e-001	-1.912308e+001	2.877168e+001	-1.948268e+001	3.210610e+001	-1.474554e+001	-1.677752e+002
2391100000.000	-1.936074e+001	-2.926299e+001	-1.923496e+001	-1.994120e+001	-1.906570e+001	-1.620798e+001	-1.507820e+001	1.312756e+002
2396000000.000	-1.948721e+001	-5.771295e+001	-1.930725e+001	-6.783554e+001	-1.884583e+001	-6.661634e+001	-1.563076e+001	6.397793e+001
2400900000.000	-1.975327e+001	-8.681187e+001	-1.945434e+001	-1.163823e+002	-1.913156e+001	-1.174320e+002	-1.630570e+001	-4.202308e+000
2405800000.000	-1.991227e+001	-1.165100e+002	-1.979267e+001	-1.642503e+002	-1.971363e+001	-1.655187e+002	-1.697499e+001	-6.672303e+001
2410700000.000	-1.979650e+001	-1.460797e+002	-2.013468e+001	1.491086e+002	-2.013108e+001	1.483771e+002	-1.774923e+001	-1.258009e+002
2415600000.000	-1.936502e+001	-1.741543e+002	-2.040318e+001	1.025178e+002	-2.037390e+001	1.020965e+002	-1.852562e+001	1.745617e+002
2420500000.000	-1.881453e+001	1.597850e+002	-2.069300e+001	5.557860e+001	-2.060617e+001	5.499156e+001	-1.914026e+001	1.140448e+002
2425400000.000	-1.831443e+001	1.351223e+002	-2.109784e+001	8.367823e+000	-2.101897e+001	7.224573e+000	-1.991354e+001	5.603692e+001
2430300000.000	-1.804677e+001	1.110173e+002	-2.166078e+001	-3.837439e+001	-2.166873e+001	-4.007896e+001	-2.097506e+001	2.520970e+000
2435200000.000	-1.797596e+001	8.733289e+001	-2.230046e+001	-8.433999e+001	-2.246316e+001	-8.616009e+001	-2.203158e+001	-4.999812e+001
