!Agilent Technologies,E5061B,MY49305579,A.02.22
!Date: Thu Aug 24 16:26:21 2017
!Data & Calibration Information:
!Freq	S11:SOLT2(ON)	S21:SOLT2(ON)	S12:SOLT2(ON)	S22:SOLT2(ON)
# Hz S dB R 50
1710000000.000	-2.809171e+001	-1.502056e+002	-2.164641e+001	3.801838e+000	-2.157984e+001	3.823290e+000	-3.716390e+001	1.595082e+002
1714900000.000	-2.741845e+001	-1.556797e+002	-2.180819e+001	-4.250410e+001	-2.177397e+001	-4.267361e+001	-4.281797e+001	6.916747e+001
1719800000.000	-2.703910e+001	-1.620929e+002	-2.189806e+001	-8.846559e+001	-2.187295e+001	-8.844415e+001	-3.693262e+001	-6.221967e+001
1724700000.000	-2.655590e+001	-1.679515e+002	-2.198229e+001	-1.340206e+002	-2.193313e+001	-1.339731e+002	-3.025730e+001	-1.147525e+002
1729600000.000	-2.599797e+001	-1.744141e+002	-2.193716e+001	-1.791854e+002	-2.187878e+001	-1.793559e+002	-2.625021e+001	-1.544143e+002
1734500000.000	-2.549577e+001	1.797434e+002	-2.178636e+001	1.346487e+002	-2.177261e+001	1.345317e+002	-2.380118e+001	1.626460e+002
1739400000.000	-2.491383e+001	1.740166e+002	-2.173764e+001	8.769981e+001	-2.169126e+001	8.808905e+001	-2.290776e+001	1.118767e+002
1744300000.000	-2.426362e+001	1.677984e+002	-2.182757e+001	4.107710e+001	-2.162161e+001	4.092832e+001	-2.299571e+001	4.689523e+001
1749200000.000	-2.351197e+001	1.590844e+002	-2.180619e+001	-4.711969e+000	-2.168886e+001	-6.616714e+000	-2.188195e+001	-3.333659e+001
1754100000.000	-2.307250e+001	1.466249e+002	-2.157956e+001	-5.205034e+001	-2.186241e+001	-5.360591e+001	-1.947338e+001	-1.065298e+002
1759000000.000	-2.301357e+001	1.318303e+002	-2.171831e+001	-1.012543e+002	-2.199119e+001	-1.000742e+002	-1.786066e+001	-1.696763e+002
1763900000.000	-2.334028e+001	1.140836e+002	-2.219538e+001	-1.485210e+002	-2.207503e+001	-1.472568e+002	-1.755307e+001	1.278741e+002
1768800000.000	-2.409931e+001	9.422903e+001	-2.241271e+001	1.660842e+002	-2.229811e+001	1.649896e+002	-1.786015e+001	5.931484e+001
1773700000.000	-2.525049e+001	7.258311e+001	-2.249015e+001	1.182278e+002	-2.273669e+001	1.172556e+002	-1.750897e+001	-1.458921e+001
1778600000.000	-2.670124e+001	4.914271e+001	-2.309123e+001	6.984304e+001	-2.332923e+001	7.139263e+001	-1.644584e+001	-8.451464e+001
1783500000.000	-2.840670e+001	2.323315e+001	-2.387167e+001	2.526351e+001	-2.378687e+001	2.700562e+001	-1.547975e+001	-1.489136e+002
1788400000.000	-3.020104e+001	-6.213104e+000	-2.418158e+001	-1.798343e+001	-2.404043e+001	-1.768284e+001	-1.501313e+001	1.463703e+002
1793300000.000	-3.161425e+001	-4.027580e+001	-2.440969e+001	-6.404427e+001	-2.436238e+001	-6.373607e+001	-1.518004e+001	7.758876e+001
1798200000.000	-3.216996e+001	-7.501725e+001	-2.519240e+001	-1.093393e+002	-2.503262e+001	-1.091542e+002	-1.561848e+001	5.113064e+000
1803100000.000	-3.182929e+001	-1.031700e+002	-2.587533e+001	-1.501695e+002	-2.578569e+001	-1.514264e+002	-1.576269e+001	-6.643079e+001
1808000000.000	-3.130445e+001	-1.226040e+002	-2.594184e+001	1.688715e+002	-2.615404e+001	1.684176e+002	-1.563204e+001	-1.330913e+002
1812900000.000	-3.097078e+001	-1.341787e+002	-2.605523e+001	1.256180e+002	-2.615040e+001	1.275855e+002	-1.581761e+001	1.628460e+002
1817800000.000	-3.106504e+001	-1.355291e+002	-2.636705e+001	8.479123e+001	-2.604376e+001	8.611542e+001	-1.683624e+001	9.643986e+001
1822700000.000	-2.935363e+001	-1.336452e+002	-2.608283e+001	4.483173e+001	-2.578659e+001	4.317466e+001	-1.844082e+001	2.478261e+001
1827600000.000	-2.770071e+001	-1.373063e+002	-2.553873e+001	1.493873e+000	-2.564654e+001	-1.132387e-001	-1.957393e+001	-4.735904e+001
1832500000.000	-2.614695e+001	-1.444236e+002	-2.528118e+001	-4.348538e+001	-2.543338e+001	-4.309088e+001	-2.027671e+001	-1.133688e+002
1837400000.000	-2.489104e+001	-1.551591e+002	-2.517238e+001	-8.761280e+001	-2.510030e+001	-8.682745e+001	-2.164818e+001	-1.739345e+002
1842300000.000	-2.402276e+001	-1.680348e+002	-2.492469e+001	-1.311767e+002	-2.483347e+001	-1.315165e+002	-2.469046e+001	1.256610e+002
1847200000.000	-2.338384e+001	1.769689e+002	-2.461647e+001	-1.754932e+002	-2.460601e+001	-1.758077e+002	-2.969905e+001	6.019522e+001
1852100000.000	-2.307571e+001	1.606561e+002	-2.433462e+001	1.394820e+002	-2.434442e+001	1.395993e+002	-3.564688e+001	-2.815467e+001
1857000000.000	-2.314943e+001	1.432448e+002	-2.406650e+001	9.502421e+001	-2.401802e+001	9.499219e+001	-3.786115e+001	-1.318259e+002
1861900000.000	-2.381562e+001	1.266576e+002	-2.365037e+001	4.947394e+001	-2.360066e+001	4.941734e+001	-4.230945e+001	1.582573e+002
1866800000.000	-2.498373e+001	1.129798e+002	-2.337970e+001	2.890221e+000	-2.332437e+001	2.555223e+000	-4.475167e+001	-9.275623e+001
1871700000.000	-2.667240e+001	1.010453e+002	-2.314552e+001	-4.341740e+001	-2.316072e+001	-4.397339e+001	-3.219891e+001	-1.326740e+002
1876600000.000	-2.921212e+001	9.297743e+001	-2.292351e+001	-9.026507e+001	-2.300038e+001	-9.036048e+001	-2.738816e+001	-1.781242e+002
1881500000.000	-3.255208e+001	9.279944e+001	-2.285649e+001	-1.376951e+002	-2.285788e+001	-1.372571e+002	-2.575391e+001	1.299385e+002
1886400000.000	-3.571835e+001	1.055675e+002	-2.292469e+001	1.759207e+002	-2.280614e+001	1.757190e+002	-2.639511e+001	6.714207e+001
1891300000.000	-3.680405e+001	1.209134e+002	-2.280726e+001	1.297522e+002	-2.281682e+001	1.285993e+002	-2.612495e+001	-1.273397e+001
1896200000.000	-3.869231e+001	1.225743e+002	-2.277621e+001	8.240826e+001	-2.298370e+001	8.193672e+001	-2.368586e+001	-8.640943e+001
1901100000.000	-4.167190e+001	1.718167e+002	-2.282878e+001	3.525051e+001	-2.295970e+001	3.621162e+001	-2.183320e+001	-1.436991e+002
1906000000.000	-3.798282e+001	1.750186e+002	-2.303148e+001	-1.209212e+001	-2.296668e+001	-1.123371e+001	-2.144191e+001	1.633080e+002
1910900000.000	-3.783916e+001	-1.728377e+002	-2.326801e+001	-5.818172e+001	-2.316120e+001	-5.830549e+001	-2.208244e+001	1.063341e+002
1915800000.000	-3.530392e+001	-1.601312e+002	-2.345000e+001	-1.045116e+002	-2.344676e+001	-1.049295e+002	-2.255734e+001	4.129764e+001
1920700000.000	-3.200127e+001	-1.608967e+002	-2.375568e+001	-1.508122e+002	-2.377744e+001	-1.507809e+002	-2.178751e+001	-2.658937e+001
1925600000.000	-2.913113e+001	-1.707969e+002	-2.410011e+001	1.640589e+002	-2.407828e+001	1.641535e+002	-2.050823e+001	-8.958582e+001
1930500000.000	-2.712433e+001	1.747301e+002	-2.426472e+001	1.197617e+002	-2.426542e+001	1.197508e+002	-1.931315e+001	-1.485641e+002
1935400000.000	-2.572036e+001	1.591194e+002	-2.430602e+001	7.419269e+001	-2.428790e+001	7.472137e+001	-1.833909e+001	1.517631e+002
1940300000.000	-2.489375e+001	1.423123e+002	-2.459206e+001	2.785348e+001	-2.440141e+001	2.815471e+001	-1.775904e+001	8.925989e+001
1945200000.000	-2.476418e+001	1.247554e+002	-2.496934e+001	-1.674093e+001	-2.473649e+001	-1.815842e+001	-1.738936e+001	2.368401e+001
1950100000.000	-2.539927e+001	1.075219e+002	-2.511300e+001	-6.103050e+001	-2.521941e+001	-6.350705e+001	-1.691131e+001	-4.357082e+001
1955000000.000	-2.667189e+001	9.157101e+001	-2.527756e+001	-1.070646e+002	-2.567748e+001	-1.073959e+002	-1.603680e+001	-1.078429e+002
1959900000.000	-2.811413e+001	7.561680e+001	-2.587656e+001	-1.526125e+002	-2.604508e+001	-1.502821e+002	-1.499077e+001	-1.688215e+002
1964800000.000	-3.021949e+001	5.461236e+001	-2.644220e+001	1.655504e+002	-2.619167e+001	1.670633e+002	-1.431647e+001	1.297164e+002
1969700000.000	-3.347317e+001	3.015210e+001	-2.646817e+001	1.241890e+002	-2.623423e+001	1.230505e+002	-1.428161e+001	6.412362e+001
1974600000.000	-3.710811e+001	-1.833016e-001	-2.642708e+001	8.012841e+001	-2.650028e+001	7.870416e+001	-1.462301e+001	-5.633017e+000
1979500000.000	-3.947230e+001	-5.412822e+001	-2.670341e+001	3.631312e+001	-2.685756e+001	3.646564e+001	-1.476997e+001	-7.522648e+001
1984400000.000	-3.694897e+001	-1.160402e+002	-2.681121e+001	-5.209227e+000	-2.684587e+001	-4.583725e+000	-1.449598e+001	-1.409787e+002
1989300000.000	-3.551832e+001	-1.664076e+002	-2.662157e+001	-4.880595e+001	-2.661387e+001	-4.796931e+001	-1.400221e+001	1.556681e+002
1994200000.000	-3.582546e+001	1.797468e+002	-2.680981e+001	-9.304903e+001	-2.664870e+001	-9.171115e+001	-1.386956e+001	8.926187e+001
1999100000.000	-3.488162e+001	1.794311e+002	-2.706488e+001	-1.344042e+002	-2.669422e+001	-1.348565e+002	-1.445053e+001	1.946543e+001
2004000000.000	-3.310565e+001	-1.797862e+002	-2.688140e+001	-1.741486e+002	-2.675911e+001	-1.765599e+002	-1.520685e+001	-5.060210e+001
2008900000.000	-3.121083e+001	1.782672e+002	-2.611332e+001	1.444480e+002	-2.636238e+001	1.431609e+002	-1.541299e+001	-1.167433e+002
2013800000.000	-2.986032e+001	1.743298e+002	-2.551410e+001	9.810534e+001	-2.565163e+001	9.938084e+001	-1.539923e+001	1.795727e+002
2018700000.000	-2.875422e+001	1.707089e+002	-2.533571e+001	5.285291e+001	-2.508188e+001	5.356970e+001	-1.635137e+001	1.149293e+002
2023600000.000	-2.810844e+001	1.656329e+002	-2.503138e+001	8.051478e+000	-2.481497e+001	6.164341e+000	-1.848790e+001	4.694208e+001
2028500000.000	-2.771666e+001	1.618759e+002	-2.471966e+001	-3.749466e+001	-2.486344e+001	-3.953733e+001	-2.057995e+001	-2.656757e+001
2033400000.000	-2.748431e+001	1.568049e+002	-2.455159e+001	-8.373787e+001	-2.479833e+001	-8.413988e+001	-2.150579e+001	-9.644929e+001
2038300000.000	-2.744671e+001	1.506877e+002	-2.450247e+001	-1.292107e+002	-2.460036e+001	-1.287316e+002	-2.231124e+001	-1.552329e+002
2043200000.000	-2.756876e+001	1.450990e+002	-2.434869e+001	-1.739912e+002	-2.434846e+001	-1.737462e+002	-2.415759e+001	1.542421e+002
2048100000.000	-2.746703e+001	1.392988e+002	-2.415861e+001	1.403967e+002	-2.413798e+001	1.404683e+002	-2.732257e+001	1.083741e+002
2053000000.000	-2.707160e+001	1.328182e+002	-2.403103e+001	9.465312e+001	-2.397523e+001	9.459557e+001	-3.092835e+001	6.539685e+001
2057900000.000	-2.635168e+001	1.251167e+002	-2.388809e+001	4.905106e+001	-2.383353e+001	4.873076e+001	-3.317874e+001	2.152485e+001
2062800000.000	-2.526673e+001	1.143013e+002	-2.370774e+001	2.965558e+000	-2.365612e+001	2.309801e+000	-3.210332e+001	-3.013946e+001
2067700000.000	-2.442756e+001	9.922836e+001	-2.363932e+001	-4.373809e+001	-2.365189e+001	-4.461992e+001	-2.962054e+001	-8.604003e+001
2072600000.000	-2.440087e+001	8.116603e+001	-2.372524e+001	-9.026867e+001	-2.381901e+001	-9.086432e+001	-2.695775e+001	-1.371761e+002
2077500000.000	-2.511132e+001	6.759255e+001	-2.383404e+001	-1.356841e+002	-2.391323e+001	-1.355360e+002	-2.435864e+001	1.728587e+002
2082400000.000	-2.569337e+001	5.378519e+001	-2.385449e+001	1.788517e+002	-2.381311e+001	1.792711e+002	-2.253431e+001	1.204655e+002
2087300000.000	-2.655977e+001	3.784343e+001	-2.394456e+001	1.331632e+002	-2.379045e+001	1.327525e+002	-2.147443e+001	6.229009e+001
2092200000.000	-2.768881e+001	1.669661e+001	-2.400448e+001	8.795773e+001	-2.397013e+001	8.648059e+001	-2.082195e+001	-1.882270e+000
2097100000.000	-2.942876e+001	-9.299873e+000	-2.409161e+001	4.222063e+001	-2.424482e+001	4.106444e+001	-1.962237e+001	-6.750305e+001
2102000000.000	-3.147311e+001	-3.958893e+001	-2.434859e+001	-3.073157e+000	-2.453829e+001	-2.852315e+000	-1.813977e+001	-1.291584e+002
2106900000.000	-3.293342e+001	-7.467648e+001	-2.457722e+001	-4.663214e+001	-2.463316e+001	-4.556138e+001	-1.697317e+001	1.717796e+002
2111800000.000	-3.385247e+001	-1.101544e+002	-2.456352e+001	-9.012854e+001	-2.445572e+001	-8.942399e+001	-1.638118e+001	1.100408e+002
2116700000.000	-3.418853e+001	-1.403385e+002	-2.457951e+001	-1.343410e+002	-2.440726e+001	-1.344524e+002	-1.621303e+001	4.344809e+001
2121600000.000	-3.360550e+001	-1.630034e+002	-2.459933e+001	-1.779214e+002	-2.451521e+001	-1.789573e+002	-1.588435e+001	-2.431302e+001
2126500000.000	-3.331825e+001	1.720755e+002	-2.449046e+001	1.390001e+002	-2.458678e+001	1.379574e+002	-1.522930e+001	-8.886060e+001
2131400000.000	-3.407804e+001	1.586030e+002	-2.421164e+001	9.518575e+001	-2.439329e+001	9.560185e+001	-1.449657e+001	-1.503902e+002
2136300000.000	-3.421464e+001	1.565655e+002	-2.398674e+001	5.037053e+001	-2.391290e+001	5.222706e+001	-1.386410e+001	1.480021e+002
2141200000.000	-3.315850e+001	1.546379e+002	-2.385618e+001	5.781322e+000	-2.342724e+001	6.207400e+000	-1.357325e+001	8.282992e+001
2146100000.000	-3.393877e+001	1.486942e+002	-2.355155e+001	-3.810376e+001	-2.323933e+001	-4.098038e+001	-1.377374e+001	1.419775e+001
2151000000.000	-3.394641e+001	1.643015e+002	-2.312866e+001	-8.315094e+001	-2.333003e+001	-8.642730e+001	-1.390893e+001	-5.458268e+001
2155900000.000	-3.207409e+001	1.725880e+002	-2.279097e+001	-1.301193e+002	-2.322175e+001	-1.304729e+002	-1.355350e+001	-1.201474e+002
2160800000.000	-2.968979e+001	1.760368e+002	-2.274071e+001	-1.763787e+002	-2.285692e+001	-1.745924e+002	-1.288319e+001	1.776580e+002
2165700000.000	-2.741456e+001	1.701707e+002	-2.254311e+001	1.385291e+002	-2.229026e+001	1.391399e+002	-1.244184e+001	1.144296e+002
2170600000.000	-2.588992e+001	1.604970e+002	-2.215796e+001	9.185578e+001	-2.196999e+001	9.030470e+001	-1.255578e+001	4.665982e+001
2175500000.000	-2.467491e+001	1.488050e+002	-2.202609e+001	4.406978e+001	-2.213531e+001	4.202506e+001	-1.303014e+001	-2.370926e+001
2180400000.000	-2.373607e+001	1.350392e+002	-2.206824e+001	-2.995996e+000	-2.234231e+001	-3.623840e+000	-1.316094e+001	-9.092107e+001
2185300000.000	-2.312572e+001	1.198339e+002	-2.203477e+001	-4.915118e+001	-2.224762e+001	-4.825257e+001	-1.290683e+001	-1.544777e+002
2190200000.000	-2.272156e+001	1.039931e+002	-2.190672e+001	-9.604583e+001	-2.187319e+001	-9.454349e+001	-1.253738e+001	1.417083e+002
2195100000.000	-2.263277e+001	8.883743e+001	-2.189526e+001	-1.440160e+002	-2.163057e+001	-1.436911e+002	-1.242295e+001	7.439664e+001
2200000000.000	-2.270277e+001	7.436166e+001	-2.207638e+001	1.685664e+002	-2.191674e+001	1.666966e+002	-1.287341e+001	5.543594e+000
2204900000.000	-2.303757e+001	6.006198e+001	-2.226542e+001	1.217938e+002	-2.246254e+001	1.198347e+002	-1.376810e+001	-6.224397e+001
2209800000.000	-2.373502e+001	4.651158e+001	-2.246240e+001	7.480468e+001	-2.279870e+001	7.500792e+001	-1.462128e+001	-1.289613e+002
2214700000.000	-2.467786e+001	3.306975e+001	-2.279312e+001	2.807570e+001	-2.285097e+001	2.978096e+001	-1.515325e+001	1.637941e+002
2219600000.000	-2.614785e+001	1.957659e+001	-2.316244e+001	-1.792553e+001	-2.294844e+001	-1.732992e+001	-1.582941e+001	9.546883e+001
2224500000.000	-2.794529e+001	7.585661e+000	-2.351186e+001	-6.337003e+001	-2.338794e+001	-6.468529e+001	-1.727528e+001	2.719635e+001
2229400000.000	-2.936090e+001	-3.461947e+000	-2.387953e+001	-1.084721e+002	-2.398626e+001	-1.099258e+002	-1.929668e+001	-3.996731e+001
2234300000.000	-2.996295e+001	-2.144993e+001	-2.424026e+001	-1.529412e+002	-2.445517e+001	-1.532689e+002	-2.139532e+001	-1.038004e+002
2239200000.000	-3.108204e+001	-5.096365e+001	-2.451652e+001	1.631050e+002	-2.467682e+001	1.636305e+002	-2.386644e+001	-1.603257e+002
2244100000.000	-3.291990e+001	-8.412809e+001	-2.474123e+001	1.190922e+002	-2.479671e+001	1.198480e+002	-2.756517e+001	1.575075e+002
2249000000.000	-3.461559e+001	-1.187799e+002	-2.493074e+001	7.520096e+001	-2.493722e+001	7.580556e+001	-3.081858e+001	1.384199e+002
2253900000.000	-3.534544e+001	-1.540634e+002	-2.514951e+001	3.122477e+001	-2.508504e+001	3.182912e+001	-2.983110e+001	1.170491e+002
2258800000.000	-3.512702e+001	1.718646e+002	-2.534780e+001	-1.228780e+001	-2.521879e+001	-1.215387e+001	-2.773812e+001	6.765665e+001
2263700000.000	-3.475234e+001	1.417088e+002	-2.553661e+001	-5.490802e+001	-2.542531e+001	-5.563070e+001	-2.544814e+001	4.147867e+000
2268600000.000	-3.565586e+001	1.191136e+002	-2.551287e+001	-9.715533e+001	-2.553134e+001	-9.817666e+001	-2.307738e+001	-6.273609e+001
2273500000.000	-3.759879e+001	1.178526e+002	-2.538797e+001	-1.398329e+002	-2.547827e+001	-1.401267e+002	-2.110972e+001	-1.265625e+002
2278400000.000	-3.702342e+001	1.279606e+002	-2.506420e+001	1.770837e+002	-2.506765e+001	1.775266e+002	-1.963428e+001	1.723794e+002
2283300000.000	-3.601736e+001	1.314750e+002	-2.471725e+001	1.323563e+002	-2.456931e+001	1.323536e+002	-1.858265e+001	1.114091e+002
2288200000.000	-3.525207e+001	1.352210e+002	-2.447661e+001	8.677849e+001	-2.432057e+001	8.545882e+001	-1.799945e+001	4.757646e+001
2293100000.000	-3.451454e+001	1.406433e+002	-2.433725e+001	4.094862e+001	-2.436550e+001	3.903345e+001	-1.767071e+001	-1.865063e+001
2298000000.000	-3.312650e+001	1.470426e+002	-2.428415e+001	-4.955668e+000	-2.451978e+001	-6.085877e+000	-1.722784e+001	-8.399520e+001
2302900000.000	-3.079725e+001	1.512206e+002	-2.427384e+001	-5.020778e+001	-2.451383e+001	-4.978125e+001	-1.654861e+001	-1.458836e+002
2307800000.000	-2.731841e+001	1.437900e+002	-2.417218e+001	-9.567221e+001	-2.421355e+001	-9.441256e+001	-1.585370e+001	1.528370e+002
2312700000.000	-2.480638e+001	1.256022e+002	-2.412673e+001	-1.416769e+002	-2.392543e+001	-1.411943e+002	-1.534946e+001	8.870562e+001
2317600000.000	-2.322020e+001	1.059261e+002	-2.415102e+001	1.719386e+002	-2.396660e+001	1.706019e+002	-1.508567e+001	2.185668e+001
2322500000.000	-2.213831e+001	8.679003e+001	-2.429729e+001	1.258259e+002	-2.442459e+001	1.236379e+002	-1.501448e+001	-4.373981e+001
2327400000.000	-2.154258e+001	6.810281e+001	-2.451602e+001	8.017391e+001	-2.489222e+001	7.964691e+001	-1.490339e+001	-1.066475e+002
2332300000.000	-2.143762e+001	5.066004e+001	-2.481670e+001	3.544202e+001	-2.507449e+001	3.701877e+001	-1.450524e+001	-1.691000e+002
2337200000.000	-2.182051e+001	3.388982e+001	-2.503467e+001	-8.087513e+000	-2.492507e+001	-6.013592e+000	-1.372279e+001	1.268014e+002
2342100000.000	-2.243741e+001	1.817712e+001	-2.501297e+001	-5.116471e+001	-2.466567e+001	-5.100597e+001	-1.302438e+001	6.069102e+001
2347000000.000	-2.322476e+001	-1.713912e-001	-2.483472e+001	-9.583796e+001	-2.465456e+001	-9.781648e+001	-1.287356e+001	-5.939072e+000
2351900000.000	-2.461225e+001	-2.269441e+001	-2.490368e+001	-1.415685e+002	-2.506915e+001	-1.436560e+002	-1.304207e+001	-7.166761e+001
2356800000.000	-2.646194e+001	-4.827327e+001	-2.506683e+001	1.742512e+002	-2.542390e+001	1.742610e+002	-1.291455e+001	-1.356852e+002
2361700000.000	-2.806514e+001	-7.603520e+001	-2.503464e+001	1.306664e+002	-2.519076e+001	1.326563e+002	-1.238124e+001	1.610127e+002
2366600000.000	-2.894177e+001	-1.057273e+002	-2.497952e+001	8.585757e+001	-2.470424e+001	8.751977e+001	-1.201524e+001	9.523795e+001
2371500000.000	-2.940485e+001	-1.347115e+002	-2.501850e+001	4.099856e+001	-2.464981e+001	3.964483e+001	-1.222431e+001	2.655203e+001
2376400000.000	-2.994882e+001	-1.604196e+002	-2.507887e+001	-3.517317e+000	-2.514253e+001	-6.420262e+000	-1.264812e+001	-4.114005e+001
2381300000.000	-3.066535e+001	1.768883e+002	-2.518641e+001	-4.765335e+001	-2.561417e+001	-4.856844e+001	-1.279792e+001	-1.040039e+002
2386200000.000	-3.108111e+001	1.575604e+002	-2.529045e+001	-9.104750e+001	-2.558413e+001	-8.881550e+001	-1.272160e+001	-1.639382e+002
2391100000.000	-3.062898e+001	1.382286e+002	-2.523063e+001	-1.333295e+002	-2.501829e+001	-1.307459e+002	-1.268916e+001	1.331576e+002
2396000000.000	-2.950640e+001	1.160905e+002	-2.493567e+001	-1.765836e+002	-2.451710e+001	-1.770746e+002	-1.289678e+001	6.428278e+001
2400900000.000	-2.846885e+001	9.282493e+001	-2.473722e+001	1.395498e+002	-2.465003e+001	1.370400e+002	-1.344151e+001	-5.263597e+000
2405800000.000	-2.825757e+001	6.978183e+001	-2.442564e+001	9.672505e+001	-2.465588e+001	9.538801e+001	-1.413301e+001	-6.924606e+001
2410700000.000	-2.912562e+001	4.967340e+001	-2.386786e+001	5.288934e+001	-2.410086e+001	5.343542e+001	-1.471196e+001	-1.300984e+002
2415600000.000	-3.115902e+001	3.179449e+001	-2.323039e+001	7.763393e+000	-2.325965e+001	9.006124e+000	-1.511173e+001	1.669910e+002
2420500000.000	-3.527337e+001	1.482202e+001	-2.256446e+001	-3.948486e+001	-2.240196e+001	-3.883356e+001	-1.555311e+001	1.015547e+002
2425400000.000	-4.636471e+001	9.229917e+000	-2.218276e+001	-8.851392e+001	-2.199760e+001	-8.913542e+001	-1.639167e+001	3.709374e+001
2430300000.000	-4.222944e+001	1.365436e+002	-2.208594e+001	-1.370506e+002	-2.204465e+001	-1.386208e+002	-1.777231e+001	-2.566044e+001
2435200000.000	-3.494412e+001	1.211725e+002	-2.205838e+001	1.750307e+002	-2.221518e+001	1.738857e+002	-1.951789e+001	-8.784424e+001
