!Agilent Technologies,E5061B,MY49305579,A.02.22
!Date: Thu Aug 24 16:26:31 2017
!Data & Calibration Information:
!Freq	S11:SOLT2(ON)	S21:SOLT2(ON)	S12:SOLT2(ON)	S22:SOLT2(ON)
# Hz S dB R 50
1710000000.000	-2.980886e+001	-1.372679e+002	-1.971818e+001	-4.108247e+001	-1.965406e+001	-4.333889e+001	-1.524145e+001	3.783287e+001
1714900000.000	-2.808832e+001	-1.417523e+002	-1.975579e+001	-8.919643e+001	-1.993697e+001	-8.945963e+001	-1.650495e+001	-3.061992e+001
1719800000.000	-2.688170e+001	-1.489290e+002	-2.009150e+001	-1.348088e+002	-2.009292e+001	-1.338832e+002	-1.699462e+001	-9.249280e+001
1724700000.000	-2.580348e+001	-1.575536e+002	-2.014934e+001	-1.778938e+002	-2.004429e+001	-1.779417e+002	-1.717372e+001	-1.470852e+002
1729600000.000	-2.483177e+001	-1.668418e+002	-1.978810e+001	1.378134e+002	-1.978219e+001	1.374804e+002	-1.712974e+001	1.645705e+002
1734500000.000	-2.412794e+001	-1.764005e+002	-1.946874e+001	9.100680e+001	-1.948377e+001	9.160544e+001	-1.704598e+001	1.144650e+002
1739400000.000	-2.353300e+001	1.744653e+002	-1.950261e+001	4.396912e+001	-1.928337e+001	4.470687e+001	-1.715649e+001	5.740549e+001
1744300000.000	-2.304425e+001	1.647494e+002	-1.958571e+001	-6.276856e-001	-1.927310e+001	-2.322995e+000	-1.693500e+001	-8.907894e+000
1749200000.000	-2.266801e+001	1.539454e+002	-1.920118e+001	-4.480527e+001	-1.935389e+001	-4.807442e+001	-1.583622e+001	-7.661655e+001
1754100000.000	-2.253034e+001	1.408751e+002	-1.874127e+001	-9.259407e+001	-1.927170e+001	-9.285403e+001	-1.444867e+001	-1.388766e+002
1759000000.000	-2.269176e+001	1.257157e+002	-1.883768e+001	-1.411655e+002	-1.894451e+001	-1.381846e+002	-1.348494e+001	1.604371e+002
1763900000.000	-2.315815e+001	1.080561e+002	-1.899989e+001	1.740086e+002	-1.857899e+001	1.743722e+002	-1.321163e+001	9.408866e+001
1768800000.000	-2.393321e+001	8.793149e+001	-1.849579e+001	1.287761e+002	-1.850292e+001	1.257214e+002	-1.354064e+001	2.124924e+001
1773700000.000	-2.505329e+001	6.504264e+001	-1.820142e+001	7.834072e+001	-1.870955e+001	7.804822e+001	-1.371972e+001	-5.099176e+001
1778600000.000	-2.651486e+001	3.978317e+001	-1.872263e+001	2.948689e+001	-1.890484e+001	3.234280e+001	-1.366559e+001	-1.174315e+002
1783500000.000	-2.810816e+001	1.130706e+001	-1.904585e+001	-1.461247e+001	-1.883080e+001	-1.308659e+001	-1.388517e+001	1.791848e+002
1788400000.000	-2.964455e+001	-2.156024e+001	-1.881818e+001	-5.991207e+001	-1.868923e+001	-6.009686e+001	-1.468127e+001	1.148662e+002
1793300000.000	-3.050747e+001	-5.851151e+001	-1.879863e+001	-1.080811e+002	-1.874869e+001	-1.078788e+002	-1.609495e+001	4.703926e+001
1798200000.000	-3.053317e+001	-9.472150e+001	-1.911342e+001	-1.547018e+002	-1.898630e+001	-1.548367e+002	-1.778625e+001	-2.198863e+001
1803100000.000	-3.027528e+001	-1.237979e+002	-1.923321e+001	1.601354e+002	-1.920350e+001	1.593088e+002	-1.915236e+001	-8.682394e+001
1808000000.000	-3.027988e+001	-1.448774e+002	-1.922671e+001	1.140036e+002	-1.932343e+001	1.137404e+002	-2.041949e+001	-1.432048e+002
1812900000.000	-3.099667e+001	-1.590015e+002	-1.934235e+001	6.709174e+001	-1.938692e+001	6.771273e+001	-2.214873e+001	1.712394e+002
1817800000.000	-3.319974e+001	-1.597743e+002	-1.964610e+001	2.075541e+001	-1.957881e+001	2.162743e+001	-2.345181e+001	1.356716e+002
1822700000.000	-3.284887e+001	-1.429240e+002	-1.993972e+001	-2.434179e+001	-1.972462e+001	-2.403485e+001	-2.307959e+001	9.342715e+001
1827600000.000	-3.076145e+001	-1.338906e+002	-2.009039e+001	-6.862474e+001	-1.991699e+001	-6.986261e+001	-2.196354e+001	3.511425e+001
1832500000.000	-2.822145e+001	-1.347565e+002	-2.012128e+001	-1.136684e+002	-2.021127e+001	-1.151568e+002	-2.028056e+001	-2.778886e+001
1837400000.000	-2.613996e+001	-1.433044e+002	-2.030976e+001	-1.595402e+002	-2.052086e+001	-1.592863e+002	-1.846993e+001	-8.757512e+001
1842300000.000	-2.460222e+001	-1.557238e+002	-2.069870e+001	1.565778e+002	-2.068430e+001	1.579066e+002	-1.714367e+001	-1.446599e+002
1847200000.000	-2.352432e+001	-1.709646e+002	-2.074542e+001	1.149762e+002	-2.056303e+001	1.151546e+002	-1.631136e+001	1.568393e+002
1852100000.000	-2.283101e+001	1.725606e+002	-2.031966e+001	7.186457e+001	-2.026060e+001	7.128403e+001	-1.588569e+001	9.416862e+001
1857000000.000	-2.252020e+001	1.552416e+002	-2.002622e+001	2.570516e+001	-1.999193e+001	2.580825e+001	-1.566250e+001	2.715417e+001
1861900000.000	-2.265847e+001	1.383025e+002	-2.008268e+001	-1.927352e+001	-1.991629e+001	-1.978758e+001	-1.536828e+001	-4.139369e+001
1866800000.000	-2.319962e+001	1.231242e+002	-1.978993e+001	-6.225660e+001	-1.981529e+001	-6.414207e+001	-1.470153e+001	-1.073878e+002
1871700000.000	-2.407116e+001	1.085643e+002	-1.913583e+001	-1.083308e+002	-1.946088e+001	-1.086394e+002	-1.391440e+001	-1.698336e+002
1876600000.000	-2.558262e+001	9.395400e+001	-1.892566e+001	-1.573379e+002	-1.899082e+001	-1.549376e+002	-1.345994e+001	1.282843e+002
1881500000.000	-2.786945e+001	8.052643e+001	-1.912771e+001	1.562528e+002	-1.870218e+001	1.568231e+002	-1.368578e+001	6.249800e+001
1886400000.000	-3.112961e+001	6.696946e+001	-1.891765e+001	1.114868e+002	-1.876336e+001	1.082668e+002	-1.426718e+001	-6.476561e+000
1891300000.000	-3.553914e+001	4.965929e+001	-1.857783e+001	6.390057e+001	-1.904221e+001	6.177523e+001	-1.419144e+001	-7.327819e+001
1896200000.000	-4.039790e+001	3.048936e+000	-1.865687e+001	1.491950e+001	-1.908329e+001	1.716698e+001	-1.377761e+001	-1.349031e+002
1901100000.000	-3.653298e+001	-8.744255e+001	-1.906984e+001	-3.156748e+001	-1.889723e+001	-2.862325e+001	-1.367049e+001	1.665791e+002
1906000000.000	-3.324857e+001	-1.272464e+002	-1.909162e+001	-7.554344e+001	-1.870229e+001	-7.580590e+001	-1.404177e+001	1.055791e+002
1910900000.000	-3.105037e+001	-1.434137e+002	-1.881494e+001	-1.222451e+002	-1.876314e+001	-1.241768e+002	-1.458443e+001	3.972129e+001
1915800000.000	-2.917762e+001	-1.561793e+002	-1.894973e+001	-1.708941e+002	-1.912659e+001	-1.715358e+002	-1.479533e+001	-2.677831e+001
1920700000.000	-2.758679e+001	-1.694075e+002	-1.942527e+001	1.431125e+002	-1.951003e+001	1.436082e+002	-1.458568e+001	-8.920628e+001
1925600000.000	-2.618006e+001	1.761491e+002	-1.956594e+001	9.944184e+001	-1.956589e+001	9.978057e+001	-1.422659e+001	-1.488600e+002
1930500000.000	-2.512484e+001	1.599180e+002	-1.939663e+001	5.399645e+001	-1.938665e+001	5.470543e+001	-1.387317e+001	1.508782e+002
1935400000.000	-2.453051e+001	1.433810e+002	-1.944639e+001	6.754931e+000	-1.924519e+001	7.592873e+000	-1.362648e+001	8.730465e+001
1940300000.000	-2.439038e+001	1.263725e+002	-1.979835e+001	-3.895492e+001	-1.947440e+001	-4.035840e+001	-1.369046e+001	2.062852e+001
1945200000.000	-2.480949e+001	1.087889e+002	-1.989053e+001	-8.302515e+001	-1.995557e+001	-8.614768e+001	-1.394628e+001	-4.650405e+001
1950100000.000	-2.599703e+001	9.075608e+001	-1.982873e+001	-1.286522e+002	-2.029940e+001	-1.294373e+002	-1.401291e+001	-1.107713e+002
1955000000.000	-2.800080e+001	7.365175e+001	-2.003275e+001	-1.748878e+002	-2.026950e+001	-1.723854e+002	-1.382778e+001	-1.724869e+002
1959900000.000	-3.033030e+001	5.649298e+001	-2.028064e+001	1.414205e+002	-2.001450e+001	1.432258e+002	-1.397502e+001	1.249379e+002
1964800000.000	-3.350889e+001	3.179053e+001	-2.011066e+001	9.770642e+001	-1.984067e+001	9.654196e+001	-1.492016e+001	5.930859e+001
1969700000.000	-3.830312e+001	-7.652614e+000	-1.993150e+001	5.145389e+001	-2.001728e+001	4.997629e+001	-1.627557e+001	-9.538314e+000
1974600000.000	-4.127100e+001	-6.996550e+001	-2.008340e+001	5.115089e+000	-2.024489e+001	5.232735e+000	-1.722237e+001	-7.747694e+001
1979500000.000	-3.782729e+001	-1.231941e+002	-2.026865e+001	-3.907931e+001	-2.030896e+001	-3.833428e+001	-1.748955e+001	-1.407771e+002
1984400000.000	-3.354152e+001	-1.551691e+002	-2.017149e+001	-8.289911e+001	-2.012748e+001	-8.233389e+001	-1.751644e+001	1.590701e+002
1989300000.000	-3.143985e+001	1.675052e+002	-1.985707e+001	-1.282383e+002	-1.977023e+001	-1.277934e+002	-1.825669e+001	9.543245e+001
1994200000.000	-3.224541e+001	1.465611e+002	-1.984917e+001	-1.750348e+002	-1.968587e+001	-1.751375e+002	-2.028345e+001	2.995427e+001
1999100000.000	-3.355129e+001	1.374821e+002	-1.993934e+001	1.396198e+002	-1.982664e+001	1.387048e+002	-2.262454e+001	-3.761479e+001
2004000000.000	-3.534137e+001	1.388536e+002	-1.989411e+001	9.432405e+001	-1.990725e+001	9.345857e+001	-2.465431e+001	-1.039124e+002
2008900000.000	-3.636014e+001	1.547509e+002	-1.992000e+001	4.912180e+001	-1.994208e+001	4.875394e+001	-2.676614e+001	-1.511270e+002
2013800000.000	-3.570933e+001	1.747396e+002	-1.974171e+001	4.022865e+000	-1.974913e+001	3.800938e+000	-2.720300e+001	1.776169e+002
2018700000.000	-3.276016e+001	-1.701271e+002	-1.964903e+001	-4.226903e+001	-1.960490e+001	-4.250235e+001	-2.762088e+001	1.534186e+002
2023600000.000	-2.991332e+001	-1.692453e+002	-1.963493e+001	-8.861441e+001	-1.954895e+001	-8.911057e+001	-2.645748e+001	1.221607e+002
2028500000.000	-2.762563e+001	-1.735283e+002	-1.967473e+001	-1.345869e+002	-1.959964e+001	-1.357639e+002	-2.535780e+001	6.822940e+001
2033400000.000	-2.607003e+001	1.769124e+002	-1.964694e+001	1.793574e+002	-1.973288e+001	1.777674e+002	-2.360498e+001	-3.843363e+000
2038300000.000	-2.516337e+001	1.651944e+002	-1.970978e+001	1.325926e+002	-1.993357e+001	1.320392e+002	-2.090960e+001	-7.409890e+001
2043200000.000	-2.474091e+001	1.530384e+002	-1.996914e+001	8.666812e+001	-2.009514e+001	8.733953e+001	-1.862985e+001	-1.358686e+002
2048100000.000	-2.445572e+001	1.401101e+002	-2.009071e+001	4.241283e+001	-2.005217e+001	4.299560e+001	-1.716475e+001	1.643694e+002
2053000000.000	-2.429844e+001	1.268155e+002	-1.997209e+001	-2.785707e+000	-1.986287e+001	-2.754364e+000	-1.635076e+001	1.006016e+002
2057900000.000	-2.420347e+001	1.135931e+002	-2.000421e+001	-4.921463e+001	-1.986247e+001	-4.983327e+001	-1.581598e+001	3.217414e+001
2062800000.000	-2.397333e+001	1.006059e+002	-2.025507e+001	-9.463564e+001	-2.021011e+001	-9.634447e+001	-1.532885e+001	-3.726973e+001
2067700000.000	-2.373706e+001	8.523002e+001	-2.030455e+001	-1.378689e+002	-2.052887e+001	-1.394093e+002	-1.464359e+001	-1.036983e+002
2072600000.000	-2.414957e+001	6.618461e+001	-1.991433e+001	1.771080e+002	-2.022236e+001	1.779574e+002	-1.364839e+001	-1.679961e+002
2077500000.000	-2.555155e+001	5.164041e+001	-1.986034e+001	1.294437e+002	-1.976315e+001	1.317102e+002	-1.281713e+001	1.268428e+002
2082400000.000	-2.681032e+001	3.803428e+001	-2.007733e+001	8.349779e+001	-1.964809e+001	8.310878e+001	-1.254581e+001	5.930392e+001
2087300000.000	-2.824605e+001	2.189929e+001	-2.017658e+001	3.885188e+001	-2.004538e+001	3.567913e+001	-1.276193e+001	-9.078847e+000
2092200000.000	-3.012139e+001	-1.095340e+000	-2.000852e+001	-6.645853e+000	-2.036383e+001	-8.568941e+000	-1.285035e+001	-7.827542e+001
2097100000.000	-3.257361e+001	-3.104533e+001	-2.012272e+001	-5.335139e+001	-2.042553e+001	-5.214229e+001	-1.279776e+001	-1.436752e+002
2102000000.000	-3.502650e+001	-6.881873e+001	-2.037154e+001	-9.772715e+001	-2.029600e+001	-9.609668e+001	-1.267411e+001	1.531104e+002
2106900000.000	-3.551789e+001	-1.125297e+002	-2.014586e+001	-1.406885e+002	-1.988692e+001	-1.406657e+002	-1.254011e+001	8.738320e+001
2111800000.000	-3.560516e+001	-1.545542e+002	-1.963594e+001	1.717677e+002	-1.955041e+001	1.702737e+002	-1.280058e+001	1.132482e+001
2116700000.000	-3.580746e+001	1.750203e+002	-1.978946e+001	1.236564e+002	-1.991962e+001	1.225860e+002	-1.392761e+001	-6.246382e+001
2121600000.000	-3.605488e+001	1.566562e+002	-1.995244e+001	7.743816e+001	-2.013792e+001	7.757448e+001	-1.475929e+001	-1.290372e+002
2126500000.000	-3.594181e+001	1.338868e+002	-2.010085e+001	3.145988e+001	-2.015437e+001	3.276561e+001	-1.555447e+001	1.667185e+002
2131400000.000	-3.891146e+001	1.166592e+002	-2.023054e+001	-1.443037e+001	-2.001966e+001	-1.342250e+001	-1.684808e+001	1.004440e+002
2136300000.000	-4.506055e+001	1.351991e+002	-2.039811e+001	-5.979906e+001	-2.011986e+001	-6.051063e+001	-1.878961e+001	2.983960e+001
2141200000.000	-4.088335e+001	-1.751375e+002	-2.042965e+001	-1.049099e+002	-2.036527e+001	-1.066183e+002	-2.073317e+001	-4.318496e+001
2146100000.000	-3.801358e+001	-1.602457e+002	-2.045934e+001	-1.507163e+002	-2.054242e+001	-1.515718e+002	-2.178668e+001	-1.152782e+002
2151000000.000	-3.219400e+001	-1.532921e+002	-2.056473e+001	1.635647e+002	-2.057117e+001	1.633817e+002	-2.284521e+001	1.792732e+002
2155900000.000	-2.852456e+001	-1.636988e+002	-2.064325e+001	1.183618e+002	-2.057788e+001	1.176642e+002	-2.532715e+001	1.205069e+002
2160800000.000	-2.597190e+001	-1.758571e+002	-2.063389e+001	7.295188e+001	-2.064882e+001	7.175720e+001	-3.133241e+001	6.289926e+001
2165700000.000	-2.425723e+001	1.685116e+002	-2.054818e+001	2.675303e+001	-2.064651e+001	2.598123e+001	-4.921713e+001	-6.037373e+001
2170600000.000	-2.355656e+001	1.528624e+002	-2.068401e+001	-2.080304e+001	-2.077117e+001	-2.106459e+001	-3.579241e+001	1.612110e+002
2175500000.000	-2.309388e+001	1.390725e+002	-2.097895e+001	-6.689384e+001	-2.102178e+001	-6.709203e+001	-3.323704e+001	8.444079e+001
2180400000.000	-2.266225e+001	1.244393e+002	-2.124131e+001	-1.123585e+002	-2.127650e+001	-1.128029e+002	-3.063798e+001	-1.205004e+001
2185300000.000	-2.243430e+001	1.082611e+002	-2.148230e+001	-1.575130e+002	-2.157235e+001	-1.579826e+002	-2.608992e+001	-9.235536e+001
2190200000.000	-2.251016e+001	9.140583e+001	-2.164843e+001	1.577362e+002	-2.175518e+001	1.578151e+002	-2.296392e+001	-1.586078e+002
2195100000.000	-2.305670e+001	7.613289e+001	-2.173432e+001	1.121233e+002	-2.177011e+001	1.127376e+002	-2.100805e+001	1.380818e+002
2200000000.000	-2.367261e+001	6.340548e+001	-2.203790e+001	6.639318e+001	-2.193319e+001	6.662143e+001	-1.946206e+001	7.408098e+001
2204900000.000	-2.449478e+001	5.108664e+001	-2.235045e+001	2.214654e+001	-2.225227e+001	2.113099e+001	-1.838716e+001	8.045870e+000
2209800000.000	-2.563784e+001	4.118697e+001	-2.250819e+001	-2.218696e+001	-2.261072e+001	-2.354453e+001	-1.796581e+001	-5.868922e+001
2214700000.000	-2.681542e+001	3.209753e+001	-2.273264e+001	-6.672300e+001	-2.294941e+001	-6.679642e+001	-1.749710e+001	-1.244914e+002
2219600000.000	-2.835066e+001	2.234537e+001	-2.297514e+001	-1.107359e+002	-2.304101e+001	-1.096468e+002	-1.660620e+001	1.697574e+002
2224500000.000	-3.021753e+001	1.480218e+001	-2.319306e+001	-1.541795e+002	-2.301640e+001	-1.536015e+002	-1.578407e+001	1.035631e+002
2229400000.000	-3.147776e+001	8.781499e+000	-2.328571e+001	1.625655e+002	-2.313091e+001	1.612239e+002	-1.535738e+001	3.574627e+001
2234300000.000	-3.180904e+001	-7.100244e+000	-2.345565e+001	1.195023e+002	-2.357795e+001	1.175463e+002	-1.525099e+001	-3.275157e+001
2239200000.000	-3.335598e+001	-3.698882e+001	-2.346295e+001	7.762331e+001	-2.380730e+001	7.705864e+001	-1.507053e+001	-9.808874e+001
2244100000.000	-3.648320e+001	-7.032136e+001	-2.326284e+001	3.547369e+001	-2.352749e+001	3.691050e+001	-1.475864e+001	-1.598879e+002
2249000000.000	-4.033036e+001	-1.077134e+002	-2.292685e+001	-7.554091e+000	-2.287714e+001	-5.368443e+000	-1.464166e+001	1.378876e+002
2253900000.000	-4.313330e+001	-1.534830e+002	-2.254767e+001	-5.119674e+001	-2.225355e+001	-5.049324e+001	-1.490168e+001	7.197132e+001
2258800000.000	-4.332554e+001	1.589635e+002	-2.206773e+001	-9.558420e+001	-2.186263e+001	-9.697952e+001	-1.537329e+001	3.140260e+000
2263700000.000	-4.284073e+001	1.207226e+002	-2.161935e+001	-1.416389e+002	-2.172135e+001	-1.432474e+002	-1.564115e+001	-6.385044e+001
2268600000.000	-4.792893e+001	8.965681e+001	-2.143456e+001	1.720497e+002	-2.165323e+001	1.722315e+002	-1.565154e+001	-1.278032e+002
2273500000.000	-4.693008e+001	-1.402973e+002	-2.128914e+001	1.273646e+002	-2.127875e+001	1.287339e+002	-1.556766e+001	1.710189e+002
2278400000.000	-3.616963e+001	-1.613715e+002	-2.082053e+001	8.300461e+001	-2.054042e+001	8.343806e+001	-1.522146e+001	1.095980e+002
2283300000.000	-3.173721e+001	1.774884e+002	-2.014301e+001	3.638546e+001	-1.987442e+001	3.451462e+001	-1.489401e+001	4.224966e+001
2288200000.000	-2.950277e+001	1.586468e+002	-1.963898e+001	-1.309362e+001	-1.971696e+001	-1.576720e+001	-1.527668e+001	-3.056738e+001
2293100000.000	-2.861317e+001	1.436299e+002	-1.961625e+001	-6.317494e+001	-1.990306e+001	-6.421456e+001	-1.622760e+001	-1.015352e+002
2298000000.000	-2.843348e+001	1.337205e+002	-1.983351e+001	-1.114985e+002	-2.002719e+001	-1.109390e+002	-1.705966e+001	-1.666307e+002
2302900000.000	-2.797467e+001	1.284388e+002	-1.996981e+001	-1.582009e+002	-1.996551e+001	-1.574695e+002	-1.793856e+001	1.300218e+002
2307800000.000	-2.642393e+001	1.218370e+002	-2.000909e+001	1.546301e+002	-1.991080e+001	1.544474e+002	-1.930007e+001	6.508253e+001
2312700000.000	-2.481933e+001	1.071688e+002	-2.008689e+001	1.073544e+002	-2.006070e+001	1.063355e+002	-2.084159e+001	-1.202788e+000
2317600000.000	-2.380999e+001	9.052735e+001	-2.019454e+001	5.995479e+001	-2.033142e+001	5.901509e+001	-2.230242e+001	-6.566510e+001
2322500000.000	-2.314847e+001	7.411556e+001	-2.038792e+001	1.257447e+001	-2.056096e+001	1.247111e+001	-2.379384e+001	-1.248143e+002
2327400000.000	-2.286383e+001	5.783865e+001	-2.062051e+001	-3.458392e+001	-2.072556e+001	-3.399746e+001	-2.523114e+001	1.777540e+002
2332300000.000	-2.312398e+001	4.255428e+001	-2.087745e+001	-8.157095e+001	-2.088624e+001	-8.090263e+001	-2.665272e+001	1.213372e+002
2337200000.000	-2.383751e+001	2.928384e+001	-2.118678e+001	-1.282824e+002	-2.111001e+001	-1.279734e+002	-2.777401e+001	7.216918e+001
2342100000.000	-2.472606e+001	1.758916e+001	-2.151312e+001	-1.747470e+002	-2.144538e+001	-1.749385e+002	-2.825934e+001	3.146520e+001
2347000000.000	-2.564929e+001	3.715464e+000	-2.191000e+001	1.389491e+002	-2.185522e+001	1.383603e+002	-2.761632e+001	-1.116422e+001
2351900000.000	-2.708683e+001	-1.476153e+001	-2.238428e+001	9.366437e+001	-2.240087e+001	9.286732e+001	-2.627096e+001	-6.475786e+001
2356800000.000	-2.910277e+001	-3.703436e+001	-2.264942e+001	4.943895e+001	-2.276713e+001	4.896717e+001	-2.420884e+001	-1.258758e+002
2361700000.000	-3.088740e+001	-6.207820e+001	-2.274494e+001	4.186702e+000	-2.284412e+001	4.457345e+000	-2.259432e+001	1.724857e+002
2366600000.000	-3.176452e+001	-9.290145e+001	-2.300209e+001	-4.275372e+001	-2.298903e+001	-4.221657e+001	-2.214551e+001	1.140960e+002
2371500000.000	-3.239556e+001	-1.250862e+002	-2.352486e+001	-8.902009e+001	-2.342795e+001	-8.901485e+001	-2.207560e+001	5.463154e+001
2376400000.000	-3.323305e+001	-1.515133e+002	-2.411304e+001	-1.334402e+002	-2.407785e+001	-1.342475e+002	-2.144103e+001	-9.474783e+000
2381300000.000	-3.425601e+001	-1.720295e+002	-2.453070e+001	-1.768068e+002	-2.467000e+001	-1.775972e+002	-2.010366e+001	-7.199818e+001
2386200000.000	-3.458035e+001	1.725941e+002	-2.486187e+001	1.395605e+002	-2.507394e+001	1.399737e+002	-1.893063e+001	-1.296383e+002
2391100000.000	-3.354916e+001	1.542333e+002	-2.522310e+001	9.593230e+001	-2.523157e+001	9.746351e+001	-1.826424e+001	1.728562e+002
2396000000.000	-3.185500e+001	1.301538e+002	-2.557132e+001	5.291655e+001	-2.535061e+001	5.372965e+001	-1.799731e+001	1.096551e+002
2400900000.000	-3.052852e+001	1.041413e+002	-2.589486e+001	1.052991e+001	-2.567657e+001	9.646757e+000	-1.760713e+001	4.211221e+001
2405800000.000	-3.055234e+001	8.136966e+001	-2.610230e+001	-3.111265e+001	-2.609877e+001	-3.276629e+001	-1.714679e+001	-2.382545e+001
2410700000.000	-3.164108e+001	6.724510e+001	-2.615053e+001	-7.287075e+001	-2.631087e+001	-7.365391e+001	-1.693406e+001	-8.522194e+001
2415600000.000	-3.344955e+001	6.167933e+001	-2.619024e+001	-1.144234e+002	-2.635196e+001	-1.140759e+002	-1.674068e+001	-1.453976e+002
2420500000.000	-3.552457e+001	6.851519e+001	-2.606216e+001	-1.550742e+002	-2.607333e+001	-1.542621e+002	-1.619792e+001	1.525264e+002
2425400000.000	-3.534636e+001	8.668122e+001	-2.561931e+001	1.633409e+002	-2.546136e+001	1.637018e+002	-1.551116e+001	8.825533e+001
2430300000.000	-3.290415e+001	9.007586e+001	-2.514069e+001	1.204995e+002	-2.495563e+001	1.193969e+002	-1.534580e+001	2.359860e+001
2435200000.000	-3.089682e+001	7.916663e+001	-2.462044e+001	7.718624e+001	-2.465025e+001	7.499555e+001	-1.564991e+001	-4.005726e+001
