!Agilent Technologies,E5061B,MY49305579,A.02.22
!Date: Thu Aug 24 16:25:20 2017
!Data & Calibration Information:
!Freq	S11:SOLT2(ON)	S21:SOLT2(ON)	S12:SOLT2(ON)	S22:SOLT2(ON)
# Hz S dB R 50
1710000000.000	-3.098866e+001	-1.522676e+002	-1.876724e+001	1.379771e+002	-1.871631e+001	1.375065e+002	-2.737356e+001	4.830537e+001
1714900000.000	-2.986772e+001	-1.496620e+002	-1.869872e+001	9.122673e+001	-1.874624e+001	9.120687e+001	-2.528916e+001	-2.880649e+001
1719800000.000	-2.876114e+001	-1.512377e+002	-1.895508e+001	4.662738e+001	-1.892925e+001	4.710075e+001	-2.373126e+001	-9.477294e+001
1724700000.000	-2.738659e+001	-1.550543e+002	-1.912451e+001	3.410534e+000	-1.904010e+001	3.389375e+000	-2.173530e+001	-1.477751e+002
1729600000.000	-2.602093e+001	-1.620498e+002	-1.903886e+001	-3.985057e+001	-1.900972e+001	-4.001193e+001	-2.075675e+001	1.601753e+002
1734500000.000	-2.492215e+001	-1.696923e+002	-1.890732e+001	-8.401024e+001	-1.887549e+001	-8.364681e+001	-2.119348e+001	1.072991e+002
1739400000.000	-2.392822e+001	-1.780490e+002	-1.886666e+001	-1.280884e+002	-1.869000e+001	-1.278641e+002	-2.228637e+001	4.609654e+001
1744300000.000	-2.307222e+001	1.726279e+002	-1.870426e+001	-1.713069e+002	-1.852407e+001	-1.726767e+002	-2.253580e+001	-2.937940e+001
1749200000.000	-2.233611e+001	1.614309e+002	-1.834441e+001	1.447599e+002	-1.843910e+001	1.429131e+002	-2.123299e+001	-1.001064e+002
1754100000.000	-2.187439e+001	1.477483e+002	-1.792081e+001	9.868970e+001	-1.817264e+001	9.859508e+001	-1.965987e+001	-1.581109e+002
1759000000.000	-2.173571e+001	1.316464e+002	-1.782880e+001	5.232936e+001	-1.785307e+001	5.326938e+001	-1.911187e+001	1.444641e+002
1763900000.000	-2.194378e+001	1.129112e+002	-1.772470e+001	7.600390e+000	-1.761602e+001	7.052310e+000	-1.964387e+001	8.036068e+001
1768800000.000	-2.248439e+001	9.179338e+001	-1.734825e+001	-3.800146e+001	-1.751396e+001	-3.942721e+001	-1.992021e+001	6.190140e+000
1773700000.000	-2.332080e+001	6.851996e+001	-1.714413e+001	-8.592500e+001	-1.749357e+001	-8.524245e+001	-1.907439e+001	-6.722817e+001
1778600000.000	-2.435214e+001	4.295137e+001	-1.733867e+001	-1.327426e+002	-1.741149e+001	-1.305280e+002	-1.812975e+001	-1.329356e+002
1783500000.000	-2.540000e+001	1.457433e+001	-1.736968e+001	-1.772434e+002	-1.719478e+001	-1.761967e+002	-1.801275e+001	1.634800e+002
1788400000.000	-2.638004e+001	-1.760925e+001	-1.709320e+001	1.366994e+002	-1.699883e+001	1.366920e+002	-1.887610e+001	9.557689e+001
1793300000.000	-2.695617e+001	-5.269687e+001	-1.711099e+001	8.893965e+001	-1.705615e+001	8.912879e+001	-2.031156e+001	1.988398e+001
1798200000.000	-2.705701e+001	-8.759519e+001	-1.732280e+001	4.302437e+001	-1.724767e+001	4.288516e+001	-2.132230e+001	-5.915875e+001
1803100000.000	-2.695619e+001	-1.176696e+002	-1.732308e+001	-2.341607e+000	-1.733128e+001	-2.524742e+000	-2.184692e+001	-1.320252e+002
1808000000.000	-2.698295e+001	-1.416406e+002	-1.733723e+001	-4.886286e+001	-1.732690e+001	-4.830477e+001	-2.338054e+001	1.617697e+002
1812900000.000	-2.751790e+001	-1.608080e+002	-1.749349e+001	-9.511531e+001	-1.736082e+001	-9.499219e+001	-2.768755e+001	9.133244e+001
1817800000.000	-2.950590e+001	-1.735905e+002	-1.759056e+001	-1.407690e+002	-1.754327e+001	-1.413819e+002	-3.457385e+001	-2.474124e+001
1822700000.000	-3.144348e+001	-1.694360e+002	-1.771264e+001	1.726255e+002	-1.774961e+001	1.725799e+002	-3.014616e+001	-1.398574e+002
1827600000.000	-3.204494e+001	-1.558651e+002	-1.801598e+001	1.263800e+002	-1.793106e+001	1.267568e+002	-2.806057e+001	1.428005e+002
1832500000.000	-3.014364e+001	-1.451839e+002	-1.829187e+001	8.111753e+001	-1.818547e+001	8.051111e+001	-2.746935e+001	5.710516e+001
1837400000.000	-2.782556e+001	-1.484001e+002	-1.856368e+001	3.565901e+001	-1.863460e+001	3.493256e+001	-2.470328e+001	-2.759239e+001
1842300000.000	-2.612813e+001	-1.583700e+002	-1.897019e+001	-9.531425e+000	-1.906194e+001	-9.071315e+000	-2.171075e+001	-9.718500e+001
1847200000.000	-2.490573e+001	-1.724211e+002	-1.941022e+001	-5.294476e+001	-1.934153e+001	-5.231161e+001	-1.992403e+001	-1.597095e+002
1852100000.000	-2.420503e+001	1.721934e+002	-1.959457e+001	-9.528212e+001	-1.950786e+001	-9.540570e+001	-1.901608e+001	1.379143e+002
1857000000.000	-2.390392e+001	1.561023e+002	-1.957063e+001	-1.392609e+002	-1.952707e+001	-1.391801e+002	-1.849731e+001	6.971758e+001
1861900000.000	-2.405457e+001	1.410163e+002	-1.983504e+001	1.761923e+002	-1.969053e+001	1.761566e+002	-1.828645e+001	-5.623947e+000
1866800000.000	-2.459537e+001	1.275109e+002	-2.022296e+001	1.339081e+002	-2.013489e+001	1.326201e+002	-1.856534e+001	-7.710341e+001
1871700000.000	-2.559948e+001	1.164363e+002	-2.011954e+001	9.339400e+001	-2.030222e+001	9.222650e+001	-1.727343e+001	-1.376615e+002
1876600000.000	-2.700747e+001	1.085828e+002	-1.981373e+001	4.998561e+001	-2.002890e+001	5.114919e+001	-1.590585e+001	1.612014e+002
1881500000.000	-2.856629e+001	1.040708e+002	-1.980961e+001	6.353486e+000	-1.956824e+001	7.952203e+000	-1.531277e+001	9.634409e+001
1886400000.000	-3.005365e+001	1.004342e+002	-1.958741e+001	-3.530928e+001	-1.927200e+001	-3.741693e+001	-1.536979e+001	2.493836e+001
1891300000.000	-3.161921e+001	9.284398e+001	-1.899430e+001	-7.935927e+001	-1.927561e+001	-8.232297e+001	-1.509669e+001	-4.817968e+001
1896200000.000	-3.421336e+001	7.533058e+001	-1.874335e+001	-1.258666e+002	-1.926982e+001	-1.248264e+002	-1.427877e+001	-1.154887e+002
1901100000.000	-4.226905e+001	4.076161e+001	-1.877887e+001	-1.704640e+002	-1.875129e+001	-1.672580e+002	-1.364797e+001	-1.787618e+002
1906000000.000	-5.078943e+001	-4.810727e+001	-1.851423e+001	1.471126e+002	-1.811385e+001	1.474473e+002	-1.361485e+001	1.147293e+002
1910900000.000	-3.930183e+001	-9.503716e+001	-1.779445e+001	1.019155e+002	-1.772923e+001	1.000493e+002	-1.409428e+001	4.093729e+001
1915800000.000	-3.293980e+001	-1.147469e+002	-1.747875e+001	5.362175e+001	-1.766918e+001	5.323346e+001	-1.450676e+001	-3.447795e+001
1920700000.000	-2.897091e+001	-1.350037e+002	-1.751298e+001	7.405246e+000	-1.757370e+001	8.170382e+000	-1.469310e+001	-1.050841e+002
1925600000.000	-2.622113e+001	-1.550966e+002	-1.722958e+001	-3.761585e+001	-1.719660e+001	-3.701402e+001	-1.506948e+001	-1.727666e+002
1930500000.000	-2.430418e+001	-1.757287e+002	-1.684492e+001	-8.530272e+001	-1.673455e+001	-8.462327e+001	-1.604147e+001	1.176646e+002
1935400000.000	-2.297023e+001	1.640220e+002	-1.683576e+001	-1.337042e+002	-1.658123e+001	-1.340141e+002	-1.782438e+001	4.481565e+001
1940300000.000	-2.223464e+001	1.430444e+002	-1.689159e+001	1.792613e+002	-1.678575e+001	1.774108e+002	-2.010472e+001	-3.002360e+001
1945200000.000	-2.215463e+001	1.220395e+002	-1.686834e+001	1.317253e+002	-1.702680e+001	1.303666e+002	-2.217747e+001	-1.049133e+002
1950100000.000	-2.274862e+001	1.006738e+002	-1.702532e+001	8.327512e+001	-1.718380e+001	8.336949e+001	-2.433116e+001	-1.760547e+002
1955000000.000	-2.400702e+001	7.951705e+001	-1.744747e+001	3.536870e+001	-1.748650e+001	3.556173e+001	-2.888760e+001	1.099385e+002
1959900000.000	-2.551048e+001	5.810170e+001	-1.793302e+001	-1.058209e+001	-1.801862e+001	-1.054434e+001	-3.646765e+001	-5.058713e+001
1964800000.000	-2.728721e+001	3.141380e+001	-1.830358e+001	-5.593573e+001	-1.835926e+001	-5.507839e+001	-2.647819e+001	-1.586227e+002
1969700000.000	-2.951063e+001	-2.358548e+000	-1.853951e+001	-1.014837e+002	-1.844731e+001	-1.008991e+002	-2.356127e+001	1.358495e+002
1974600000.000	-3.134044e+001	-4.007841e+001	-1.894702e+001	-1.474277e+002	-1.886369e+001	-1.476215e+002	-2.238357e+001	7.297027e+001
1979500000.000	-3.146979e+001	-8.235567e+001	-1.939783e+001	1.670031e+002	-1.940623e+001	1.667079e+002	-2.151109e+001	-5.413561e-001
1984400000.000	-3.019722e+001	-1.227401e+002	-2.013617e+001	1.229021e+002	-2.014458e+001	1.230617e+002	-2.032565e+001	-7.564321e+001
1989300000.000	-2.964157e+001	-1.606400e+002	-2.030736e+001	8.189217e+001	-2.030330e+001	8.206493e+001	-1.865788e+001	-1.418093e+002
1994200000.000	-2.974578e+001	1.779367e+002	-2.033443e+001	3.729419e+001	-2.032760e+001	3.792828e+001	-1.705102e+001	1.544847e+002
1999100000.000	-2.973622e+001	1.638891e+002	-2.068931e+001	-8.005562e+000	-2.047545e+001	-7.023712e+000	-1.610889e+001	8.875851e+001
2004000000.000	-2.982167e+001	1.554599e+002	-2.123024e+001	-5.099572e+001	-2.086352e+001	-5.217591e+001	-1.567530e+001	1.908573e+001
2008900000.000	-2.989486e+001	1.501824e+002	-2.145110e+001	-9.234026e+001	-2.143150e+001	-9.539245e+001	-1.524797e+001	-5.132326e+001
2013800000.000	-3.057793e+001	1.472961e+002	-2.145275e+001	-1.350080e+002	-2.185654e+001	-1.362990e+002	-1.437701e+001	-1.167347e+002
2018700000.000	-3.108390e+001	1.508911e+002	-2.167248e+001	-1.784737e+002	-2.188765e+001	-1.762985e+002	-1.338094e+001	-1.790517e+002
2023600000.000	-3.138223e+001	1.553688e+002	-2.187702e+001	1.408068e+002	-2.149747e+001	1.421024e+002	-1.290011e+001	1.161421e+002
2028500000.000	-3.114586e+001	1.640138e+002	-2.156650e+001	9.971511e+001	-2.125069e+001	9.704710e+001	-1.307831e+001	4.593289e+001
2033400000.000	-3.013663e+001	1.676331e+002	-2.119518e+001	5.562780e+001	-2.146081e+001	5.266864e+001	-1.329141e+001	-2.698507e+001
2038300000.000	-2.903039e+001	1.659445e+002	-2.128864e+001	1.123571e+001	-2.170212e+001	1.161729e+001	-1.306410e+001	-9.537354e+001
2043200000.000	-2.813838e+001	1.614501e+002	-2.122540e+001	-2.997258e+001	-2.129370e+001	-2.810933e+001	-1.249768e+001	-1.594803e+002
2048100000.000	-2.716911e+001	1.547390e+002	-2.066181e+001	-7.182888e+001	-2.048900e+001	-7.102524e+001	-1.214078e+001	1.349585e+002
2053000000.000	-2.609207e+001	1.449889e+002	-1.999898e+001	-1.173709e+002	-1.980789e+001	-1.177244e+002	-1.234291e+001	6.409201e+001
2057900000.000	-2.509203e+001	1.335618e+002	-1.977163e+001	-1.639733e+002	-1.963628e+001	-1.652903e+002	-1.305429e+001	-9.022297e+000
2062800000.000	-2.390510e+001	1.197320e+002	-1.960911e+001	1.511093e+002	-1.967802e+001	1.493086e+002	-1.371604e+001	-7.977460e+001
2067700000.000	-2.312534e+001	1.028701e+002	-1.920775e+001	1.059813e+002	-1.947454e+001	1.054339e+002	-1.406086e+001	-1.472687e+002
2072600000.000	-2.297227e+001	8.437119e+001	-1.879125e+001	5.860752e+001	-1.888165e+001	5.986810e+001	-1.435380e+001	1.458055e+002
2077500000.000	-2.332291e+001	6.857685e+001	-1.873438e+001	1.031308e+001	-1.851691e+001	1.062855e+001	-1.527549e+001	7.663922e+001
2082400000.000	-2.375034e+001	5.137759e+001	-1.877909e+001	-3.690004e+001	-1.867615e+001	-3.852880e+001	-1.723049e+001	5.192395e+000
2087300000.000	-2.454601e+001	3.203114e+001	-1.886236e+001	-8.451237e+001	-1.901522e+001	-8.567996e+001	-1.953063e+001	-6.788632e+001
2092200000.000	-2.568442e+001	8.164257e+000	-1.916896e+001	-1.321647e+002	-1.929341e+001	-1.319528e+002	-2.169987e+001	-1.398417e+002
2097100000.000	-2.721433e+001	-1.920635e+001	-1.960681e+001	-1.783232e+002	-1.958501e+001	-1.780657e+002	-2.511443e+001	1.529111e+002
2102000000.000	-2.880360e+001	-4.935191e+001	-1.999242e+001	1.365226e+002	-1.999394e+001	1.362055e+002	-3.409447e+001	9.012299e+001
2106900000.000	-2.959408e+001	-8.216963e+001	-2.031587e+001	9.225329e+001	-2.035657e+001	9.214964e+001	-3.733494e+001	-1.491027e+002
2111800000.000	-2.992508e+001	-1.148928e+002	-2.049277e+001	4.770252e+001	-2.050577e+001	4.801069e+001	-2.966164e+001	1.521121e+002
2116700000.000	-2.990074e+001	-1.451189e+002	-2.070534e+001	2.475086e+000	-2.064125e+001	2.774699e+000	-2.747169e+001	8.859963e+001
2121600000.000	-2.937080e+001	-1.703932e+002	-2.109579e+001	-4.153791e+001	-2.097859e+001	-4.171518e+001	-2.487670e+001	1.497113e+001
2126500000.000	-2.909498e+001	1.611246e+002	-2.105950e+001	-8.549539e+001	-2.100937e+001	-8.632053e+001	-2.244555e+001	-5.928890e+001
2131400000.000	-3.003135e+001	1.395010e+002	-2.121861e+001	-1.313020e+002	-2.128994e+001	-1.319048e+002	-2.041819e+001	-1.214571e+002
2136300000.000	-3.146742e+001	1.262337e+002	-2.157228e+001	-1.768457e+002	-2.161874e+001	-1.762347e+002	-1.872866e+001	1.793309e+002
2141200000.000	-3.261487e+001	1.187610e+002	-2.197839e+001	1.387403e+002	-2.180669e+001	1.394547e+002	-1.765211e+001	1.177181e+002
2146100000.000	-3.652685e+001	1.051489e+002	-2.239560e+001	9.433812e+001	-2.211023e+001	9.322537e+001	-1.716043e+001	5.088648e+001
2151000000.000	-4.229972e+001	1.662516e+002	-2.286294e+001	5.113038e+001	-2.283465e+001	4.842795e+001	-1.686363e+001	-2.043685e+001
2155900000.000	-3.470325e+001	-1.623398e+002	-2.331093e+001	7.931559e+000	-2.362361e+001	6.368962e+000	-1.610966e+001	-9.025264e+001
2160800000.000	-2.981148e+001	-1.660880e+002	-2.384966e+001	-3.399921e+001	-2.409619e+001	-3.319679e+001	-1.499329e+001	-1.546206e+002
2165700000.000	-2.677199e+001	-1.787036e+002	-2.429357e+001	-7.426751e+001	-2.420961e+001	-7.304445e+001	-1.406393e+001	1.430545e+002
2170600000.000	-2.505054e+001	1.668642e+002	-2.442736e+001	-1.133779e+002	-2.422853e+001	-1.139753e+002	-1.371070e+001	7.732764e+001
2175500000.000	-2.392604e+001	1.518751e+002	-2.433791e+001	-1.529376e+002	-2.430367e+001	-1.546966e+002	-1.386066e+001	6.848873e+000
2180400000.000	-2.318841e+001	1.362970e+002	-2.411581e+001	1.667623e+002	-2.429821e+001	1.656015e+002	-1.392244e+001	-6.289472e+001
2185300000.000	-2.275657e+001	1.203208e+002	-2.373840e+001	1.268870e+002	-2.398539e+001	1.269972e+002	-1.356666e+001	-1.279931e+002
2190200000.000	-2.254433e+001	1.044048e+002	-2.304910e+001	8.572052e+001	-2.316116e+001	8.707795e+001	-1.296575e+001	1.690595e+002
2195100000.000	-2.258100e+001	9.001770e+001	-2.236626e+001	4.224383e+001	-2.217981e+001	4.334409e+001	-1.233565e+001	1.035142e+002
2200000000.000	-2.259687e+001	7.675753e+001	-2.184261e+001	-1.984480e+000	-2.156090e+001	-3.026635e+000	-1.226779e+001	3.473471e+001
2204900000.000	-2.275805e+001	6.324710e+001	-2.128876e+001	-4.610167e+001	-2.133421e+001	-4.866031e+001	-1.283614e+001	-3.268584e+001
2209800000.000	-2.318628e+001	5.035707e+001	-2.070148e+001	-9.130577e+001	-2.106865e+001	-9.231393e+001	-1.344301e+001	-9.808825e+001
2214700000.000	-2.377623e+001	3.663831e+001	-2.019763e+001	-1.375695e+002	-2.045961e+001	-1.360360e+002	-1.368477e+001	-1.631651e+002
2219600000.000	-2.472776e+001	2.180189e+001	-1.983785e+001	1.757189e+002	-1.971036e+001	1.775017e+002	-1.366928e+001	1.308529e+002
2224500000.000	-2.601710e+001	6.162256e+000	-1.958409e+001	1.289378e+002	-1.930565e+001	1.285072e+002	-1.395988e+001	6.408678e+001
2229400000.000	-2.726002e+001	-9.401386e+000	-1.950505e+001	8.259889e+001	-1.945587e+001	8.055685e+001	-1.465414e+001	-1.987685e+000
2234300000.000	-2.750981e+001	-2.938576e+001	-1.925428e+001	3.816721e+001	-1.951727e+001	3.669681e+001	-1.509042e+001	-6.696646e+001
2239200000.000	-2.765792e+001	-6.270343e+001	-1.868579e+001	-8.350474e+000	-1.901035e+001	-7.814477e+000	-1.541826e+001	-1.317871e+002
2244100000.000	-2.842929e+001	-1.012841e+002	-1.831501e+001	-5.694882e+001	-1.840178e+001	-5.512946e+001	-1.620867e+001	1.646101e+002
2249000000.000	-2.924355e+001	-1.408694e+002	-1.816117e+001	-1.062068e+002	-1.799442e+001	-1.050774e+002	-1.787590e+001	9.955219e+001
2253900000.000	-2.969439e+001	-1.785754e+002	-1.821842e+001	-1.553933e+002	-1.803763e+001	-1.557485e+002	-2.050881e+001	3.243270e+001
2258800000.000	-2.974754e+001	1.465316e+002	-1.841986e+001	1.557469e+002	-1.838252e+001	1.548211e+002	-2.341012e+001	-3.394916e+001
2263700000.000	-2.976230e+001	1.141397e+002	-1.874586e+001	1.073042e+002	-1.880071e+001	1.067435e+002	-2.605461e+001	-9.113940e+001
2268600000.000	-3.081627e+001	8.247518e+001	-1.914185e+001	5.931492e+001	-1.918953e+001	5.917309e+001	-2.785847e+001	-1.308117e+002
2273500000.000	-3.432957e+001	5.336305e+001	-1.964804e+001	1.131559e+001	-1.966561e+001	1.140664e+001	-2.695451e+001	-1.601858e+002
2278400000.000	-4.320174e+001	2.987480e+001	-2.031993e+001	-3.600572e+001	-2.026749e+001	-3.583506e+001	-2.439150e+001	1.600458e+002
2283300000.000	-4.567114e+001	-1.655819e+002	-2.109800e+001	-8.242879e+001	-2.097029e+001	-8.267746e+001	-2.214621e+001	1.088528e+002
2288200000.000	-3.623182e+001	1.767673e+002	-2.197472e+001	-1.279222e+002	-2.186523e+001	-1.290274e+002	-2.064436e+001	4.892163e+001
2293100000.000	-3.265992e+001	1.656282e+002	-2.295060e+001	-1.719705e+002	-2.297938e+001	-1.736709e+002	-1.956481e+001	-1.611323e+001
2298000000.000	-3.058675e+001	1.563498e+002	-2.400768e+001	1.459328e+002	-2.421320e+001	1.448207e+002	-1.842660e+001	-8.135583e+001
2302900000.000	-2.887603e+001	1.498254e+002	-2.495968e+001	1.072771e+002	-2.519133e+001	1.076138e+002	-1.717218e+001	-1.438440e+002
2307800000.000	-2.635128e+001	1.401810e+002	-2.523792e+001	7.048642e+001	-2.527695e+001	7.170683e+001	-1.608500e+001	1.534285e+002
2312700000.000	-2.429196e+001	1.216767e+002	-2.509162e+001	3.080729e+001	-2.491007e+001	3.126367e+001	-1.541099e+001	8.747068e+001
2317600000.000	-2.306687e+001	1.020369e+002	-2.508418e+001	-1.012934e+001	-2.493382e+001	-1.164524e+001	-1.511313e+001	1.921939e+001
2322500000.000	-2.230808e+001	8.339110e+001	-2.508525e+001	-5.073755e+001	-2.523551e+001	-5.276660e+001	-1.509429e+001	-4.735601e+001
2327400000.000	-2.196707e+001	6.578687e+001	-2.499546e+001	-9.115306e+001	-2.536359e+001	-9.148448e+001	-1.503495e+001	-1.108262e+002
2332300000.000	-2.206785e+001	4.968468e+001	-2.480183e+001	-1.314133e+002	-2.501085e+001	-1.295893e+002	-1.467074e+001	-1.738741e+002
2337200000.000	-2.253186e+001	3.536832e+001	-2.446450e+001	-1.716725e+002	-2.432684e+001	-1.697217e+002	-1.395883e+001	1.214674e+002
2342100000.000	-2.315107e+001	2.262746e+001	-2.390142e+001	1.478919e+002	-2.357845e+001	1.478454e+002	-1.336270e+001	5.515084e+001
2347000000.000	-2.367437e+001	7.653474e+000	-2.314549e+001	1.053804e+002	-2.300463e+001	1.034171e+002	-1.335570e+001	-1.168355e+001
2351900000.000	-2.458146e+001	-1.205134e+001	-2.252932e+001	6.162814e+001	-2.271779e+001	5.984853e+001	-1.365255e+001	-7.681189e+001
2356800000.000	-2.585918e+001	-3.532548e+001	-2.190152e+001	1.768250e+001	-2.223272e+001	1.785285e+001	-1.351139e+001	-1.400598e+002
2361700000.000	-2.697574e+001	-6.119552e+001	-2.124643e+001	-2.728519e+001	-2.137552e+001	-2.523871e+001	-1.298443e+001	1.568929e+002
2366600000.000	-2.745838e+001	-8.911200e+001	-2.069823e+001	-7.292651e+001	-2.044608e+001	-7.146578e+001	-1.263370e+001	9.103993e+001
2371500000.000	-2.745534e+001	-1.169271e+002	-2.015427e+001	-1.188368e+002	-1.982772e+001	-1.201658e+002	-1.286385e+001	2.191653e+001
2376400000.000	-2.727655e+001	-1.430313e+002	-1.962680e+001	-1.656134e+002	-1.970619e+001	-1.683060e+002	-1.328947e+001	-4.629900e+001
2381300000.000	-2.721081e+001	-1.680257e+002	-1.920544e+001	1.468506e+002	-1.960180e+001	1.463016e+002	-1.349157e+001	-1.095665e+002
2386200000.000	-2.699240e+001	1.674462e+002	-1.893911e+001	9.922682e+001	-1.915353e+001	1.013849e+002	-1.357584e+001	-1.701755e+002
2391100000.000	-2.634918e+001	1.417890e+002	-1.867642e+001	5.242927e+001	-1.843826e+001	5.433972e+001	-1.382676e+001	1.261836e+002
2396000000.000	-2.546411e+001	1.135557e+002	-1.822886e+001	4.620367e+000	-1.790906e+001	3.686832e+000	-1.437523e+001	5.636851e+001
2400900000.000	-2.483401e+001	8.463335e+001	-1.795756e+001	-4.524971e+001	-1.798140e+001	-4.728628e+001	-1.531633e+001	-1.394577e+001
2405800000.000	-2.500608e+001	5.576722e+001	-1.800617e+001	-9.530171e+001	-1.823833e+001	-9.591817e+001	-1.655973e+001	-7.803590e+001
2410700000.000	-2.634302e+001	2.825469e+001	-1.822141e+001	-1.445313e+002	-1.836607e+001	-1.438148e+002	-1.797397e+001	-1.377399e+002
2415600000.000	-2.910167e+001	-1.548986e-002	-1.850933e+001	1.666348e+002	-1.850045e+001	1.674183e+002	-1.946050e+001	1.640152e+002
2420500000.000	-3.398223e+001	-3.600778e+001	-1.893201e+001	1.178627e+002	-1.883750e+001	1.181677e+002	-2.073436e+001	1.083206e+002
2425400000.000	-3.973965e+001	-1.148197e+002	-1.952894e+001	6.979937e+001	-1.940837e+001	6.949880e+001	-2.165126e+001	5.756796e+001
2430300000.000	-3.529501e+001	1.679192e+002	-2.017520e+001	2.296437e+001	-2.010072e+001	2.208210e+001	-2.210716e+001	1.063375e+001
2435200000.000	-3.142667e+001	1.318014e+002	-2.080344e+001	-2.299285e+001	-2.082655e+001	-2.427507e+001	-2.201810e+001	-3.853135e+001
