!Agilent Technologies,E5061B,MY49305579,A.02.22
!Date: Thu Aug 24 16:25:29 2017
!Data & Calibration Information:
!Freq	S11:SOLT2(ON)	S21:SOLT2(ON)	S12:SOLT2(ON)	S22:SOLT2(ON)
# Hz S dB R 50
1710000000.000	-3.912680e+001	-1.343143e+002	-1.575140e+001	1.378517e+002	-1.593404e+001	1.388075e+002	-1.883196e+001	-8.150949e+001
1714900000.000	-3.259911e+001	-1.144848e+002	-1.609856e+001	9.299702e+001	-1.593785e+001	9.402583e+001	-1.966399e+001	-1.643024e+002
1719800000.000	-2.846073e+001	-1.210381e+002	-1.596891e+001	4.887849e+001	-1.584030e+001	4.833560e+001	-2.098900e+001	1.107208e+002
1724700000.000	-2.562547e+001	-1.340921e+002	-1.593608e+001	2.227563e+000	-1.591849e+001	2.188273e+000	-2.168359e+001	1.031949e+001
1729600000.000	-2.371547e+001	-1.492279e+002	-1.620075e+001	-4.233400e+001	-1.608921e+001	-4.254036e+001	-1.911559e+001	-8.426881e+001
1734500000.000	-2.241416e+001	-1.639501e+002	-1.600454e+001	-8.542926e+001	-1.604404e+001	-8.617502e+001	-1.627355e+001	-1.571418e+002
1739400000.000	-2.152485e+001	-1.784803e+002	-1.563784e+001	-1.317256e+002	-1.571342e+001	-1.306392e+002	-1.448295e+001	1.361610e+002
1744300000.000	-2.096703e+001	1.667763e+002	-1.580136e+001	-1.787677e+002	-1.538805e+001	-1.778047e+002	-1.372347e+001	6.456826e+001
1749200000.000	-2.078694e+001	1.516084e+002	-1.586569e+001	1.381216e+002	-1.551466e+001	1.343606e+002	-1.324460e+001	-1.176624e+001
1754100000.000	-2.092490e+001	1.353628e+002	-1.527014e+001	9.314265e+001	-1.581526e+001	8.910508e+001	-1.221597e+001	-8.457768e+001
1759000000.000	-2.143332e+001	1.180535e+002	-1.508118e+001	4.315745e+001	-1.581660e+001	4.567657e+001	-1.100108e+001	-1.511715e+002
1763900000.000	-2.216813e+001	9.919889e+001	-1.569449e+001	-3.493410e+000	-1.541635e+001	1.002507e+000	-9.989338e+000	1.426970e+002
1768800000.000	-2.317582e+001	7.795947e+001	-1.563805e+001	-4.540092e+001	-1.506024e+001	-4.749125e+001	-9.404152e+000	7.029486e+001
1773700000.000	-2.447326e+001	5.507600e+001	-1.497864e+001	-9.311942e+001	-1.536319e+001	-9.676966e+001	-9.288417e+000	-5.519115e+000
1778600000.000	-2.587660e+001	2.977098e+001	-1.539349e+001	-1.444439e+002	-1.597211e+001	-1.423262e+002	-9.162268e+000	-7.685785e+001
1783500000.000	-2.722445e+001	1.765502e+000	-1.634281e+001	1.717222e+002	-1.620197e+001	1.750749e+002	-8.742788e+000	-1.433307e+002
1788400000.000	-2.824093e+001	-3.027038e+001	-1.619357e+001	1.310479e+002	-1.591781e+001	1.311890e+002	-8.161656e+000	1.490673e+002
1793300000.000	-2.864551e+001	-6.467371e+001	-1.574338e+001	8.307658e+001	-1.569346e+001	8.333155e+001	-8.011560e+000	7.553812e+001
1798200000.000	-2.841552e+001	-9.782672e+001	-1.645310e+001	3.510547e+001	-1.615824e+001	3.516459e+001	-8.729739e+000	-5.937738e-001
1803100000.000	-2.801843e+001	-1.247895e+002	-1.692442e+001	-5.693142e+000	-1.683939e+001	-8.420703e+000	-9.630941e+000	-7.272047e+001
1808000000.000	-2.769679e+001	-1.466467e+002	-1.650974e+001	-4.842991e+001	-1.697595e+001	-4.918970e+001	-1.016776e+001	-1.404781e+002
1812900000.000	-2.805293e+001	-1.650390e+002	-1.641646e+001	-9.553714e+001	-1.653213e+001	-9.198297e+001	-1.072970e+001	1.519601e+002
1817800000.000	-2.993273e+001	-1.780803e+002	-1.671731e+001	-1.399478e+002	-1.612932e+001	-1.388582e+002	-1.203636e+001	8.040619e+001
1822700000.000	-3.208658e+001	-1.761329e+002	-1.657605e+001	1.771733e+002	-1.634635e+001	1.738931e+002	-1.419176e+001	4.897338e+000
1827600000.000	-3.366064e+001	-1.618276e+002	-1.628710e+001	1.310105e+002	-1.661912e+001	1.295843e+002	-1.635290e+001	-6.931290e+001
1832500000.000	-3.235186e+001	-1.430819e+002	-1.645802e+001	8.456560e+001	-1.659293e+001	8.597414e+001	-1.872802e+001	-1.391534e+002
1837400000.000	-2.951882e+001	-1.391467e+002	-1.654581e+001	4.049058e+001	-1.640433e+001	4.098085e+001	-2.300049e+001	1.529216e+002
1842300000.000	-2.701613e+001	-1.460953e+002	-1.643455e+001	-4.732959e+000	-1.639259e+001	-5.160197e+000	-3.316986e+001	6.073314e+001
1847200000.000	-2.513599e+001	-1.595961e+002	-1.654629e+001	-5.054397e+001	-1.653510e+001	-5.035952e+001	-2.896396e+001	-1.175072e+002
1852100000.000	-2.381461e+001	-1.752963e+002	-1.662159e+001	-9.439525e+001	-1.655489e+001	-9.439848e+001	-2.280673e+001	1.653940e+002
1857000000.000	-2.297044e+001	1.668611e+002	-1.642857e+001	-1.394464e+002	-1.638868e+001	-1.394638e+002	-1.991529e+001	9.238685e+001
1861900000.000	-2.276889e+001	1.496599e+002	-1.653895e+001	1.742304e+002	-1.639644e+001	1.742958e+002	-1.791219e+001	1.651461e+001
1866800000.000	-2.288301e+001	1.349529e+002	-1.671099e+001	1.309607e+002	-1.654836e+001	1.293170e+002	-1.595557e+001	-5.859093e+001
1871700000.000	-2.321057e+001	1.201041e+002	-1.631324e+001	8.729788e+001	-1.657247e+001	8.525286e+001	-1.402780e+001	-1.281588e+002
1876600000.000	-2.412114e+001	1.050166e+002	-1.594858e+001	3.943198e+001	-1.632760e+001	4.108658e+001	-1.237408e+001	1.662493e+002
1881500000.000	-2.563452e+001	9.040860e+001	-1.629355e+001	-8.416406e+000	-1.595442e+001	-5.594936e+000	-1.127690e+001	9.819238e+001
1886400000.000	-2.776303e+001	7.456794e+001	-1.647182e+001	-5.154558e+001	-1.593843e+001	-5.452689e+001	-1.085334e+001	2.472371e+001
1891300000.000	-3.057668e+001	5.440956e+001	-1.599821e+001	-9.760857e+001	-1.643574e+001	-1.021427e+002	-1.062326e+001	-4.895681e+001
1896200000.000	-3.385996e+001	2.046695e+001	-1.615124e+001	-1.479566e+002	-1.695444e+001	-1.459469e+002	-1.014508e+001	-1.165798e+002
1901100000.000	-3.501551e+001	-4.568946e+001	-1.694015e+001	1.663551e+002	-1.681322e+001	1.715630e+002	-9.583134e+000	1.792704e+002
1906000000.000	-3.327814e+001	-9.850218e+001	-1.715560e+001	1.239438e+002	-1.647130e+001	1.239762e+002	-9.221553e+000	1.114672e+002
1910900000.000	-3.088595e+001	-1.244976e+002	-1.689075e+001	7.778028e+001	-1.679521e+001	7.435650e+001	-9.518730e+000	3.751654e+001
1915800000.000	-2.882921e+001	-1.426327e+002	-1.742368e+001	2.886455e+001	-1.774090e+001	2.796850e+001	-1.019933e+001	-3.484156e+001
1920700000.000	-2.717565e+001	-1.591206e+002	-1.839833e+001	-1.416955e+001	-1.851317e+001	-1.324738e+001	-1.060132e+001	-1.009859e+002
1925600000.000	-2.576822e+001	-1.748777e+002	-1.858924e+001	-5.384771e+001	-1.859869e+001	-5.324846e+001	-1.065794e+001	-1.644781e+002
1930500000.000	-2.459496e+001	1.685142e+002	-1.830881e+001	-9.726342e+001	-1.825111e+001	-9.607621e+001	-1.066821e+001	1.291598e+002
1935400000.000	-2.379742e+001	1.516764e+002	-1.843013e+001	-1.424452e+002	-1.806523e+001	-1.420958e+002	-1.119959e+001	5.876536e+001
1940300000.000	-2.342832e+001	1.340659e+002	-1.867347e+001	1.745501e+002	-1.840247e+001	1.717947e+002	-1.235549e+001	-1.246358e+001
1945200000.000	-2.355418e+001	1.159752e+002	-1.854006e+001	1.318596e+002	-1.881485e+001	1.290521e+002	-1.358607e+001	-8.056194e+001
1950100000.000	-2.432899e+001	9.756130e+001	-1.841560e+001	8.698286e+001	-1.884398e+001	8.760122e+001	-1.447276e+001	-1.454709e+002
1955000000.000	-2.571439e+001	7.941846e+001	-1.854665e+001	4.251650e+001	-1.855709e+001	4.458301e+001	-1.554336e+001	1.516928e+002
1959900000.000	-2.723516e+001	6.116894e+001	-1.860715e+001	-5.871062e-001	-1.839803e+001	-3.530281e-001	-1.748342e+001	8.808429e+001
1964800000.000	-2.892738e+001	3.643900e+001	-1.838381e+001	-4.428696e+001	-1.835583e+001	-4.520416e+001	-2.089379e+001	2.083514e+001
1969700000.000	-3.131983e+001	4.224903e+000	-1.834589e+001	-8.981988e+001	-1.843113e+001	-8.993807e+001	-2.491418e+001	-5.224617e+001
1974600000.000	-3.315874e+001	-3.265189e+001	-1.844942e+001	-1.337139e+002	-1.847767e+001	-1.333591e+002	-2.905633e+001	-1.262452e+002
1979500000.000	-3.307223e+001	-7.694308e+001	-1.838159e+001	-1.776040e+002	-1.837391e+001	-1.774009e+002	-3.582478e+001	-1.703835e+002
1984400000.000	-3.128655e+001	-1.178479e+002	-1.840649e+001	1.384355e+002	-1.838136e+001	1.386882e+002	-3.336400e+001	-1.253449e+002
1989300000.000	-3.026209e+001	-1.563708e+002	-1.819116e+001	9.572230e+001	-1.815780e+001	9.596759e+001	-2.505379e+001	-1.679927e+002
1994200000.000	-2.983529e+001	-1.772259e+002	-1.782157e+001	5.091712e+001	-1.776245e+001	5.136484e+001	-2.117192e+001	1.341336e+002
1999100000.000	-2.916838e+001	1.677727e+002	-1.763649e+001	5.054015e+000	-1.741763e+001	5.304617e+000	-1.893456e+001	6.924522e+001
2004000000.000	-2.887693e+001	1.553641e+002	-1.756688e+001	-4.005066e+001	-1.730497e+001	-4.165908e+001	-1.752604e+001	-2.023096e+000
2008900000.000	-2.908489e+001	1.454949e+002	-1.731259e+001	-8.492930e+001	-1.741221e+001	-8.772965e+001	-1.610692e+001	-7.286623e+001
2013800000.000	-3.022023e+001	1.389187e+002	-1.706587e+001	-1.319747e+002	-1.745608e+001	-1.322427e+002	-1.469531e+001	-1.384199e+002
2018700000.000	-3.171247e+001	1.412876e+002	-1.721973e+001	-1.791700e+002	-1.724527e+001	-1.768072e+002	-1.359801e+001	1.585355e+002
2023600000.000	-3.331687e+001	1.503079e+002	-1.734395e+001	1.366169e+002	-1.687944e+001	1.366657e+002	-1.308140e+001	9.151137e+001
2028500000.000	-3.280047e+001	1.720735e+002	-1.701435e+001	9.077570e+001	-1.687855e+001	8.716626e+001	-1.317022e+001	1.725705e+001
2033400000.000	-3.047214e+001	1.781143e+002	-1.703977e+001	4.221082e+001	-1.746058e+001	4.010575e+001	-1.329846e+001	-5.596746e+001
2038300000.000	-2.868415e+001	1.749914e+002	-1.753473e+001	-4.602078e+000	-1.786317e+001	-3.262920e+000	-1.298567e+001	-1.227364e+002
2043200000.000	-2.733009e+001	1.683973e+002	-1.785748e+001	-4.836067e+001	-1.779144e+001	-4.675323e+001	-1.267329e+001	1.735290e+002
2048100000.000	-2.609892e+001	1.585182e+002	-1.779721e+001	-9.269685e+001	-1.759923e+001	-9.267755e+001	-1.278395e+001	1.075840e+002
2053000000.000	-2.507480e+001	1.460861e+002	-1.785496e+001	-1.393398e+002	-1.771846e+001	-1.401261e+002	-1.345466e+001	3.742722e+001
2057900000.000	-2.412868e+001	1.327680e+002	-1.822195e+001	1.753326e+002	-1.814828e+001	1.739535e+002	-1.426403e+001	-3.203299e+001
2062800000.000	-2.317194e+001	1.170966e+002	-1.836778e+001	1.314623e+002	-1.848260e+001	1.299293e+002	-1.474055e+001	-9.880524e+001
2067700000.000	-2.258975e+001	9.956658e+001	-1.834833e+001	8.684626e+001	-1.858374e+001	8.654971e+001	-1.488790e+001	-1.619733e+002
2072600000.000	-2.261623e+001	8.017346e+001	-1.840730e+001	4.040451e+001	-1.845088e+001	4.157164e+001	-1.501407e+001	1.346292e+002
2077500000.000	-2.328243e+001	6.402070e+001	-1.877764e+001	-5.149679e+000	-1.856166e+001	-5.022677e+000	-1.576001e+001	6.974998e+001
2082400000.000	-2.389812e+001	4.737124e+001	-1.902965e+001	-4.924953e+001	-1.892706e+001	-5.092247e+001	-1.712136e+001	3.689362e+000
2087300000.000	-2.481005e+001	2.843975e+001	-1.919098e+001	-9.375568e+001	-1.934538e+001	-9.520680e+001	-1.845367e+001	-6.321137e+001
2092200000.000	-2.593132e+001	5.029072e+000	-1.942374e+001	-1.384747e+002	-1.959866e+001	-1.383468e+002	-1.924768e+001	-1.273609e+002
2097100000.000	-2.735685e+001	-2.297846e+001	-1.969573e+001	1.774319e+002	-1.970001e+001	1.780804e+002	-2.003553e+001	1.714861e+002
2102000000.000	-2.877824e+001	-5.441603e+001	-1.984835e+001	1.339205e+002	-1.978072e+001	1.338538e+002	-2.193671e+001	1.116106e+002
2106900000.000	-2.951494e+001	-8.875015e+001	-1.998623e+001	8.959819e+001	-1.997010e+001	8.912764e+001	-2.549831e+001	4.766443e+001
2111800000.000	-2.995458e+001	-1.221282e+002	-2.025572e+001	4.545926e+001	-2.028376e+001	4.525655e+001	-3.036485e+001	-2.247803e+001
2116700000.000	-3.013664e+001	-1.512692e+002	-2.055108e+001	2.499858e+000	-2.054585e+001	2.572327e+000	-3.543215e+001	-7.721226e+001
2121600000.000	-2.977758e+001	-1.741190e+002	-2.068323e+001	-3.889995e+001	-2.064216e+001	-3.896830e+001	-3.401603e+001	-7.736683e+001
2126500000.000	-2.937510e+001	1.603001e+002	-2.042498e+001	-8.146695e+001	-2.040489e+001	-8.179818e+001	-2.817513e+001	-1.145159e+002
2131400000.000	-3.002417e+001	1.392156e+002	-2.031709e+001	-1.253961e+002	-2.031837e+001	-1.255502e+002	-2.508976e+001	-1.628074e+002
2136300000.000	-3.119967e+001	1.251950e+002	-2.023666e+001	-1.691195e+002	-2.017815e+001	-1.689364e+002	-2.324723e+001	1.441076e+002
2141200000.000	-3.218483e+001	1.163030e+002	-2.012018e+001	1.476907e+002	-1.995249e+001	1.472735e+002	-2.233272e+001	8.199342e+001
2146100000.000	-3.530067e+001	9.595932e+001	-1.978190e+001	1.031184e+002	-1.966486e+001	1.016515e+002	-2.213224e+001	1.157953e+001
2151000000.000	-4.938862e+001	1.365933e+002	-1.964037e+001	5.773251e+001	-1.973403e+001	5.600963e+001	-2.121852e+001	-6.119059e+001
2155900000.000	-3.598787e+001	-1.447061e+002	-1.959018e+001	1.204382e+001	-1.978481e+001	1.160458e+001	-1.955631e+001	-1.279749e+002
2160800000.000	-2.966359e+001	-1.551403e+002	-1.965477e+001	-3.281485e+001	-1.970503e+001	-3.230026e+001	-1.812303e+001	1.713295e+002
2165700000.000	-2.626575e+001	-1.714753e+002	-1.960847e+001	-7.720114e+001	-1.949820e+001	-7.730211e+001	-1.742005e+001	1.096850e+002
2170600000.000	-2.437423e+001	1.718336e+002	-1.951077e+001	-1.222460e+002	-1.944613e+001	-1.234766e+002	-1.748515e+001	4.200399e+001
2175500000.000	-2.315266e+001	1.553035e+002	-1.947696e+001	-1.679659e+002	-1.958258e+001	-1.692903e+002	-1.761757e+001	-3.078977e+001
2180400000.000	-2.236443e+001	1.382167e+002	-1.958175e+001	1.468260e+002	-1.976461e+001	1.463993e+002	-1.716708e+001	-9.953313e+001
2185300000.000	-2.188606e+001	1.208659e+002	-1.957353e+001	1.022049e+002	-1.970115e+001	1.027078e+002	-1.644240e+001	-1.642243e+002
2190200000.000	-2.166952e+001	1.032750e+002	-1.948951e+001	5.676029e+001	-1.945623e+001	5.740787e+001	-1.611628e+001	1.314262e+002
2195100000.000	-2.176470e+001	8.693258e+001	-1.956812e+001	1.026887e+001	-1.942056e+001	9.971000e+000	-1.621115e+001	6.463758e+001
2200000000.000	-2.196486e+001	7.162405e+001	-1.982851e+001	-3.552525e+001	-1.978736e+001	-3.697637e+001	-1.691569e+001	-2.783127e+000
2204900000.000	-2.245536e+001	5.655309e+001	-2.011701e+001	-8.018849e+001	-2.029623e+001	-8.138622e+001	-1.793025e+001	-6.872413e+001
2209800000.000	-2.325619e+001	4.264873e+001	-2.032823e+001	-1.245068e+002	-2.053904e+001	-1.242451e+002	-1.884740e+001	-1.344677e+002
2214700000.000	-2.431871e+001	2.861184e+001	-2.054014e+001	-1.686475e+002	-2.056292e+001	-1.676274e+002	-1.940781e+001	1.606504e+002
2219600000.000	-2.586121e+001	1.462249e+001	-2.074053e+001	1.476300e+002	-2.060643e+001	1.479374e+002	-1.985036e+001	9.650392e+001
2224500000.000	-2.764282e+001	1.342988e+000	-2.089092e+001	1.043906e+002	-2.080135e+001	1.034318e+002	-2.078497e+001	3.340805e+001
2229400000.000	-2.914312e+001	-1.205745e+001	-2.087538e+001	6.178072e+001	-2.095584e+001	6.047799e+001	-2.164155e+001	-2.967064e+001
2234300000.000	-2.997172e+001	-3.162985e+001	-2.061697e+001	1.732618e+001	-2.081342e+001	1.685374e+001	-2.229067e+001	-9.563908e+001
2239200000.000	-3.106859e+001	-6.230017e+001	-2.068350e+001	-2.875507e+001	-2.083658e+001	-2.834594e+001	-2.391164e+001	-1.561363e+002
2244100000.000	-3.264736e+001	-9.659595e+001	-2.094365e+001	-7.344559e+001	-2.099943e+001	-7.282065e+001	-2.664712e+001	1.551185e+002
2249000000.000	-3.397210e+001	-1.316878e+002	-2.117648e+001	-1.171287e+002	-2.115506e+001	-1.165626e+002	-3.014871e+001	1.183058e+002
2253900000.000	-3.427798e+001	-1.652374e+002	-2.126757e+001	-1.601648e+002	-2.120528e+001	-1.598432e+002	-3.243800e+001	8.759005e+001
2258800000.000	-3.374196e+001	1.624072e+002	-2.126651e+001	1.565197e+002	-2.115995e+001	1.564193e+002	-3.219262e+001	4.216727e+001
2263700000.000	-3.324694e+001	1.328534e+002	-2.122409e+001	1.129142e+002	-2.116407e+001	1.122671e+002	-2.985850e+001	-1.891841e+001
2268600000.000	-3.385962e+001	1.090502e+002	-2.110586e+001	6.901081e+001	-2.113006e+001	6.833482e+001	-2.680296e+001	-8.268984e+001
2273500000.000	-3.616826e+001	9.921205e+001	-2.104090e+001	2.375831e+001	-2.109269e+001	2.355349e+001	-2.451808e+001	-1.419018e+002
2278400000.000	-3.736740e+001	1.075719e+002	-2.123929e+001	-2.100959e+001	-2.121817e+001	-2.091394e+001	-2.277682e+001	1.624994e+002
2283300000.000	-3.757096e+001	1.164548e+002	-2.136322e+001	-6.417639e+001	-2.125430e+001	-6.454440e+001	-2.141691e+001	1.041231e+002
2288200000.000	-3.772293e+001	1.262711e+002	-2.134925e+001	-1.077802e+002	-2.126168e+001	-1.090079e+002	-2.063471e+001	4.052450e+001
2293100000.000	-3.723015e+001	1.447120e+002	-2.137727e+001	-1.515376e+002	-2.143630e+001	-1.532342e+002	-1.998360e+001	-2.657935e+001
2298000000.000	-3.453965e+001	1.588772e+002	-2.140444e+001	1.653366e+002	-2.160541e+001	1.644600e+002	-1.909321e+001	-9.343148e+001
2302900000.000	-3.103341e+001	1.629492e+002	-2.119840e+001	1.223950e+002	-2.138524e+001	1.228083e+002	-1.817140e+001	-1.571828e+002
2307800000.000	-2.700001e+001	1.520729e+002	-2.090263e+001	7.759419e+001	-2.089669e+001	7.858078e+001	-1.752327e+001	1.392326e+002
2312700000.000	-2.444960e+001	1.311961e+002	-2.084223e+001	3.232816e+001	-2.065577e+001	3.219940e+001	-1.718091e+001	7.258117e+001
2317600000.000	-2.286889e+001	1.105375e+002	-2.080387e+001	-1.267892e+001	-2.071826e+001	-1.437219e+001	-1.708933e+001	3.630159e+000
2322500000.000	-2.180385e+001	9.039077e+001	-2.081785e+001	-5.752724e+001	-2.099901e+001	-5.921359e+001	-1.710516e+001	-6.316265e+001
2327400000.000	-2.117917e+001	7.109300e+001	-2.082095e+001	-1.021745e+002	-2.113947e+001	-1.021566e+002	-1.705105e+001	-1.278803e+002
2332300000.000	-2.108220e+001	5.287626e+001	-2.082491e+001	-1.469587e+002	-2.096528e+001	-1.453753e+002	-1.678677e+001	1.667759e+002
2337200000.000	-2.140437e+001	3.571389e+001	-2.088668e+001	1.683521e+002	-2.073241e+001	1.694914e+002	-1.637614e+001	1.005277e+002
2342100000.000	-2.207517e+001	1.980740e+001	-2.096853e+001	1.237531e+002	-2.075964e+001	1.232846e+002	-1.625959e+001	3.409961e+001
2347000000.000	-2.286712e+001	2.370234e+000	-2.115096e+001	7.994759e+001	-2.112107e+001	7.852628e+001	-1.664683e+001	-3.121077e+001
2351900000.000	-2.394997e+001	-1.819897e+001	-2.116085e+001	3.775716e+001	-2.132903e+001	3.681175e+001	-1.696834e+001	-9.617967e+001
2356800000.000	-2.524060e+001	-4.277707e+001	-2.089183e+001	-4.896071e+000	-2.108159e+001	-4.509279e+000	-1.677914e+001	-1.596195e+002
2361700000.000	-2.632951e+001	-7.052726e+001	-2.043957e+001	-4.863619e+001	-2.044770e+001	-4.737926e+001	-1.611704e+001	1.366901e+002
2366600000.000	-2.684346e+001	-1.011200e+002	-1.983748e+001	-9.491119e+001	-1.960408e+001	-9.473271e+001	-1.583841e+001	6.550828e+001
2371500000.000	-2.738932e+001	-1.320201e+002	-1.962173e+001	-1.443217e+002	-1.954214e+001	-1.460022e+002	-1.697129e+001	-1.283270e+001
2376400000.000	-2.812731e+001	-1.576918e+002	-1.998103e+001	1.673169e+002	-2.016347e+001	1.663734e+002	-1.896691e+001	-8.530793e+001
2381300000.000	-2.874982e+001	-1.795458e+002	-2.045852e+001	1.215819e+002	-2.061097e+001	1.220054e+002	-2.120490e+001	-1.448708e+002
2386200000.000	-2.897600e+001	1.601412e+002	-2.085079e+001	7.757722e+001	-2.085801e+001	7.831848e+001	-2.408758e+001	1.676448e+002
2391100000.000	-2.843698e+001	1.389385e+002	-2.103015e+001	3.423815e+001	-2.096031e+001	3.454390e+001	-2.698837e+001	1.278899e+002
2396000000.000	-2.736724e+001	1.148512e+002	-2.102636e+001	-9.001544e+000	-2.096457e+001	-9.141869e+000	-2.821902e+001	8.416201e+001
2400900000.000	-2.642750e+001	8.812556e+001	-2.081499e+001	-5.346444e+001	-2.077833e+001	-5.394779e+001	-2.749006e+001	2.955368e+001
2405800000.000	-2.661324e+001	6.142072e+001	-2.074139e+001	-1.005013e+002	-2.076258e+001	-1.010452e+002	-2.607151e+001	-2.182538e+001
2410700000.000	-2.799434e+001	3.954996e+001	-2.109970e+001	-1.472073e+002	-2.116123e+001	-1.475209e+002	-2.409250e+001	-7.076864e+001
2415600000.000	-3.044171e+001	2.105446e+001	-2.156693e+001	1.682518e+002	-2.165272e+001	1.681815e+002	-2.238562e+001	-1.254519e+002
2420500000.000	-3.463476e+001	3.480231e+000	-2.192253e+001	1.251063e+002	-2.196780e+001	1.254655e+002	-2.076387e+001	1.747796e+002
2425400000.000	-4.481809e+001	-1.254505e+001	-2.209811e+001	8.210037e+001	-2.203304e+001	8.254969e+001	-1.909514e+001	1.125930e+002
2430300000.000	-4.477788e+001	1.371180e+002	-2.225211e+001	3.870234e+001	-2.208216e+001	3.840794e+001	-1.786540e+001	4.939058e+001
2435200000.000	-3.656154e+001	1.202849e+002	-2.240747e+001	-4.167206e+000	-2.232656e+001	-5.842020e+000	-1.735704e+001	-1.460587e+001
