!Agilent Technologies,E5061B,MY49305579,A.02.22
!Date: Thu Aug 24 16:27:17 2017
!Data & Calibration Information:
!Freq	S11:SOLT2(ON)	S21:SOLT2(ON)	S12:SOLT2(ON)	S22:SOLT2(ON)
# Hz S dB R 50
1710000000.000	-1.869352e+001	1.588282e+002	-2.017332e+001	1.408430e+002	-2.037780e+001	1.396670e+002	-2.536890e+001	-1.517949e+001
1714900000.000	-1.911326e+001	1.391524e+002	-1.947587e+001	9.619737e+001	-1.969486e+001	9.652020e+001	-2.465210e+001	-6.503805e+001
1719800000.000	-1.987514e+001	1.187275e+002	-1.920627e+001	4.914643e+001	-1.926064e+001	5.013824e+001	-2.258370e+001	-1.178754e+002
1724700000.000	-2.099358e+001	9.742221e+001	-1.891370e+001	2.684105e+000	-1.886066e+001	3.054084e+000	-2.082251e+001	-1.670834e+002
1729600000.000	-2.270301e+001	7.506880e+001	-1.850006e+001	-4.527452e+001	-1.850691e+001	-4.516471e+001	-1.990527e+001	1.411121e+002
1734500000.000	-2.507265e+001	5.050624e+001	-1.833607e+001	-9.510848e+001	-1.831853e+001	-9.456607e+001	-2.014253e+001	8.196398e+001
1739400000.000	-2.840662e+001	2.059882e+001	-1.851231e+001	-1.440728e+002	-1.837096e+001	-1.441145e+002	-2.078959e+001	1.010052e+001
1744300000.000	-3.206597e+001	-2.148859e+001	-1.862811e+001	1.683215e+002	-1.863276e+001	1.671019e+002	-1.996142e+001	-6.826929e+001
1749200000.000	-3.336164e+001	-7.642564e+001	-1.863198e+001	1.194609e+002	-1.889416e+001	1.194890e+002	-1.830857e+001	-1.375803e+002
1754100000.000	-3.188557e+001	-1.183225e+002	-1.900232e+001	6.965699e+001	-1.903991e+001	7.178596e+001	-1.772827e+001	1.589531e+002
1759000000.000	-3.044457e+001	-1.451070e+002	-1.964411e+001	2.207139e+001	-1.930935e+001	2.260708e+001	-1.840225e+001	9.107054e+001
1763900000.000	-2.981256e+001	-1.667412e+002	-1.999001e+001	-2.393925e+001	-1.989743e+001	-2.597490e+001	-1.991656e+001	1.204627e+001
1768800000.000	-2.996451e+001	1.725076e+002	-2.036513e+001	-7.211605e+001	-2.063193e+001	-7.276175e+001	-2.016237e+001	-6.656276e+001
1773700000.000	-3.115143e+001	1.509254e+002	-2.113182e+001	-1.191756e+002	-2.127366e+001	-1.178143e+002	-1.992595e+001	-1.345332e+002
1778600000.000	-3.356262e+001	1.257227e+002	-2.183246e+001	-1.637438e+002	-2.173960e+001	-1.628521e+002	-2.058390e+001	1.627028e+002
1783500000.000	-3.800986e+001	8.866471e+001	-2.234246e+001	1.516892e+002	-2.226886e+001	1.516925e+002	-2.272167e+001	9.451658e+001
1788400000.000	-4.227372e+001	1.214892e+000	-2.298018e+001	1.067938e+002	-2.296434e+001	1.068873e+002	-2.552035e+001	1.281185e+001
1793300000.000	-3.536124e+001	-6.954677e+001	-2.371750e+001	6.424532e+001	-2.366070e+001	6.435037e+001	-2.599613e+001	-7.667037e+001
1798200000.000	-3.031607e+001	-1.014300e+002	-2.407373e+001	2.301361e+001	-2.404986e+001	2.300841e+001	-2.558810e+001	-1.521392e+002
1803100000.000	-2.722324e+001	-1.241878e+002	-2.421846e+001	-1.920147e+001	-2.417341e+001	-1.881495e+001	-2.666319e+001	1.407550e+002
1808000000.000	-2.513468e+001	-1.434677e+002	-2.440591e+001	-6.213568e+001	-2.424238e+001	-6.200436e+001	-2.986055e+001	5.805719e+001
1812900000.000	-2.384239e+001	-1.609080e+002	-2.446666e+001	-1.046158e+002	-2.435179e+001	-1.055881e+002	-2.968381e+001	-4.870176e+001
1817800000.000	-2.341872e+001	-1.771029e+002	-2.457486e+001	-1.496437e+002	-2.461064e+001	-1.504736e+002	-2.596898e+001	-1.211518e+002
1822700000.000	-2.318546e+001	1.702898e+002	-2.498959e+001	1.676572e+002	-2.501632e+001	1.677586e+002	-2.391427e+001	1.776439e+002
1827600000.000	-2.313767e+001	1.565445e+002	-2.524909e+001	1.262209e+002	-2.513478e+001	1.258867e+002	-2.372552e+001	1.127076e+002
1832500000.000	-2.332743e+001	1.407745e+002	-2.519086e+001	8.513860e+001	-2.521506e+001	8.379358e+001	-2.366105e+001	3.849983e+001
1837400000.000	-2.385250e+001	1.228901e+002	-2.501451e+001	4.225417e+001	-2.524670e+001	4.167065e+001	-2.221034e+001	-3.560034e+001
1842300000.000	-2.468551e+001	1.020600e+002	-2.504477e+001	-1.165005e+000	-2.523459e+001	-1.661412e-002	-2.049168e+001	-1.006993e+002
1847200000.000	-2.582651e+001	7.860671e+001	-2.516538e+001	-4.322280e+001	-2.511567e+001	-4.196659e+001	-1.938212e+001	-1.603607e+002
1852100000.000	-2.715709e+001	4.996799e+001	-2.497515e+001	-8.376454e+001	-2.486979e+001	-8.339953e+001	-1.864048e+001	1.395319e+002
1857000000.000	-2.876057e+001	1.442848e+001	-2.456435e+001	-1.267276e+002	-2.453325e+001	-1.264324e+002	-1.850502e+001	7.372845e+001
1861900000.000	-2.984136e+001	-2.993917e+001	-2.450279e+001	-1.698065e+002	-2.438755e+001	-1.693538e+002	-1.864460e+001	5.378559e+000
1866800000.000	-2.917564e+001	-7.729729e+001	-2.409447e+001	1.499314e+002	-2.395660e+001	1.493201e+002	-1.781352e+001	-6.242629e+001
1871700000.000	-2.741293e+001	-1.138745e+002	-2.325183e+001	1.064639e+002	-2.335574e+001	1.056434e+002	-1.635514e+001	-1.293225e+002
1876600000.000	-2.554549e+001	-1.407035e+002	-2.264839e+001	5.972438e+001	-2.276391e+001	6.125724e+001	-1.525960e+001	1.677480e+002
1881500000.000	-2.404187e+001	-1.619613e+002	-2.256559e+001	1.365382e+001	-2.220432e+001	1.530356e+001	-1.481680e+001	1.037973e+002
1886400000.000	-2.308225e+001	1.787210e+002	-2.233799e+001	-2.908084e+001	-2.185011e+001	-3.157477e+001	-1.488879e+001	3.427371e+001
1891300000.000	-2.271967e+001	1.600130e+002	-2.156098e+001	-7.361866e+001	-2.175767e+001	-7.793041e+001	-1.466744e+001	-3.787425e+001
1896200000.000	-2.312855e+001	1.407991e+002	-2.107494e+001	-1.225792e+002	-2.171011e+001	-1.229040e+002	-1.392722e+001	-1.047588e+002
1901100000.000	-2.426956e+001	1.238619e+002	-2.133942e+001	-1.691637e+002	-2.151528e+001	-1.659887e+002	-1.315685e+001	-1.664364e+002
1906000000.000	-2.540237e+001	1.044634e+002	-2.107709e+001	1.483367e+002	-2.073944e+001	1.494744e+002	-1.279151e+001	1.291837e+002
1910900000.000	-2.757431e+001	7.901133e+001	-2.033751e+001	1.025344e+002	-2.021032e+001	1.008116e+002	-1.289091e+001	5.822335e+001
1915800000.000	-3.095423e+001	4.444717e+001	-2.001107e+001	5.347726e+001	-2.021211e+001	5.272847e+001	-1.308080e+001	-1.492038e+001
1920700000.000	-3.526131e+001	-1.347997e+001	-2.008348e+001	6.534308e+000	-2.019505e+001	7.183995e+000	-1.295916e+001	-8.368626e+001
1925600000.000	-3.402970e+001	-8.471694e+001	-1.996011e+001	-3.853071e+001	-1.998283e+001	-3.787527e+001	-1.270579e+001	-1.494351e+002
1930500000.000	-2.996903e+001	-1.273699e+002	-1.949441e+001	-8.501809e+001	-1.948581e+001	-8.370531e+001	-1.255833e+001	1.438996e+002
1935400000.000	-2.700449e+001	-1.559248e+002	-1.933899e+001	-1.338800e+002	-1.901910e+001	-1.328376e+002	-1.279965e+001	7.332514e+001
1940300000.000	-2.530851e+001	-1.787428e+002	-1.948760e+001	1.792484e+002	-1.911231e+001	1.774170e+002	-1.361582e+001	6.464232e-001
1945200000.000	-2.428620e+001	1.619886e+002	-1.929636e+001	1.334266e+002	-1.940024e+001	1.305084e+002	-1.446112e+001	-7.045071e+001
1950100000.000	-2.383221e+001	1.444737e+002	-1.905339e+001	8.537057e+001	-1.941266e+001	8.522347e+001	-1.488389e+001	-1.383644e+002
1955000000.000	-2.390805e+001	1.278271e+002	-1.910244e+001	3.686091e+001	-1.911853e+001	3.841588e+001	-1.535453e+001	1.551061e+002
1959900000.000	-2.448349e+001	1.121670e+002	-1.919921e+001	-1.064843e+001	-1.900321e+001	-1.091530e+001	-1.675405e+001	8.664847e+001
1964800000.000	-2.529157e+001	9.776708e+001	-1.919337e+001	-5.857814e+001	-1.923813e+001	-6.007820e+001	-1.909759e+001	1.271048e+001
1969700000.000	-2.624129e+001	8.348200e+001	-1.940532e+001	-1.079528e+002	-1.962375e+001	-1.080186e+002	-2.086917e+001	-6.752455e+001
1974600000.000	-2.710865e+001	6.866776e+001	-1.992235e+001	-1.557489e+002	-1.999855e+001	-1.548733e+002	-2.133082e+001	-1.454209e+002
1979500000.000	-2.795662e+001	4.969474e+001	-2.027676e+001	1.580222e+002	-2.023973e+001	1.584578e+002	-2.187227e+001	1.431215e+002
1984400000.000	-2.982903e+001	2.678851e+001	-2.052633e+001	1.102079e+002	-2.050772e+001	1.104744e+002	-2.358820e+001	6.893766e+001
1989300000.000	-3.142953e+001	1.524880e+001	-2.120668e+001	6.246504e+001	-2.118500e+001	6.256164e+001	-2.577929e+001	-1.811698e+001
1994200000.000	-3.132373e+001	-1.339032e+001	-2.187729e+001	1.712980e+001	-2.188331e+001	1.720933e+001	-2.525729e+001	-1.102506e+002
1999100000.000	-3.137506e+001	-4.958301e+001	-2.243575e+001	-2.761687e+001	-2.243736e+001	-2.695038e+001	-2.338401e+001	1.721480e+002
2004000000.000	-3.025004e+001	-8.372335e+001	-2.298068e+001	-7.231909e+001	-2.279826e+001	-7.149006e+001	-2.247260e+001	9.863685e+001
2008900000.000	-2.827181e+001	-1.109531e+002	-2.352052e+001	-1.161492e+002	-2.322330e+001	-1.169127e+002	-2.223305e+001	1.940540e+001
2013800000.000	-2.623790e+001	-1.332718e+002	-2.388434e+001	-1.600585e+002	-2.382485e+001	-1.620844e+002	-2.077210e+001	-5.954072e+001
2018700000.000	-2.463685e+001	-1.516520e+002	-2.440899e+001	1.548510e+002	-2.458570e+001	1.539647e+002	-1.871145e+001	-1.276718e+002
2023600000.000	-2.354978e+001	-1.684541e+002	-2.525758e+001	1.116286e+002	-2.524439e+001	1.122162e+002	-1.734943e+001	1.704290e+002
2028500000.000	-2.301043e+001	1.761435e+002	-2.579743e+001	7.184847e+001	-2.557538e+001	7.123137e+001	-1.705851e+001	1.062375e+002
2033400000.000	-2.297786e+001	1.616482e+002	-2.591362e+001	3.082189e+001	-2.588810e+001	2.866408e+001	-1.728662e+001	3.553234e+001
2038300000.000	-2.335629e+001	1.484538e+002	-2.612419e+001	-1.092905e+001	-2.640413e+001	-1.249880e+001	-1.686586e+001	-3.735925e+001
2043200000.000	-2.391335e+001	1.366761e+002	-2.629315e+001	-5.204237e+001	-2.653520e+001	-5.158523e+001	-1.581526e+001	-1.056707e+002
2048100000.000	-2.454584e+001	1.252146e+002	-2.630564e+001	-9.250122e+001	-2.633151e+001	-9.151749e+001	-1.491868e+001	-1.688276e+002
2053000000.000	-2.519577e+001	1.150791e+002	-2.599266e+001	-1.334336e+002	-2.591185e+001	-1.329199e+002	-1.434413e+001	1.271227e+002
2057900000.000	-2.576876e+001	1.055688e+002	-2.565325e+001	-1.767654e+002	-2.548419e+001	-1.769802e+002	-1.424484e+001	5.898128e+001
2062800000.000	-2.621065e+001	9.766881e+001	-2.557931e+001	1.396326e+002	-2.544199e+001	1.382593e+002	-1.442866e+001	-1.079070e+001
2067700000.000	-2.625915e+001	8.929384e+001	-2.534839e+001	9.695085e+001	-2.545572e+001	9.495485e+001	-1.447786e+001	-7.881428e+001
2072600000.000	-2.663439e+001	7.572838e+001	-2.522183e+001	5.185915e+001	-2.554812e+001	5.174966e+001	-1.408955e+001	-1.426498e+002
2077500000.000	-2.849252e+001	6.747060e+001	-2.535016e+001	1.005153e+001	-2.541203e+001	1.205360e+001	-1.327402e+001	1.543773e+002
2082400000.000	-2.992125e+001	6.605844e+001	-2.505555e+001	-3.179319e+001	-2.467388e+001	-3.105451e+001	-1.285437e+001	8.868513e+001
2087300000.000	-3.131085e+001	6.926354e+001	-2.461325e+001	-7.465762e+001	-2.433355e+001	-7.732828e+001	-1.315833e+001	2.034305e+001
2092200000.000	-3.105231e+001	7.066380e+001	-2.410483e+001	-1.188596e+002	-2.434288e+001	-1.217805e+002	-1.368642e+001	-4.781359e+001
2097100000.000	-3.113771e+001	6.516817e+001	-2.379980e+001	-1.640107e+002	-2.418882e+001	-1.641061e+002	-1.387472e+001	-1.123162e+002
2102000000.000	-3.149403e+001	6.179852e+001	-2.334973e+001	1.516400e+002	-2.349614e+001	1.532320e+002	-1.379392e+001	-1.722912e+002
2106900000.000	-3.024735e+001	5.233225e+001	-2.302655e+001	1.051346e+002	-2.291652e+001	1.061624e+002	-1.370178e+001	1.270161e+002
2111800000.000	-2.967395e+001	3.194061e+001	-2.279721e+001	5.870020e+001	-2.265120e+001	5.841538e+001	-1.382612e+001	6.171367e+001
2116700000.000	-2.972068e+001	7.048352e+000	-2.289247e+001	1.250130e+001	-2.286786e+001	1.155503e+001	-1.418876e+001	-7.425210e+000
2121600000.000	-3.168961e+001	-1.905782e+001	-2.271876e+001	-2.979383e+001	-2.285461e+001	-3.053765e+001	-1.436475e+001	-7.303078e+001
2126500000.000	-3.140791e+001	-1.915986e+001	-2.205112e+001	-7.680285e+001	-2.227423e+001	-7.619919e+001	-1.412901e+001	-1.356726e+002
2131400000.000	-2.846237e+001	-4.437139e+001	-2.194704e+001	-1.248617e+002	-2.196741e+001	-1.224350e+002	-1.400344e+001	1.621003e+002
2136300000.000	-2.634011e+001	-7.401099e+001	-2.201159e+001	-1.717787e+002	-2.159753e+001	-1.699348e+002	-1.412070e+001	9.662104e+001
2141200000.000	-2.431214e+001	-1.017768e+002	-2.206768e+001	1.424043e+002	-2.155249e+001	1.408762e+002	-1.483066e+001	2.607644e+001
2146100000.000	-2.255603e+001	-1.269747e+002	-2.196021e+001	9.634625e+001	-2.186724e+001	9.311111e+001	-1.573998e+001	-4.610948e+001
2151000000.000	-2.106613e+001	-1.482797e+002	-2.194300e+001	4.900653e+001	-2.215711e+001	4.729610e+001	-1.613324e+001	-1.153832e+002
2155900000.000	-1.972315e+001	-1.688492e+002	-2.221867e+001	2.198077e+000	-2.231902e+001	2.151702e+000	-1.631303e+001	-1.798056e+002
2160800000.000	-1.889011e+001	1.711260e+002	-2.242929e+001	-4.299039e+001	-2.235472e+001	-4.347944e+001	-1.713682e+001	1.177771e+002
2165700000.000	-1.849262e+001	1.516997e+002	-2.252163e+001	-8.856073e+001	-2.250463e+001	-8.998663e+001	-1.905729e+001	5.261601e+001
2170600000.000	-1.850253e+001	1.327693e+002	-2.266852e+001	-1.343719e+002	-2.281232e+001	-1.357328e+002	-2.146594e+001	-1.782228e+001
2175500000.000	-1.883150e+001	1.148943e+002	-2.289392e+001	-1.798583e+002	-2.307097e+001	1.795649e+002	-2.289006e+001	-8.828498e+001
2180400000.000	-1.930273e+001	9.779721e+001	-2.309107e+001	1.350528e+002	-2.323583e+001	1.349729e+002	-2.388067e+001	-1.497598e+002
2185300000.000	-1.990602e+001	8.132942e+001	-2.329196e+001	9.028314e+001	-2.340028e+001	9.037853e+001	-2.564372e+001	1.578498e+002
2190200000.000	-2.043895e+001	6.630408e+001	-2.344468e+001	4.588192e+001	-2.353412e+001	4.604776e+001	-2.823137e+001	1.130433e+002
2195100000.000	-2.074572e+001	4.951540e+001	-2.348581e+001	1.187539e+000	-2.355779e+001	1.512966e+000	-3.036773e+001	7.970230e+001
2200000000.000	-2.147748e+001	2.980033e+001	-2.363349e+001	-4.407586e+001	-2.362435e+001	-4.351419e+001	-2.983519e+001	4.950466e+001
2204900000.000	-2.276053e+001	7.453578e+000	-2.377898e+001	-8.886393e+001	-2.371903e+001	-8.857320e+001	-2.809699e+001	7.878785e+000
2209800000.000	-2.517906e+001	-1.733416e+001	-2.393620e+001	-1.335619e+002	-2.385174e+001	-1.338617e+002	-2.671618e+001	-4.540877e+001
2214700000.000	-2.849027e+001	-4.480513e+001	-2.405828e+001	-1.780965e+002	-2.405946e+001	-1.786335e+002	-2.546787e+001	-1.060827e+002
2219600000.000	-3.225904e+001	-8.455293e+001	-2.418879e+001	1.371992e+002	-2.422728e+001	1.368987e+002	-2.379848e+001	-1.682586e+002
2224500000.000	-3.422863e+001	-1.430164e+002	-2.437074e+001	9.246190e+001	-2.434347e+001	9.235539e+001	-2.219637e+001	1.309611e+002
2229400000.000	-3.295260e+001	1.673489e+002	-2.458871e+001	4.805066e+001	-2.453585e+001	4.739602e+001	-2.109191e+001	6.915044e+001
2234300000.000	-3.115095e+001	1.411213e+002	-2.476062e+001	4.717171e+000	-2.478448e+001	3.396100e+000	-2.023929e+001	4.062171e+000
2239200000.000	-2.847523e+001	1.188574e+002	-2.472241e+001	-3.932664e+001	-2.491345e+001	-4.047586e+001	-1.915197e+001	-6.118822e+001
2244100000.000	-2.670366e+001	9.128774e+001	-2.480707e+001	-8.437955e+001	-2.509192e+001	-8.440408e+001	-1.802848e+001	-1.225023e+002
2249000000.000	-2.578191e+001	6.375984e+001	-2.496311e+001	-1.289032e+002	-2.517328e+001	-1.275440e+002	-1.719826e+001	1.787532e+002
2253900000.000	-2.542822e+001	3.626123e+001	-2.515470e+001	-1.731423e+002	-2.512235e+001	-1.715015e+002	-1.676808e+001	1.172893e+002
2258800000.000	-2.541689e+001	9.276208e+000	-2.534575e+001	1.429917e+002	-2.514828e+001	1.434821e+002	-1.672400e+001	5.076052e+001
2263700000.000	-2.537606e+001	-1.842735e+001	-2.546679e+001	9.956598e+001	-2.537007e+001	9.867359e+001	-1.667593e+001	-1.745050e+001
2268600000.000	-2.480353e+001	-4.896403e+001	-2.557075e+001	5.570012e+001	-2.565411e+001	5.537797e+001	-1.644586e+001	-8.323069e+001
2273500000.000	-2.371466e+001	-8.532198e+001	-2.574233e+001	1.216260e+001	-2.576726e+001	1.294676e+001	-1.598138e+001	-1.457487e+002
2278400000.000	-2.264911e+001	-1.223477e+002	-2.588553e+001	-3.063273e+001	-2.568762e+001	-2.975788e+001	-1.542522e+001	1.525013e+002
2283300000.000	-2.163887e+001	-1.547602e+002	-2.589324e+001	-7.272556e+001	-2.553742e+001	-7.361097e+001	-1.507600e+001	8.912266e+001
2288200000.000	-2.079162e+001	1.770588e+002	-2.565529e+001	-1.153576e+002	-2.549756e+001	-1.180037e+002	-1.521003e+001	2.313029e+001
2293100000.000	-2.027452e+001	1.523365e+002	-2.540530e+001	-1.598021e+002	-2.558253e+001	-1.624728e+002	-1.558057e+001	-4.291115e+001
2298000000.000	-2.001633e+001	1.300622e+002	-2.535084e+001	1.551461e+002	-2.568020e+001	1.541408e+002	-1.562193e+001	-1.063692e+002
2302900000.000	-1.990516e+001	1.087980e+002	-2.544790e+001	1.107277e+002	-2.570161e+001	1.114565e+002	-1.531341e+001	-1.674337e+002
2307800000.000	-1.990864e+001	8.774336e+001	-2.549518e+001	6.730997e+001	-2.552910e+001	6.844062e+001	-1.512509e+001	1.306958e+002
2312700000.000	-2.008470e+001	6.631409e+001	-2.544487e+001	2.395127e+001	-2.533412e+001	2.383222e+001	-1.523366e+001	6.621604e+001
2317600000.000	-2.054139e+001	4.497455e+001	-2.540569e+001	-1.958522e+001	-2.539869e+001	-2.077524e+001	-1.552191e+001	1.023552e+000
2322500000.000	-2.132723e+001	2.419328e+001	-2.530611e+001	-6.312124e+001	-2.555222e+001	-6.380101e+001	-1.572277e+001	-6.173933e+001
2327400000.000	-2.258815e+001	3.430555e+000	-2.521695e+001	-1.064750e+002	-2.548513e+001	-1.054450e+002	-1.571539e+001	-1.225234e+002
2332300000.000	-2.434000e+001	-1.858186e+001	-2.502427e+001	-1.497959e+002	-2.503016e+001	-1.474377e+002	-1.535743e+001	1.757432e+002
2337200000.000	-2.671974e+001	-4.498328e+001	-2.476554e+001	1.664129e+002	-2.442824e+001	1.679806e+002	-1.469708e+001	1.114814e+002
2342100000.000	-2.933011e+001	-8.419487e+001	-2.458751e+001	1.218134e+002	-2.418905e+001	1.208214e+002	-1.429840e+001	4.601142e+001
2347000000.000	-3.058315e+001	-1.403828e+002	-2.450747e+001	7.855897e+001	-2.435370e+001	7.575679e+001	-1.445813e+001	-1.919024e+001
2351900000.000	-2.943635e+001	1.709971e+002	-2.419116e+001	3.554666e+001	-2.440845e+001	3.322620e+001	-1.479486e+001	-8.357389e+001
2356800000.000	-2.807150e+001	1.423780e+002	-2.372295e+001	-8.065906e+000	-2.404841e+001	-8.357236e+000	-1.470769e+001	-1.468083e+002
2361700000.000	-2.669372e+001	1.238460e+002	-2.311993e+001	-5.290219e+001	-2.325467e+001	-5.160627e+001	-1.426504e+001	1.506551e+002
2366600000.000	-2.504658e+001	1.060775e+002	-2.256593e+001	-9.926811e+001	-2.240249e+001	-9.866234e+001	-1.415147e+001	8.587014e+001
2371500000.000	-2.343228e+001	8.297358e+001	-2.211227e+001	-1.466584e+002	-2.197429e+001	-1.483007e+002	-1.464804e+001	1.827922e+001
2376400000.000	-2.234565e+001	5.581527e+001	-2.175814e+001	1.651783e+002	-2.200324e+001	1.629912e+002	-1.513012e+001	-4.851895e+001
2381300000.000	-2.167032e+001	2.762635e+001	-2.159096e+001	1.161440e+002	-2.209694e+001	1.162803e+002	-1.526632e+001	-1.103777e+002
2386200000.000	-2.126415e+001	-1.633003e-001	-2.167481e+001	6.719315e+001	-2.199387e+001	7.017087e+001	-1.542102e+001	-1.689072e+002
2391100000.000	-2.105923e+001	-2.763665e+001	-2.191511e+001	1.918827e+001	-2.176730e+001	2.247844e+001	-1.593152e+001	1.305789e+002
2396000000.000	-2.109971e+001	-5.580121e+001	-2.217522e+001	-2.817921e+001	-2.176687e+001	-2.715680e+001	-1.668378e+001	6.490317e+001
2400900000.000	-2.131453e+001	-8.478352e+001	-2.252925e+001	-7.560716e+001	-2.224001e+001	-7.647485e+001	-1.733657e+001	-8.415878e-001
2405800000.000	-2.141514e+001	-1.147262e+002	-2.304887e+001	-1.220111e+002	-2.297537e+001	-1.231840e+002	-1.777193e+001	-6.135851e+001
2410700000.000	-2.122871e+001	-1.443774e+002	-2.356492e+001	-1.667734e+002	-2.357038e+001	-1.674966e+002	-1.819739e+001	-1.183276e+002
2415600000.000	-2.067015e+001	-1.721631e+002	-2.394901e+001	1.494488e+002	-2.393768e+001	1.490759e+002	-1.845021e+001	-1.763079e+002
2420500000.000	-1.994723e+001	1.621702e+002	-2.416812e+001	1.058556e+002	-2.408958e+001	1.054715e+002	-1.839712e+001	1.240052e+002
2425400000.000	-1.928367e+001	1.378717e+002	-2.432478e+001	6.141139e+001	-2.419115e+001	6.052239e+001	-1.826604e+001	6.455544e+001
2430300000.000	-1.887012e+001	1.140750e+002	-2.454689e+001	1.697826e+001	-2.449998e+001	1.511663e+001	-1.854407e+001	5.579748e+000
2435200000.000	-1.868595e+001	9.049893e+001	-2.477017e+001	-2.697479e+001	-2.494277e+001	-2.915391e+001	-1.919968e+001	-5.384893e+001
