!Agilent Technologies,E5061B,MY49305579,A.02.22
!Date: Thu Aug 24 16:21:59 2017
!Data & Calibration Information:
!Freq	S11:SOLT2(ON)	S21:SOLT2(ON)	S12:SOLT2(ON)	S22:SOLT2(ON)
# Hz S dB R 50
1710000000.000	-2.551258e+001	-1.275373e+002	-2.156656e+001	4.058562e+001	-2.120449e+001	3.965767e+001	-1.677909e+001	1.044947e+002
1714900000.000	-2.418581e+001	-1.428082e+002	-2.101606e+001	-4.630607e+000	-2.103856e+001	-6.437873e+000	-1.650327e+001	3.568559e+001
1719800000.000	-2.363713e+001	-1.594760e+002	-2.120390e+001	-5.192468e+001	-2.134232e+001	-5.178960e+001	-1.580940e+001	-3.551030e+001
1724700000.000	-2.341467e+001	-1.747287e+002	-2.169289e+001	-9.516680e+001	-2.160725e+001	-9.469733e+001	-1.465296e+001	-1.024052e+002
1729600000.000	-2.348186e+001	1.700230e+002	-2.160687e+001	-1.361013e+002	-2.158879e+001	-1.367403e+002	-1.350004e+001	-1.640845e+002
1734500000.000	-2.408117e+001	1.565386e+002	-2.119165e+001	1.793044e+002	-2.131000e+001	1.798750e+002	-1.278601e+001	1.348299e+002
1739400000.000	-2.511011e+001	1.455317e+002	-2.134439e+001	1.328538e+002	-2.112029e+001	1.344851e+002	-1.278455e+001	6.971363e+001
1744300000.000	-2.646434e+001	1.381803e+002	-2.170876e+001	9.057227e+001	-2.126320e+001	8.876726e+001	-1.309167e+001	-8.078570e-001
1749200000.000	-2.793964e+001	1.333790e+002	-2.136177e+001	4.949839e+001	-2.156949e+001	4.552725e+001	-1.292644e+001	-7.104860e+001
1754100000.000	-2.951877e+001	1.305866e+002	-2.090200e+001	3.704155e+000	-2.156365e+001	4.068298e+000	-1.230317e+001	-1.356942e+002
1759000000.000	-3.125705e+001	1.291713e+002	-2.111447e+001	-4.280293e+001	-2.117789e+001	-3.850574e+001	-1.178727e+001	1.619140e+002
1763900000.000	-3.315602e+001	1.295149e+002	-2.128293e+001	-8.460773e+001	-2.066821e+001	-8.390318e+001	-1.188715e+001	9.530164e+001
1768800000.000	-3.534686e+001	1.342276e+002	-2.070922e+001	-1.276579e+002	-2.058070e+001	-1.313123e+002	-1.248801e+001	2.364416e+001
1773700000.000	-3.686679e+001	1.503167e+002	-2.041644e+001	-1.761047e+002	-2.089523e+001	-1.772623e+002	-1.293368e+001	-4.686330e+001
1778600000.000	-3.566296e+001	1.648153e+002	-2.095183e+001	1.370902e+002	-2.117572e+001	1.393546e+002	-1.303532e+001	-1.115812e+002
1783500000.000	-3.330851e+001	1.672412e+002	-2.134557e+001	9.543289e+001	-2.116451e+001	9.689586e+001	-1.320656e+001	-1.727924e+002
1788400000.000	-3.126563e+001	1.588047e+002	-2.110868e+001	5.342749e+001	-2.098177e+001	5.317897e+001	-1.376851e+001	1.250198e+002
1793300000.000	-3.005931e+001	1.467874e+002	-2.091106e+001	8.160371e+000	-2.087166e+001	8.271722e+000	-1.485613e+001	5.954049e+001
1798200000.000	-2.950136e+001	1.322347e+002	-2.110890e+001	-3.623478e+001	-2.096596e+001	-3.642086e+001	-1.597660e+001	-7.057521e+000
1803100000.000	-2.976961e+001	1.152776e+002	-2.110231e+001	-7.790006e+001	-2.105799e+001	-7.937536e+001	-1.651894e+001	-7.096032e+001
1808000000.000	-3.093566e+001	9.588384e+001	-2.064025e+001	-1.213633e+002	-2.088825e+001	-1.222647e+002	-1.650545e+001	-1.293448e+002
1812900000.000	-3.295334e+001	6.876211e+001	-2.040522e+001	-1.675131e+002	-2.063388e+001	-1.660758e+002	-1.654044e+001	1.751835e+002
1817800000.000	-3.541398e+001	2.195798e+001	-2.049662e+001	1.465583e+002	-2.036190e+001	1.487101e+002	-1.707474e+001	1.195439e+002
1822700000.000	-3.488621e+001	-3.744548e+001	-2.062557e+001	1.034828e+002	-2.029638e+001	1.032652e+002	-1.771835e+001	5.802854e+001
1827600000.000	-3.204124e+001	-7.551994e+001	-2.033561e+001	5.984816e+001	-2.029518e+001	5.786170e+001	-1.814710e+001	-6.960043e+000
1832500000.000	-2.974351e+001	-9.985102e+001	-2.015095e+001	1.379500e+001	-2.038983e+001	1.332646e+001	-1.788862e+001	-6.957049e+001
1837400000.000	-2.843332e+001	-1.170400e+002	-2.029340e+001	-3.224097e+001	-2.039050e+001	-3.072406e+001	-1.751093e+001	-1.275000e+002
1842300000.000	-2.730774e+001	-1.315167e+002	-2.054560e+001	-7.551498e+001	-2.035476e+001	-7.446885e+001	-1.752529e+001	1.747876e+002
1847200000.000	-2.660928e+001	-1.477609e+002	-2.029894e+001	-1.189908e+002	-2.013740e+001	-1.194547e+002	-1.804445e+001	1.136913e+002
1852100000.000	-2.646763e+001	-1.614887e+002	-2.024526e+001	-1.643852e+002	-2.022966e+001	-1.647237e+002	-1.921786e+001	4.833975e+001
1857000000.000	-2.639489e+001	-1.746044e+002	-2.034885e+001	1.506449e+002	-2.029473e+001	1.509350e+002	-2.034299e+001	-1.792824e+001
1861900000.000	-2.655977e+001	1.757400e+002	-2.047847e+001	1.071472e+002	-2.036837e+001	1.068313e+002	-2.088328e+001	-8.149832e+001
1866800000.000	-2.639621e+001	1.689574e+002	-2.036072e+001	6.460070e+001	-2.035165e+001	6.393072e+001	-2.041665e+001	-1.396902e+002
1871700000.000	-2.630800e+001	1.634997e+002	-2.002052e+001	1.979403e+001	-2.005506e+001	1.997476e+001	-2.026136e+001	1.640849e+002
1876600000.000	-2.585032e+001	1.598925e+002	-1.996906e+001	-2.601780e+001	-1.985688e+001	-2.556361e+001	-2.120144e+001	1.102905e+002
1881500000.000	-2.518960e+001	1.540616e+002	-2.002365e+001	-7.070007e+001	-1.982445e+001	-7.148293e+001	-2.321075e+001	5.468272e+001
1886400000.000	-2.485202e+001	1.449642e+002	-1.995381e+001	-1.150174e+002	-1.991293e+001	-1.170167e+002	-2.484730e+001	-6.532581e+000
1891300000.000	-2.515218e+001	1.343305e+002	-1.987804e+001	-1.604706e+002	-2.006706e+001	-1.620714e+002	-2.413413e+001	-6.580317e+001
1896200000.000	-2.625766e+001	1.239657e+002	-1.999046e+001	1.541115e+002	-2.028150e+001	1.540572e+002	-2.228366e+001	-1.149998e+002
1901100000.000	-2.754455e+001	1.205471e+002	-2.005968e+001	1.094045e+002	-2.019639e+001	1.106520e+002	-2.050721e+001	-1.599890e+002
1906000000.000	-2.837652e+001	1.122210e+002	-2.024130e+001	6.520578e+001	-2.015604e+001	6.617160e+001	-1.959197e+001	1.501687e+002
1910900000.000	-2.998674e+001	1.055291e+002	-2.016814e+001	2.154537e+001	-2.005873e+001	2.116056e+001	-1.921544e+001	9.032773e+001
1915800000.000	-3.144926e+001	1.007284e+002	-2.011974e+001	-2.393357e+001	-2.016771e+001	-2.451315e+001	-1.869157e+001	2.245637e+001
1920700000.000	-3.319657e+001	1.001157e+002	-2.039174e+001	-6.877187e+001	-2.046656e+001	-6.868727e+001	-1.756643e+001	-4.523082e+001
1925600000.000	-3.343631e+001	1.037861e+002	-2.055083e+001	-1.113971e+002	-2.058529e+001	-1.113130e+002	-1.643680e+001	-1.078380e+002
1930500000.000	-3.335613e+001	9.802511e+001	-2.037827e+001	-1.543298e+002	-2.046388e+001	-1.540310e+002	-1.548773e+001	-1.683118e+002
1935400000.000	-3.380742e+001	8.935762e+001	-2.013406e+001	1.608392e+002	-2.012819e+001	1.622015e+002	-1.471161e+001	1.294159e+002
1940300000.000	-3.563122e+001	7.103999e+001	-2.018905e+001	1.151797e+002	-1.988871e+001	1.158889e+002	-1.427673e+001	6.374391e+001
1945200000.000	-4.123839e+001	4.837640e+001	-2.026886e+001	7.120648e+001	-2.001492e+001	6.930443e+001	-1.420268e+001	-3.717729e+000
1950100000.000	-5.538872e+001	-7.003889e+001	-2.016228e+001	2.704176e+001	-2.037296e+001	2.477899e+001	-1.408132e+001	-6.958806e+001
1955000000.000	-4.034671e+001	-1.301323e+002	-2.010304e+001	-1.831605e+001	-2.048169e+001	-1.748654e+001	-1.360727e+001	-1.319325e+002
1959900000.000	-3.359218e+001	-1.509153e+002	-2.020136e+001	-6.310476e+001	-2.013046e+001	-6.052501e+001	-1.295939e+001	1.679928e+002
1964800000.000	-3.066442e+001	-1.745408e+002	-2.011233e+001	-1.072415e+002	-1.969271e+001	-1.070699e+002	-1.245849e+001	1.056016e+002
1969700000.000	-2.933633e+001	1.655045e+002	-1.992280e+001	-1.533577e+002	-1.979332e+001	-1.558100e+002	-1.275099e+001	3.721231e+001
1974600000.000	-2.879450e+001	1.421529e+002	-2.007153e+001	1.588576e+002	-2.029812e+001	1.576369e+002	-1.358161e+001	-3.139948e+001
1979500000.000	-2.989645e+001	1.203012e+002	-2.062746e+001	1.129838e+002	-2.079258e+001	1.135006e+002	-1.393567e+001	-9.677771e+001
1984400000.000	-3.156306e+001	1.032805e+002	-2.102733e+001	6.926203e+001	-2.108099e+001	6.998916e+001	-1.374941e+001	-1.584456e+002
1989300000.000	-3.421373e+001	8.624058e+001	-2.130800e+001	2.529504e+001	-2.131902e+001	2.620465e+001	-1.346978e+001	1.409215e+002
1994200000.000	-3.971704e+001	7.281598e+001	-2.179836e+001	-1.892717e+001	-2.162673e+001	-1.771365e+001	-1.339175e+001	7.931794e+001
1999100000.000	-5.456211e+001	1.298087e+002	-2.235231e+001	-5.984212e+001	-2.198329e+001	-6.031701e+001	-1.339277e+001	1.364964e+001
2004000000.000	-4.054858e+001	-1.544955e+002	-2.228686e+001	-9.937719e+001	-2.219512e+001	-1.021775e+002	-1.361651e+001	-5.488295e+001
2008900000.000	-3.473501e+001	-1.570342e+002	-2.192511e+001	-1.426149e+002	-2.223930e+001	-1.438610e+002	-1.377532e+001	-1.192021e+002
2013800000.000	-3.122188e+001	-1.637467e+002	-2.197064e+001	1.727107e+002	-2.215812e+001	1.743948e+002	-1.380319e+001	-1.790957e+002
2018700000.000	-2.899308e+001	-1.712412e+002	-2.215153e+001	1.302096e+002	-2.184303e+001	1.315836e+002	-1.414260e+001	1.211407e+002
2023600000.000	-2.743019e+001	-1.788479e+002	-2.190821e+001	8.814987e+001	-2.152108e+001	8.615463e+001	-1.480120e+001	5.738800e+001
2028500000.000	-2.652023e+001	1.727200e+002	-2.175148e+001	4.290714e+001	-2.185329e+001	3.956834e+001	-1.540181e+001	-1.286013e+001
2033400000.000	-2.600672e+001	1.653265e+002	-2.193918e+001	-1.570898e+000	-2.233321e+001	-2.504679e+000	-1.560605e+001	-8.001955e+001
2038300000.000	-2.546578e+001	1.570566e+002	-2.212134e+001	-4.412362e+001	-2.233252e+001	-4.295689e+001	-1.544731e+001	-1.402513e+002
2043200000.000	-2.510592e+001	1.470052e+002	-2.210240e+001	-8.608719e+001	-2.204514e+001	-8.506209e+001	-1.541751e+001	1.617757e+002
2048100000.000	-2.485327e+001	1.352453e+002	-2.185091e+001	-1.285171e+002	-2.173199e+001	-1.286337e+002	-1.590674e+001	1.010874e+002
2053000000.000	-2.474034e+001	1.228334e+002	-2.161341e+001	-1.729365e+002	-2.152813e+001	-1.734816e+002	-1.670250e+001	3.669815e+001
2057900000.000	-2.468658e+001	1.102235e+002	-2.162545e+001	1.427221e+002	-2.160261e+001	1.417198e+002	-1.728031e+001	-2.871353e+001
2062800000.000	-2.463226e+001	9.671500e+001	-2.161964e+001	1.002653e+002	-2.169797e+001	9.919334e+001	-1.748603e+001	-9.270579e+001
2067700000.000	-2.498063e+001	8.327143e+001	-2.129709e+001	5.715343e+001	-2.146733e+001	5.686232e+001	-1.744619e+001	-1.528829e+002
2072600000.000	-2.565122e+001	7.144521e+001	-2.103965e+001	1.229485e+001	-2.109882e+001	1.320232e+001	-1.727221e+001	1.484396e+002
2077500000.000	-2.636164e+001	6.198736e+001	-2.091323e+001	-3.218264e+001	-2.074154e+001	-3.169180e+001	-1.750523e+001	8.866818e+001
2082400000.000	-2.724350e+001	5.197573e+001	-2.076913e+001	-7.676047e+001	-2.058354e+001	-7.797410e+001	-1.824590e+001	2.683626e+001
2087300000.000	-2.825359e+001	4.275216e+001	-2.057116e+001	-1.216128e+002	-2.063357e+001	-1.235193e+002	-1.900699e+001	-3.724366e+001
2092200000.000	-2.904857e+001	3.108667e+001	-2.048833e+001	-1.672952e+002	-2.070954e+001	-1.679905e+002	-1.916553e+001	-1.006398e+002
2097100000.000	-3.001848e+001	1.543159e+001	-2.053577e+001	1.472050e+002	-2.066474e+001	1.478526e+002	-1.905643e+001	-1.607268e+002
2102000000.000	-3.099072e+001	-2.331013e+000	-2.057318e+001	1.026820e+002	-2.054836e+001	1.032733e+002	-1.940564e+001	1.414906e+002
2106900000.000	-3.153981e+001	-2.475457e+001	-2.053141e+001	5.754354e+001	-2.047005e+001	5.745516e+001	-2.050115e+001	8.031456e+001
2111800000.000	-3.184046e+001	-5.058778e+001	-2.064066e+001	1.200376e+001	-2.063372e+001	1.158852e+001	-2.200106e+001	1.386414e+001
2116700000.000	-3.192973e+001	-7.650566e+001	-2.084482e+001	-3.269449e+001	-2.089314e+001	-3.277344e+001	-2.279231e+001	-5.217792e+001
2121600000.000	-3.114338e+001	-1.003300e+002	-2.103416e+001	-7.589502e+001	-2.106595e+001	-7.565959e+001	-2.279363e+001	-1.103336e+002
2126500000.000	-3.046519e+001	-1.249785e+002	-2.084154e+001	-1.197076e+002	-2.081129e+001	-1.191422e+002	-2.304954e+001	-1.646748e+002
2131400000.000	-2.956011e+001	-1.432500e+002	-2.081990e+001	-1.652516e+002	-2.068552e+001	-1.648080e+002	-2.414545e+001	1.453497e+002
2136300000.000	-2.820826e+001	-1.587007e+002	-2.094772e+001	1.492487e+002	-2.072073e+001	1.489931e+002	-2.562838e+001	9.419942e+001
2141200000.000	-2.686202e+001	-1.751419e+002	-2.120338e+001	1.042227e+002	-2.101463e+001	1.029149e+002	-2.756067e+001	3.625443e+001
2146100000.000	-2.646157e+001	1.712947e+002	-2.147103e+001	6.036416e+001	-2.142766e+001	5.853599e+001	-2.870678e+001	-2.985750e+001
2151000000.000	-2.589389e+001	1.621363e+002	-2.164290e+001	1.667303e+001	-2.172904e+001	1.500829e+001	-2.754065e+001	-9.289413e+001
2155900000.000	-2.565799e+001	1.537400e+002	-2.186246e+001	-2.713343e+001	-2.201204e+001	-2.796455e+001	-2.552676e+001	-1.451612e+002
2160800000.000	-2.542479e+001	1.478251e+002	-2.207701e+001	-7.009596e+001	-2.217435e+001	-7.035520e+001	-2.410570e+001	1.685113e+002
2165700000.000	-2.494308e+001	1.416224e+002	-2.214802e+001	-1.128682e+002	-2.217065e+001	-1.130782e+002	-2.355942e+001	1.208249e+002
2170600000.000	-2.444182e+001	1.320539e+002	-2.223345e+001	-1.565757e+002	-2.223922e+001	-1.571797e+002	-2.377433e+001	6.481126e+001
2175500000.000	-2.440663e+001	1.213202e+002	-2.242591e+001	1.606444e+002	-2.250086e+001	1.598451e+002	-2.377539e+001	-1.949828e+000
2180400000.000	-2.439106e+001	1.120002e+002	-2.252835e+001	1.185526e+002	-2.264884e+001	1.180492e+002	-2.260208e+001	-6.993716e+001
2185300000.000	-2.420285e+001	1.018505e+002	-2.248636e+001	7.665815e+001	-2.261035e+001	7.673281e+001	-2.112198e+001	-1.308763e+002
2190200000.000	-2.394609e+001	9.110422e+001	-2.228017e+001	3.459537e+001	-2.235403e+001	3.520735e+001	-1.982669e+001	1.711947e+002
2195100000.000	-2.364384e+001	7.896185e+001	-2.199784e+001	-8.806023e+000	-2.194024e+001	-8.192947e+000	-1.882122e+001	1.114353e+002
2200000000.000	-2.365047e+001	6.542355e+001	-2.180937e+001	-5.264275e+001	-2.166732e+001	-5.288481e+001	-1.812559e+001	4.967379e+001
2204900000.000	-2.399037e+001	5.194581e+001	-2.160008e+001	-9.659752e+001	-2.156056e+001	-9.784872e+001	-1.786888e+001	-1.258321e+001
2209800000.000	-2.474198e+001	3.888610e+001	-2.139650e+001	-1.412240e+002	-2.154905e+001	-1.422775e+002	-1.783508e+001	-7.558950e+001
2214700000.000	-2.584745e+001	2.588820e+001	-2.128490e+001	1.736468e+002	-2.147694e+001	1.740748e+002	-1.752889e+001	-1.392676e+002
2219600000.000	-2.744899e+001	1.356597e+001	-2.130809e+001	1.286955e+002	-2.131429e+001	1.298503e+002	-1.678779e+001	1.570826e+002
2224500000.000	-2.919579e+001	1.690579e+000	-2.130529e+001	8.445163e+001	-2.111844e+001	8.471066e+001	-1.603845e+001	9.269385e+001
2229400000.000	-3.102631e+001	-9.995845e+000	-2.130943e+001	3.960175e+001	-2.117801e+001	3.815498e+001	-1.575132e+001	2.670916e+001
2234300000.000	-3.209117e+001	-2.400729e+001	-2.146133e+001	-4.486520e+000	-2.160702e+001	-6.319792e+000	-1.560005e+001	-3.899666e+001
2239200000.000	-3.311430e+001	-4.829083e+001	-2.144597e+001	-4.768326e+001	-2.178705e+001	-4.814446e+001	-1.523279e+001	-1.023863e+002
2244100000.000	-3.453768e+001	-7.603537e+001	-2.138992e+001	-9.170837e+001	-2.165155e+001	-9.011073e+001	-1.481534e+001	-1.630492e+002
2249000000.000	-3.593161e+001	-1.051857e+002	-2.133386e+001	-1.356822e+002	-2.127338e+001	-1.334384e+002	-1.456563e+001	1.351902e+002
2253900000.000	-3.673578e+001	-1.336831e+002	-2.127124e+001	-1.798909e+002	-2.096208e+001	-1.792797e+002	-1.468012e+001	6.843681e+001
2258800000.000	-3.697483e+001	-1.574078e+002	-2.122966e+001	1.359811e+002	-2.102761e+001	1.344098e+002	-1.506472e+001	-1.070967e+000
2263700000.000	-3.582357e+001	-1.707371e+002	-2.115005e+001	9.178324e+001	-2.124715e+001	9.015436e+001	-1.523518e+001	-6.824183e+001
2268600000.000	-3.308514e+001	1.732295e+002	-2.108305e+001	4.703933e+001	-2.129143e+001	4.710524e+001	-1.517433e+001	-1.314304e+002
2273500000.000	-3.121291e+001	1.539226e+002	-2.108878e+001	2.647437e+000	-2.108007e+001	3.871683e+000	-1.495402e+001	1.666369e+002
2278400000.000	-3.069417e+001	1.371820e+002	-2.100811e+001	-4.157825e+001	-2.074386e+001	-4.137192e+001	-1.497123e+001	1.027386e+002
2283300000.000	-3.108328e+001	1.302040e+002	-2.087261e+001	-8.674072e+001	-2.066161e+001	-8.866351e+001	-1.540512e+001	3.631806e+001
2288200000.000	-3.066728e+001	1.296088e+002	-2.094796e+001	-1.325609e+002	-2.102821e+001	-1.349677e+002	-1.614719e+001	-3.091910e+001
2293100000.000	-2.975278e+001	1.265317e+002	-2.110313e+001	-1.774883e+002	-2.137924e+001	-1.786150e+002	-1.652863e+001	-9.551870e+001
2298000000.000	-2.889724e+001	1.200342e+002	-2.120921e+001	1.378862e+002	-2.143810e+001	1.384333e+002	-1.645742e+001	-1.581981e+002
2302900000.000	-2.822131e+001	1.102915e+002	-2.136333e+001	9.282213e+001	-2.138152e+001	9.378244e+001	-1.658997e+001	1.383748e+002
2307800000.000	-2.807455e+001	1.006537e+002	-2.170630e+001	4.857393e+001	-2.157915e+001	4.863963e+001	-1.728129e+001	7.301449e+001
2312700000.000	-2.769111e+001	9.395961e+001	-2.197343e+001	6.154002e+000	-2.191095e+001	5.134431e+000	-1.811267e+001	7.227881e+000
2317600000.000	-2.670797e+001	8.700551e+001	-2.195928e+001	-3.574687e+001	-2.207329e+001	-3.693996e+001	-1.861585e+001	-5.628369e+001
2322500000.000	-2.543754e+001	7.717007e+001	-2.176302e+001	-7.827899e+001	-2.197312e+001	-7.837326e+001	-1.882773e+001	-1.179356e+002
2327400000.000	-2.442618e+001	6.403958e+001	-2.137380e+001	-1.219653e+002	-2.148773e+001	-1.208984e+002	-1.871531e+001	1.784037e+002
2332300000.000	-2.401574e+001	4.827046e+001	-2.095782e+001	-1.679586e+002	-2.086176e+001	-1.669364e+002	-1.846274e+001	1.092591e+002
2337200000.000	-2.466208e+001	3.220997e+001	-2.084332e+001	1.440047e+002	-2.067310e+001	1.436421e+002	-1.883888e+001	3.744490e+001
2342100000.000	-2.622617e+001	2.002305e+001	-2.119853e+001	9.636879e+001	-2.117200e+001	9.533449e+001	-2.061265e+001	-3.274728e+001
2347000000.000	-2.788890e+001	1.217174e+001	-2.170331e+001	5.119223e+001	-2.177699e+001	5.060810e+001	-2.330006e+001	-1.010280e+002
2351900000.000	-2.942478e+001	2.492330e+000	-2.208433e+001	7.040081e+000	-2.214156e+001	6.937559e+000	-2.601339e+001	-1.685259e+002
2356800000.000	-3.144789e+001	-9.401902e+000	-2.245636e+001	-3.674046e+001	-2.248603e+001	-3.694870e+001	-2.931100e+001	1.336687e+002
2361700000.000	-3.325874e+001	-2.405485e+001	-2.281824e+001	-7.948548e+001	-2.286288e+001	-7.977605e+001	-3.430063e+001	9.940324e+001
2366600000.000	-3.451231e+001	-4.608209e+001	-2.299642e+001	-1.215629e+002	-2.305301e+001	-1.216308e+002	-3.671529e+001	9.699793e+001
2371500000.000	-3.574261e+001	-7.592979e+001	-2.299005e+001	-1.643167e+002	-2.302767e+001	-1.643263e+002	-3.455594e+001	6.219448e+001
2376400000.000	-3.746194e+001	-1.031792e+002	-2.300325e+001	1.520072e+002	-2.301815e+001	1.518984e+002	-3.161181e+001	-2.012991e+000
2381300000.000	-3.942698e+001	-1.227923e+002	-2.309370e+001	1.080790e+002	-2.313590e+001	1.079391e+002	-2.727292e+001	-6.254186e+001
2386200000.000	-4.103881e+001	-1.404585e+002	-2.318658e+001	6.420199e+001	-2.330186e+001	6.444791e+001	-2.414718e+001	-1.161069e+002
2391100000.000	-4.225553e+001	-1.617233e+002	-2.335512e+001	2.029282e+001	-2.339872e+001	2.134063e+001	-2.270155e+001	-1.684084e+002
2396000000.000	-4.152706e+001	1.705092e+002	-2.355676e+001	-2.279905e+001	-2.341524e+001	-2.189427e+001	-2.218435e+001	1.330358e+002
2400900000.000	-3.954482e+001	1.405630e+002	-2.365891e+001	-6.571071e+001	-2.345487e+001	-6.586747e+001	-2.155693e+001	6.590363e+001
2405800000.000	-3.858445e+001	1.192851e+002	-2.374708e+001	-1.087977e+002	-2.365063e+001	-1.099337e+002	-2.044454e+001	-2.075301e+000
2410700000.000	-3.868538e+001	1.174034e+002	-2.383532e+001	-1.515651e+002	-2.389406e+001	-1.526327e+002	-1.948968e+001	-6.554187e+001
2415600000.000	-3.701455e+001	1.284510e+002	-2.387064e+001	1.658537e+002	-2.397600e+001	1.655826e+002	-1.883633e+001	-1.274342e+002
2420500000.000	-3.438865e+001	1.310746e+002	-2.382745e+001	1.230432e+002	-2.386549e+001	1.234502e+002	-1.814008e+001	1.693865e+002
2425400000.000	-3.229738e+001	1.285924e+002	-2.376008e+001	7.993056e+001	-2.367379e+001	8.028632e+001	-1.720370e+001	1.057753e+002
2430300000.000	-3.045024e+001	1.240642e+002	-2.364444e+001	3.646114e+001	-2.346849e+001	3.587401e+001	-1.661312e+001	4.171722e+001
2435200000.000	-2.848686e+001	1.143997e+002	-2.356708e+001	-7.577195e+000	-2.351944e+001	-9.573632e+000	-1.672398e+001	-2.193944e+001
