!Agilent Technologies,E5061B,MY49305579,A.02.22
!Date: Thu Aug 24 16:23:53 2017
!Data & Calibration Information:
!Freq	S11:SOLT2(ON)	S21:SOLT2(ON)	S12:SOLT2(ON)	S22:SOLT2(ON)
# Hz S dB R 50
1710000000.000	-2.572616e+001	-1.114189e+002	-2.058615e+001	-8.267129e+001	-2.049856e+001	-8.218823e+001	-2.806562e+001	-1.357483e+002
1714900000.000	-2.386613e+001	-1.300653e+002	-2.080969e+001	-1.305478e+002	-2.068200e+001	-1.307501e+002	-2.888247e+001	1.515452e+002
1719800000.000	-2.295280e+001	-1.494029e+002	-2.098365e+001	-1.777735e+002	-2.094348e+001	-1.781942e+002	-3.208831e+001	6.090242e+001
1724700000.000	-2.252161e+001	-1.674128e+002	-2.127041e+001	1.352473e+002	-2.124355e+001	1.352469e+002	-2.908305e+001	-5.594844e+001
1729600000.000	-2.248996e+001	1.751089e+002	-2.151265e+001	8.994470e+001	-2.144635e+001	8.972941e+001	-2.359822e+001	-1.290433e+002
1734500000.000	-2.302779e+001	1.596803e+002	-2.147471e+001	4.403249e+001	-2.150113e+001	4.377272e+001	-2.080352e+001	1.714533e+002
1739400000.000	-2.401420e+001	1.467470e+002	-2.159500e+001	-3.477340e+000	-2.156544e+001	-2.945651e+000	-2.011366e+001	1.109237e+002
1744300000.000	-2.535515e+001	1.373531e+002	-2.196299e+001	-4.992624e+001	-2.174470e+001	-5.014164e+001	-2.061149e+001	4.023549e+001
1749200000.000	-2.689782e+001	1.310639e+002	-2.214862e+001	-9.455659e+001	-2.210250e+001	-9.686132e+001	-2.015989e+001	-4.011362e+001
1754100000.000	-2.838456e+001	1.264993e+002	-2.211219e+001	-1.411103e+002	-2.245014e+001	-1.420549e+002	-1.841608e+001	-1.126468e+002
1759000000.000	-3.007746e+001	1.217205e+002	-2.243106e+001	1.711679e+002	-2.264458e+001	1.731162e+002	-1.724560e+001	-1.757109e+002
1763900000.000	-3.218754e+001	1.164822e+002	-2.302371e+001	1.262427e+002	-2.279687e+001	1.276451e+002	-1.720594e+001	1.216041e+002
1768800000.000	-3.534904e+001	1.132801e+002	-2.320567e+001	8.338177e+001	-2.302739e+001	8.195542e+001	-1.762231e+001	5.191075e+001
1773700000.000	-3.996322e+001	1.272818e+002	-2.316584e+001	3.799100e+001	-2.338900e+001	3.680988e+001	-1.736623e+001	-2.275988e+001
1778600000.000	-4.018114e+001	1.685877e+002	-2.355570e+001	-7.700951e+000	-2.375022e+001	-6.495213e+000	-1.644532e+001	-9.265052e+001
1783500000.000	-3.564222e+001	-1.778843e+002	-2.388207e+001	-5.012220e+001	-2.378671e+001	-4.880309e+001	-1.576356e+001	-1.569662e+002
1788400000.000	-3.224976e+001	1.735382e+002	-2.371727e+001	-9.256636e+001	-2.359999e+001	-9.254109e+001	-1.573771e+001	1.384508e+002
1793300000.000	-3.035292e+001	1.601823e+002	-2.353497e+001	-1.378584e+002	-2.349593e+001	-1.378383e+002	-1.646568e+001	7.020028e+001
1798200000.000	-2.939436e+001	1.447987e+002	-2.370738e+001	1.774003e+002	-2.357595e+001	1.772537e+002	-1.735675e+001	-1.561266e+000
1803100000.000	-2.940500e+001	1.283293e+002	-2.375244e+001	1.351705e+002	-2.368811e+001	1.338699e+002	-1.774395e+001	-7.154959e+001
1808000000.000	-3.030013e+001	1.096804e+002	-2.330061e+001	9.222161e+001	-2.351584e+001	9.150385e+001	-1.778361e+001	-1.347743e+002
1812900000.000	-3.236800e+001	8.608298e+001	-2.286555e+001	4.652118e+001	-2.304337e+001	4.767180e+001	-1.818124e+001	1.665858e+002
1817800000.000	-3.549974e+001	4.871766e+001	-2.273839e+001	5.833397e-001	-2.259616e+001	1.886567e+000	-1.936365e+001	1.070055e+002
1822700000.000	-3.729107e+001	-1.327680e+001	-2.248904e+001	-4.394891e+001	-2.227897e+001	-4.443553e+001	-2.098910e+001	4.278527e+001
1827600000.000	-3.413083e+001	-6.158464e+001	-2.203931e+001	-8.992389e+001	-2.206586e+001	-9.100327e+001	-2.161313e+001	-2.445143e+001
1832500000.000	-3.120521e+001	-8.960300e+001	-2.172294e+001	-1.374135e+002	-2.187407e+001	-1.372022e+002	-2.134969e+001	-8.657378e+001
1837400000.000	-2.944327e+001	-1.067896e+002	-2.163516e+001	1.753615e+002	-2.163266e+001	1.765427e+002	-2.114622e+001	-1.427863e+002
1842300000.000	-2.772194e+001	-1.212190e+002	-2.151815e+001	1.289446e+002	-2.134785e+001	1.293996e+002	-2.165814e+001	1.608430e+002
1847200000.000	-2.660503e+001	-1.383181e+002	-2.126057e+001	8.194804e+001	-2.115249e+001	8.155307e+001	-2.291619e+001	9.825058e+001
1852100000.000	-2.614100e+001	-1.532082e+002	-2.112784e+001	3.331133e+001	-2.110783e+001	3.323797e+001	-2.453645e+001	2.535160e+001
1857000000.000	-2.589438e+001	-1.679328e+002	-2.126819e+001	-1.480248e+001	-2.119496e+001	-1.467073e+001	-2.537551e+001	-5.337443e+001
1861900000.000	-2.589079e+001	-1.787228e+002	-2.138431e+001	-6.190917e+001	-2.131506e+001	-6.209585e+001	-2.506643e+001	-1.277001e+002
1866800000.000	-2.563421e+001	1.727754e+002	-2.148881e+001	-1.094993e+002	-2.144363e+001	-1.096266e+002	-2.529580e+001	1.663304e+002
1871700000.000	-2.545453e+001	1.657668e+002	-2.176008e+001	-1.569744e+002	-2.164211e+001	-1.569914e+002	-2.798560e+001	1.019934e+002
1876600000.000	-2.499103e+001	1.604301e+002	-2.202823e+001	1.567449e+002	-2.192907e+001	1.557936e+002	-3.587001e+001	8.449721e+000
1881500000.000	-2.442980e+001	1.529047e+002	-2.220364e+001	1.103146e+002	-2.223742e+001	1.092022e+002	-3.209773e+001	-1.324067e+002
1886400000.000	-2.420584e+001	1.429199e+002	-2.252813e+001	6.338552e+001	-2.257240e+001	6.296856e+001	-2.837375e+001	1.568483e+002
1891300000.000	-2.464251e+001	1.314303e+002	-2.283097e+001	1.795640e+001	-2.282382e+001	1.714450e+001	-2.914155e+001	7.905880e+001
1896200000.000	-2.583761e+001	1.203158e+002	-2.300255e+001	-2.842168e+001	-2.314041e+001	-2.954935e+001	-2.777036e+001	-2.183510e+001
1901100000.000	-2.723574e+001	1.149234e+002	-2.340677e+001	-7.512240e+001	-2.366551e+001	-7.508205e+001	-2.332615e+001	-9.742928e+001
1906000000.000	-2.840117e+001	1.047469e+002	-2.390368e+001	-1.208407e+002	-2.400459e+001	-1.195287e+002	-2.059532e+001	-1.569337e+002
1910900000.000	-3.053651e+001	9.616690e+001	-2.441673e+001	-1.651657e+002	-2.430212e+001	-1.645409e+002	-1.958632e+001	1.422335e+002
1915800000.000	-3.288350e+001	9.104997e+001	-2.477066e+001	1.508326e+002	-2.471538e+001	1.504598e+002	-1.923782e+001	7.361857e+001
1920700000.000	-3.584521e+001	9.492424e+001	-2.525885e+001	1.066766e+002	-2.527773e+001	1.065543e+002	-1.851761e+001	-2.317497e-001
1925600000.000	-3.652190e+001	1.094285e+002	-2.574875e+001	6.477950e+001	-2.575359e+001	6.480104e+001	-1.742300e+001	-7.026160e+001
1930500000.000	-3.568930e+001	1.126905e+002	-2.588723e+001	2.427078e+001	-2.595626e+001	2.412149e+001	-1.636265e+001	-1.352167e+002
1935400000.000	-3.513059e+001	1.081727e+002	-2.559983e+001	-1.767359e+001	-2.568150e+001	-1.673585e+001	-1.548491e+001	1.605046e+002
1940300000.000	-3.648371e+001	9.547896e+001	-2.552757e+001	-6.251644e+001	-2.531801e+001	-6.109840e+001	-1.487250e+001	9.405388e+001
1945200000.000	-4.077220e+001	9.447382e+001	-2.565150e+001	-1.051430e+002	-2.529646e+001	-1.062394e+002	-1.462899e+001	2.497240e+001
1950100000.000	-4.614355e+001	1.313379e+002	-2.544557e+001	-1.474431e+002	-2.547313e+001	-1.502083e+002	-1.448059e+001	-4.421780e+001
1955000000.000	-4.293157e+001	-1.692638e+002	-2.513580e+001	1.687643e+002	-2.552907e+001	1.683728e+002	-1.403972e+001	-1.097343e+002
1959900000.000	-3.542281e+001	-1.640925e+002	-2.498467e+001	1.238701e+002	-2.507719e+001	1.263821e+002	-1.328505e+001	-1.719976e+002
1964800000.000	-3.217075e+001	1.778066e+002	-2.495918e+001	8.065377e+001	-2.461466e+001	8.173668e+001	-1.278830e+001	1.248042e+002
1969700000.000	-3.064089e+001	1.607641e+002	-2.452571e+001	3.778310e+001	-2.429787e+001	3.591159e+001	-1.292593e+001	5.780800e+001
1974600000.000	-3.011885e+001	1.381550e+002	-2.410283e+001	-8.189335e+000	-2.427866e+001	-9.717539e+000	-1.344624e+001	-1.239675e+001
1979500000.000	-3.153896e+001	1.182540e+002	-2.404398e+001	-5.349455e+001	-2.421552e+001	-5.324134e+001	-1.372892e+001	-8.164451e+001
1984400000.000	-3.327229e+001	1.051831e+002	-2.376996e+001	-9.731313e+001	-2.381884e+001	-9.672114e+001	-1.352108e+001	-1.472226e+002
1989300000.000	-3.579368e+001	8.964323e+001	-2.329993e+001	-1.429101e+002	-2.331670e+001	-1.419160e+002	-1.314607e+001	1.487372e+002
1994200000.000	-4.169460e+001	8.001963e+001	-2.303035e+001	1.700431e+002	-2.286950e+001	1.712301e+002	-1.317909e+001	8.166158e+001
1999100000.000	-5.411434e+001	1.740467e+002	-2.302528e+001	1.238266e+002	-2.270046e+001	1.232934e+002	-1.382350e+001	1.130716e+001
2004000000.000	-3.879705e+001	-1.475385e+002	-2.290939e+001	7.931845e+001	-2.283716e+001	7.688454e+001	-1.453105e+001	-5.939153e+001
2008900000.000	-3.345213e+001	-1.550981e+002	-2.249753e+001	3.376256e+001	-2.277338e+001	3.293728e+001	-1.471046e+001	-1.263842e+002
2013800000.000	-3.012110e+001	-1.634285e+002	-2.220790e+001	-1.389483e+001	-2.228707e+001	-1.222704e+001	-1.493470e+001	1.684583e+002
2018700000.000	-2.795898e+001	-1.724165e+002	-2.221567e+001	-6.098382e+001	-2.187859e+001	-6.076616e+001	-1.619128e+001	1.011336e+002
2023600000.000	-2.652613e+001	1.772905e+002	-2.208382e+001	-1.071147e+002	-2.190823e+001	-1.095538e+002	-1.859199e+001	2.873153e+001
2028500000.000	-2.591811e+001	1.673004e+002	-2.194016e+001	-1.549021e+002	-2.214990e+001	-1.568911e+002	-2.049721e+001	-4.865858e+001
2033400000.000	-2.572748e+001	1.587455e+002	-2.209701e+001	1.573076e+002	-2.231997e+001	1.572370e+002	-2.136079e+001	-1.204746e+002
2038300000.000	-2.557919e+001	1.500354e+002	-2.230387e+001	1.109583e+002	-2.235560e+001	1.112410e+002	-2.295983e+001	1.767044e+002
2043200000.000	-2.568846e+001	1.406425e+002	-2.243933e+001	6.468625e+001	-2.244733e+001	6.453614e+001	-2.714041e+001	1.166661e+002
2048100000.000	-2.580515e+001	1.309866e+002	-2.266432e+001	1.845403e+001	-2.268397e+001	1.831879e+001	-3.812892e+001	4.366598e+001
2053000000.000	-2.580971e+001	1.212112e+002	-2.291209e+001	-2.708469e+001	-2.291822e+001	-2.709539e+001	-3.663428e+001	-1.585489e+002
2057900000.000	-2.576507e+001	1.105968e+002	-2.313503e+001	-7.169809e+001	-2.309708e+001	-7.188572e+001	-3.073439e+001	1.253936e+002
2062800000.000	-2.571184e+001	9.888331e+001	-2.327435e+001	-1.161320e+002	-2.321385e+001	-1.164845e+002	-2.843263e+001	4.779328e+001
2067700000.000	-2.599807e+001	8.751422e+001	-2.334593e+001	-1.603532e+002	-2.330323e+001	-1.612274e+002	-2.619832e+001	-3.213297e+001
2072600000.000	-2.647060e+001	7.775535e+001	-2.331424e+001	1.552449e+002	-2.339184e+001	1.543658e+002	-2.360469e+001	-1.042576e+002
2077500000.000	-2.687240e+001	6.952956e+001	-2.329650e+001	1.102277e+002	-2.342426e+001	1.103286e+002	-2.121398e+001	-1.680991e+002
2082400000.000	-2.749314e+001	6.044538e+001	-2.333237e+001	6.559442e+001	-2.328931e+001	6.625672e+001	-1.957309e+001	1.312064e+002
2087300000.000	-2.805341e+001	5.218079e+001	-2.333855e+001	2.109942e+001	-2.313706e+001	2.052983e+001	-1.869938e+001	6.844966e+001
2092200000.000	-2.849824e+001	3.880336e+001	-2.327923e+001	-2.302062e+001	-2.323277e+001	-2.489549e+001	-1.818584e+001	1.309475e+000
2097100000.000	-2.946852e+001	2.230460e+001	-2.310968e+001	-6.776156e+001	-2.332947e+001	-6.914730e+001	-1.738893e+001	-6.588313e+001
2102000000.000	-3.036964e+001	5.386045e+000	-2.306185e+001	-1.129263e+002	-2.331224e+001	-1.124996e+002	-1.622200e+001	-1.289450e+002
2106900000.000	-3.090183e+001	-1.603946e+001	-2.288611e+001	-1.568782e+002	-2.294272e+001	-1.556310e+002	-1.525542e+001	1.700716e+002
2111800000.000	-3.119535e+001	-4.090754e+001	-2.254758e+001	1.573761e+002	-2.239948e+001	1.582082e+002	-1.480397e+001	1.064253e+002
2116700000.000	-3.135848e+001	-6.623496e+001	-2.240244e+001	1.103340e+002	-2.222181e+001	1.102046e+002	-1.478343e+001	3.840232e+001
2121600000.000	-3.078992e+001	-8.949062e+001	-2.250167e+001	6.405896e+001	-2.243603e+001	6.306567e+001	-1.469923e+001	-2.994922e+001
2126500000.000	-2.988900e+001	-1.130642e+002	-2.255398e+001	1.937694e+001	-2.264627e+001	1.864943e+001	-1.427130e+001	-9.435572e+001
2131400000.000	-2.878722e+001	-1.328902e+002	-2.240948e+001	-2.566888e+001	-2.254297e+001	-2.480782e+001	-1.371011e+001	-1.557715e+002
2136300000.000	-2.737038e+001	-1.503518e+002	-2.229539e+001	-7.136254e+001	-2.211372e+001	-6.945689e+001	-1.319962e+001	1.422974e+002
2141200000.000	-2.604367e+001	-1.681646e+002	-2.229626e+001	-1.170527e+002	-2.175393e+001	-1.172331e+002	-1.306722e+001	7.649601e+001
2146100000.000	-2.552550e+001	1.775058e+002	-2.216029e+001	-1.617760e+002	-2.185219e+001	-1.654989e+002	-1.336668e+001	7.308028e+000
2151000000.000	-2.481031e+001	1.668130e+002	-2.194874e+001	1.523688e+002	-2.223202e+001	1.486958e+002	-1.351841e+001	-6.156910e+001
2155900000.000	-2.434625e+001	1.571555e+002	-2.184821e+001	1.059263e+002	-2.232441e+001	1.055309e+002	-1.318217e+001	-1.267196e+002
2160800000.000	-2.386790e+001	1.482023e+002	-2.185127e+001	6.011629e+001	-2.197216e+001	6.194213e+001	-1.256771e+001	1.710191e+002
2165700000.000	-2.340254e+001	1.379365e+002	-2.170084e+001	1.497229e+001	-2.146625e+001	1.530304e+001	-1.226386e+001	1.066593e+002
2170600000.000	-2.312314e+001	1.255089e+002	-2.138343e+001	-3.160169e+001	-2.125711e+001	-3.351387e+001	-1.254883e+001	3.728161e+001
2175500000.000	-2.331424e+001	1.118656e+002	-2.132485e+001	-7.981462e+001	-2.152018e+001	-8.174690e+001	-1.311603e+001	-3.392433e+001
2180400000.000	-2.374862e+001	9.899110e+001	-2.148937e+001	-1.266494e+002	-2.181788e+001	-1.269096e+002	-1.331494e+001	-1.012624e+002
2185300000.000	-2.425622e+001	8.669946e+001	-2.152932e+001	-1.724852e+002	-2.173901e+001	-1.712180e+002	-1.321075e+001	-1.654071e+002
2190200000.000	-2.482847e+001	7.488706e+001	-2.147339e+001	1.407875e+002	-2.140954e+001	1.424444e+002	-1.314294e+001	1.292139e+002
2195100000.000	-2.558850e+001	6.451443e+001	-2.153882e+001	9.332066e+001	-2.128607e+001	9.348586e+001	-1.353963e+001	6.059118e+001
2200000000.000	-2.649960e+001	5.538772e+001	-2.177587e+001	4.643646e+001	-2.164552e+001	4.481016e+001	-1.459465e+001	-8.190012e+000
2204900000.000	-2.763779e+001	4.917673e+001	-2.199560e+001	2.212222e-001	-2.214883e+001	-1.177328e+000	-1.605836e+001	-7.524630e+001
2209800000.000	-2.879746e+001	4.682689e+001	-2.223936e+001	-4.593720e+001	-2.241885e+001	-4.572999e+001	-1.745923e+001	-1.420269e+002
2214700000.000	-2.948311e+001	4.612803e+001	-2.252523e+001	-9.177593e+001	-2.251284e+001	-9.106093e+001	-1.870303e+001	1.509317e+002
2219600000.000	-2.984906e+001	4.465560e+001	-2.284382e+001	-1.369186e+002	-2.272124e+001	-1.371541e+002	-2.042362e+001	8.526917e+001
2224500000.000	-2.975096e+001	3.992500e+001	-2.309499e+001	1.784058e+002	-2.306931e+001	1.773983e+002	-2.322002e+001	2.327224e+001
2229400000.000	-2.953677e+001	2.998766e+001	-2.335594e+001	1.340606e+002	-2.343883e+001	1.331191e+002	-2.680966e+001	-3.392127e+001
2234300000.000	-2.932679e+001	1.372812e+001	-2.356432e+001	9.047656e+001	-2.369419e+001	9.003268e+001	-2.996132e+001	-7.796976e+001
2239200000.000	-2.953960e+001	-7.593993e+000	-2.358279e+001	4.716193e+001	-2.373916e+001	4.710947e+001	-2.975447e+001	-1.014716e+002
2244100000.000	-2.992256e+001	-3.105826e+001	-2.351162e+001	3.200401e+000	-2.367408e+001	3.696732e+000	-2.631187e+001	-1.330822e+002
2249000000.000	-3.027184e+001	-5.575336e+001	-2.343653e+001	-4.142317e+001	-2.352590e+001	-4.025106e+001	-2.371951e+001	-1.787862e+002
2253900000.000	-3.027615e+001	-8.210686e+001	-2.341383e+001	-8.620879e+001	-2.333701e+001	-8.486635e+001	-2.244640e+001	1.279202e+002
2258800000.000	-2.992252e+001	-1.093700e+002	-2.344267e+001	-1.307167e+002	-2.321188e+001	-1.302342e+002	-2.169291e+001	6.624845e+001
2263700000.000	-2.885660e+001	-1.356160e+002	-2.342751e+001	-1.743721e+002	-2.321415e+001	-1.753595e+002	-2.076150e+001	-1.404549e+000
2268600000.000	-2.728325e+001	-1.627375e+002	-2.317387e+001	1.418722e+002	-2.315648e+001	1.403655e+002	-1.959393e+001	-6.918670e+001
2273500000.000	-2.596171e+001	1.714847e+002	-2.287685e+001	9.694237e+001	-2.299398e+001	9.625918e+001	-1.853322e+001	-1.327379e+002
2278400000.000	-2.524946e+001	1.485908e+002	-2.261766e+001	5.158285e+001	-2.262532e+001	5.181305e+001	-1.761943e+001	1.660758e+002
2283300000.000	-2.509959e+001	1.297504e+002	-2.231860e+001	5.716545e+000	-2.218535e+001	5.511744e+000	-1.696262e+001	1.039334e+002
2288200000.000	-2.528962e+001	1.138499e+002	-2.205627e+001	-4.107165e+001	-2.194372e+001	-4.263547e+001	-1.671279e+001	3.880293e+001
2293100000.000	-2.579154e+001	9.900364e+001	-2.191849e+001	-8.839553e+001	-2.202716e+001	-9.041529e+001	-1.667211e+001	-2.779134e+001
2298000000.000	-2.682239e+001	8.451546e+001	-2.189285e+001	-1.357578e+002	-2.219136e+001	-1.367332e+002	-1.648541e+001	-9.234011e+001
2302900000.000	-2.839364e+001	7.176439e+001	-2.196317e+001	1.772752e+002	-2.224166e+001	1.779107e+002	-1.608728e+001	-1.534346e+002
2307800000.000	-3.072861e+001	6.446448e+001	-2.203342e+001	1.302584e+002	-2.208057e+001	1.318306e+002	-1.566980e+001	1.454225e+002
2312700000.000	-3.277018e+001	7.072678e+001	-2.222037e+001	8.340822e+001	-2.202729e+001	8.414586e+001	-1.540843e+001	8.120803e+001
2317600000.000	-3.203490e+001	8.505283e+001	-2.244867e+001	3.714079e+001	-2.226946e+001	3.609814e+001	-1.527661e+001	1.493478e+001
2322500000.000	-2.929152e+001	8.689456e+001	-2.268734e+001	-8.530591e+000	-2.276170e+001	-1.034586e+001	-1.527114e+001	-4.957855e+001
2327400000.000	-2.703748e+001	7.749734e+001	-2.290392e+001	-5.407689e+001	-2.318120e+001	-5.443492e+001	-1.521311e+001	-1.115797e+002
2332300000.000	-2.585492e+001	6.345354e+001	-2.311385e+001	-9.922918e+001	-2.327566e+001	-9.774344e+001	-1.487863e+001	-1.738040e+002
2337200000.000	-2.580026e+001	4.999783e+001	-2.330390e+001	-1.440679e+002	-2.313732e+001	-1.425173e+002	-1.416319e+001	1.221846e+002
2342100000.000	-2.640125e+001	3.967671e+001	-2.349101e+001	1.710113e+002	-2.317101e+001	1.706502e+002	-1.354853e+001	5.666646e+001
2347000000.000	-2.703166e+001	3.137581e+001	-2.372484e+001	1.266837e+002	-2.360740e+001	1.244340e+002	-1.348050e+001	-9.359029e+000
2351900000.000	-2.767967e+001	2.004980e+001	-2.393246e+001	8.343849e+001	-2.414166e+001	8.140802e+001	-1.373556e+001	-7.485743e+001
2356800000.000	-2.886343e+001	5.740649e+000	-2.388124e+001	4.089924e+001	-2.422394e+001	4.095952e+001	-1.366700e+001	-1.389344e+002
2361700000.000	-3.006420e+001	-1.117645e+001	-2.356293e+001	-2.982828e+000	-2.372718e+001	-1.058859e+000	-1.327494e+001	1.578816e+002
2366600000.000	-3.106262e+001	-3.342112e+001	-2.338641e+001	-4.869797e+001	-2.317169e+001	-4.721938e+001	-1.312270e+001	9.342096e+001
2371500000.000	-3.210402e+001	-5.981687e+001	-2.339839e+001	-9.384035e+001	-2.311918e+001	-9.494200e+001	-1.343648e+001	2.628691e+001
2376400000.000	-3.323925e+001	-8.433245e+001	-2.333183e+001	-1.382624e+002	-2.340991e+001	-1.405841e+002	-1.379798e+001	-4.071971e+001
2381300000.000	-3.431535e+001	-1.051758e+002	-2.316567e+001	1.768912e+002	-2.356846e+001	1.763629e+002	-1.385725e+001	-1.030779e+002
2386200000.000	-3.534484e+001	-1.250590e+002	-2.302925e+001	1.315250e+002	-2.329683e+001	1.339114e+002	-1.375688e+001	-1.620622e+002
2391100000.000	-3.610029e+001	-1.476702e+002	-2.293816e+001	8.641114e+001	-2.273603e+001	8.911917e+001	-1.381666e+001	1.363759e+002
2396000000.000	-3.629475e+001	-1.757781e+002	-2.270496e+001	4.159149e+001	-2.228693e+001	4.149082e+001	-1.411869e+001	6.868102e+001
2400900000.000	-3.576262e+001	1.541107e+002	-2.240698e+001	-5.102211e+000	-2.225019e+001	-7.298277e+000	-1.459495e+001	-3.023975e-001
2405800000.000	-3.531877e+001	1.320233e+002	-2.248413e+001	-5.258838e+001	-2.263376e+001	-5.409602e+001	-1.511852e+001	-6.423317e+001
2410700000.000	-3.497748e+001	1.243602e+002	-2.273176e+001	-9.765417e+001	-2.290789e+001	-9.764628e+001	-1.567701e+001	-1.246221e+002
2415600000.000	-3.348425e+001	1.238121e+002	-2.274744e+001	-1.411971e+002	-2.277437e+001	-1.404698e+002	-1.620685e+001	1.739128e+002
2420500000.000	-3.172573e+001	1.184675e+002	-2.246692e+001	1.753788e+002	-2.236616e+001	1.757069e+002	-1.663382e+001	1.110221e+002
2425400000.000	-3.083823e+001	1.101074e+002	-2.193794e+001	1.304355e+002	-2.177490e+001	1.298341e+002	-1.703339e+001	4.769144e+001
2430300000.000	-3.062814e+001	1.049567e+002	-2.140935e+001	8.295985e+001	-2.136850e+001	8.141966e+001	-1.815729e+001	-1.621264e+001
2435200000.000	-2.977228e+001	1.014231e+002	-2.111621e+001	3.420867e+001	-2.126473e+001	3.280082e+001	-2.011071e+001	-7.867768e+001
