!Agilent Technologies,E5061B,MY49305579,A.02.22
!Date: Thu Aug 24 16:24:03 2017
!Data & Calibration Information:
!Freq	S11:SOLT2(ON)	S21:SOLT2(ON)	S12:SOLT2(ON)	S22:SOLT2(ON)
# Hz S dB R 50
1710000000.000	-2.572499e+001	-1.350009e+002	-1.909852e+001	-1.466541e+002	-1.894257e+001	-1.488097e+002	-1.650317e+001	5.197982e+001
1714900000.000	-2.474084e+001	-1.488062e+002	-1.880680e+001	1.638542e+002	-1.898580e+001	1.628721e+002	-1.656309e+001	-1.231271e+001
1719800000.000	-2.443871e+001	-1.643205e+002	-1.897151e+001	1.153089e+002	-1.904496e+001	1.161140e+002	-1.580674e+001	-7.594309e+001
1724700000.000	-2.442868e+001	-1.781183e+002	-1.909394e+001	7.017423e+001	-1.897579e+001	7.036827e+001	-1.489337e+001	-1.358714e+002
1729600000.000	-2.474954e+001	1.684075e+002	-1.859460e+001	2.459396e+001	-1.861218e+001	2.414188e+001	-1.412493e+001	1.666175e+002
1734500000.000	-2.560672e+001	1.578841e+002	-1.819336e+001	-2.539264e+001	-1.823071e+001	-2.444406e+001	-1.400009e+001	1.062013e+002
1739400000.000	-2.670693e+001	1.520979e+002	-1.843174e+001	-7.526967e+001	-1.813114e+001	-7.461000e+001	-1.463426e+001	3.948297e+001
1744300000.000	-2.758952e+001	1.513428e+002	-1.867792e+001	-1.215842e+002	-1.843311e+001	-1.239830e+002	-1.526343e+001	-3.162117e+001
1749200000.000	-2.784746e+001	1.508847e+002	-1.848640e+001	-1.685934e+002	-1.880196e+001	-1.710347e+002	-1.501229e+001	-9.913991e+001
1754100000.000	-2.793502e+001	1.477355e+002	-1.855946e+001	1.416644e+002	-1.896854e+001	1.429572e+002	-1.455163e+001	-1.604744e+002
1759000000.000	-2.833707e+001	1.414506e+002	-1.908917e+001	9.390482e+001	-1.895426e+001	9.649013e+001	-1.463572e+001	1.396537e+002
1763900000.000	-2.901782e+001	1.327781e+002	-1.937818e+001	4.917459e+001	-1.900536e+001	4.847901e+001	-1.552131e+001	7.454582e+001
1768800000.000	-3.048149e+001	1.220517e+002	-1.927737e+001	3.319314e+000	-1.936021e+001	8.792645e-001	-1.658774e+001	4.329882e+000
1773700000.000	-3.293633e+001	1.143763e+002	-1.937652e+001	-4.478000e+001	-1.972546e+001	-4.475094e+001	-1.700785e+001	-6.445868e+001
1778600000.000	-3.617672e+001	1.145347e+002	-1.980752e+001	-9.136566e+001	-1.990832e+001	-8.956832e+001	-1.714029e+001	-1.261475e+002
1783500000.000	-3.860605e+001	1.334457e+002	-2.005736e+001	-1.353937e+002	-1.993386e+001	-1.345419e+002	-1.781164e+001	1.765333e+002
1788400000.000	-3.703552e+001	1.516440e+002	-1.995322e+001	1.797281e+002	-1.988322e+001	1.796598e+002	-1.927665e+001	1.208690e+002
1793300000.000	-3.485975e+001	1.546977e+002	-1.991178e+001	1.329706e+002	-1.987706e+001	1.331102e+002	-2.133415e+001	6.398975e+001
1798200000.000	-3.326561e+001	1.491946e+002	-2.009906e+001	8.657599e+001	-2.000505e+001	8.660900e+001	-2.307883e+001	6.930703e+000
1803100000.000	-3.265611e+001	1.393337e+002	-2.026002e+001	4.149938e+001	-2.018236e+001	4.078998e+001	-2.318990e+001	-4.859127e+001
1808000000.000	-3.306748e+001	1.262178e+002	-2.023316e+001	-3.493958e+000	-2.029321e+001	-4.464019e+000	-2.189714e+001	-9.897784e+001
1812900000.000	-3.521255e+001	1.089531e+002	-2.017204e+001	-4.964405e+001	-2.038177e+001	-4.961188e+001	-2.015258e+001	-1.469159e+002
1817800000.000	-4.035819e+001	7.759856e+001	-2.028596e+001	-9.605990e+001	-2.037302e+001	-9.431733e+001	-1.883420e+001	1.624468e+002
1822700000.000	-4.591816e+001	-3.005266e+001	-2.049594e+001	-1.409748e+002	-2.022948e+001	-1.396922e+002	-1.803161e+001	1.044204e+002
1827600000.000	-3.752771e+001	-8.501918e+001	-2.042197e+001	1.751978e+002	-2.015448e+001	1.737382e+002	-1.753889e+001	3.806726e+001
1832500000.000	-3.359793e+001	-1.054715e+002	-2.010962e+001	1.292321e+002	-2.027254e+001	1.274393e+002	-1.690227e+001	-2.899513e+001
1837400000.000	-3.166885e+001	-1.175612e+002	-2.013297e+001	8.151918e+001	-2.041063e+001	8.239336e+001	-1.604219e+001	-9.052006e+001
1842300000.000	-3.007921e+001	-1.285059e+002	-2.043968e+001	3.629286e+001	-2.037518e+001	3.831203e+001	-1.529764e+001	-1.487697e+002
1847200000.000	-2.926183e+001	-1.411761e+002	-2.032856e+001	-7.018457e+000	-2.007768e+001	-6.676929e+000	-1.482435e+001	1.520141e+002
1852100000.000	-2.883034e+001	-1.501700e+002	-1.991848e+001	-5.289631e+001	-1.984201e+001	-5.345449e+001	-1.462505e+001	8.882955e+001
1857000000.000	-2.828782e+001	-1.588176e+002	-1.986121e+001	-1.010876e+002	-1.981348e+001	-1.008490e+002	-1.463133e+001	2.229951e+001
1861900000.000	-2.755953e+001	-1.643650e+002	-2.019909e+001	-1.467965e+002	-2.000631e+001	-1.470828e+002	-1.456726e+001	-4.453287e+001
1866800000.000	-2.623613e+001	-1.703175e+002	-2.012554e+001	1.702454e+002	-2.010015e+001	1.686474e+002	-1.407256e+001	-1.083752e+002
1871700000.000	-2.492495e+001	-1.780361e+002	-1.958100e+001	1.247975e+002	-1.982589e+001	1.246879e+002	-1.325243e+001	-1.687654e+002
1876600000.000	-2.360359e+001	1.726932e+002	-1.936840e+001	7.594196e+001	-1.932194e+001	7.842465e+001	-1.250686e+001	1.307097e+002
1881500000.000	-2.259026e+001	1.601613e+002	-1.967055e+001	2.939859e+001	-1.906639e+001	2.939269e+001	-1.225256e+001	6.528576e+001
1886400000.000	-2.218947e+001	1.455383e+002	-1.948781e+001	-1.404198e+001	-1.923169e+001	-1.901294e+001	-1.235797e+001	-4.118745e+000
1891300000.000	-2.248960e+001	1.296430e+002	-1.888333e+001	-6.176828e+001	-1.952594e+001	-6.545944e+001	-1.200645e+001	-7.205569e+001
1896200000.000	-2.360446e+001	1.133209e+002	-1.891268e+001	-1.121791e+002	-1.960619e+001	-1.096280e+002	-1.135121e+001	-1.353730e+002
1901100000.000	-2.533024e+001	1.006920e+002	-1.944922e+001	-1.590388e+002	-1.927061e+001	-1.549603e+002	-1.076359e+001	1.625529e+002
1906000000.000	-2.702289e+001	8.453604e+001	-1.938252e+001	1.574336e+002	-1.889753e+001	1.567180e+002	-1.063053e+001	9.473730e+001
1910900000.000	-3.011171e+001	6.693718e+001	-1.895212e+001	1.092722e+002	-1.901833e+001	1.066868e+002	-1.104558e+001	2.124529e+001
1915800000.000	-3.461323e+001	5.106223e+001	-1.931502e+001	5.901609e+001	-1.961921e+001	5.910029e+001	-1.160682e+001	-5.068757e+001
1920700000.000	-4.376325e+001	3.490341e+001	-1.997554e+001	1.430311e+001	-2.004168e+001	1.540879e+001	-1.194999e+001	-1.168831e+002
1925600000.000	-4.630238e+001	-1.792539e+002	-1.989150e+001	-2.885558e+001	-1.989069e+001	-2.807527e+001	-1.219772e+001	1.781616e+002
1930500000.000	-3.751044e+001	1.676518e+002	-1.966206e+001	-7.577971e+001	-1.956943e+001	-7.455604e+001	-1.275766e+001	1.100435e+002
1935400000.000	-3.432367e+001	1.527323e+002	-1.987676e+001	-1.231685e+002	-1.958726e+001	-1.230994e+002	-1.394347e+001	3.897978e+001
1940300000.000	-3.354416e+001	1.393382e+002	-2.011494e+001	-1.682720e+002	-1.998157e+001	-1.701769e+002	-1.557302e+001	-3.203451e+001
1945200000.000	-3.372921e+001	1.323127e+002	-2.010078e+001	1.465937e+002	-2.028907e+001	1.453931e+002	-1.718508e+001	-1.008202e+002
1950100000.000	-3.413698e+001	1.286273e+002	-2.012300e+001	1.004756e+002	-2.025686e+001	1.012801e+002	-1.881554e+001	-1.669801e+002
1955000000.000	-3.518417e+001	1.241695e+002	-2.020473e+001	5.487511e+001	-2.010674e+001	5.547125e+001	-2.161195e+001	1.282868e+002
1959900000.000	-3.653767e+001	1.314344e+002	-2.020843e+001	9.106509e+000	-2.015356e+001	8.582450e+000	-2.806183e+001	5.925577e+001
1964800000.000	-3.637279e+001	1.319493e+002	-2.029217e+001	-3.692146e+001	-2.033853e+001	-3.709384e+001	-3.895425e+001	-1.140511e+002
1969700000.000	-3.718982e+001	1.323218e+002	-2.041253e+001	-8.229658e+001	-2.039546e+001	-8.209105e+001	-2.798077e+001	1.428253e+002
1974600000.000	-3.745465e+001	1.242318e+002	-2.040989e+001	-1.272564e+002	-2.037319e+001	-1.275593e+002	-2.443850e+001	6.598546e+001
1979500000.000	-4.138034e+001	1.243123e+002	-2.039585e+001	-1.731256e+002	-2.043628e+001	-1.733138e+002	-2.223817e+001	-1.578735e+001
1984400000.000	-4.162778e+001	1.562864e+002	-2.046442e+001	1.417653e+002	-2.050563e+001	1.418772e+002	-1.950225e+001	-9.168746e+001
1989300000.000	-3.931245e+001	1.669296e+002	-2.040846e+001	9.729572e+001	-2.044363e+001	9.760774e+001	-1.705518e+001	-1.601863e+002
1994200000.000	-3.676290e+001	1.725370e+002	-2.011141e+001	5.160196e+001	-2.008636e+001	5.267825e+001	-1.538418e+001	1.337140e+002
1999100000.000	-3.430621e+001	1.711836e+002	-2.006797e+001	4.152108e+000	-1.976484e+001	4.933613e+000	-1.457541e+001	6.484063e+001
2004000000.000	-3.281042e+001	1.663399e+002	-2.022231e+001	-4.156312e+001	-1.988001e+001	-4.352260e+001	-1.430369e+001	-6.118051e+000
2008900000.000	-3.207571e+001	1.641943e+002	-2.011830e+001	-8.624282e+001	-2.025203e+001	-8.950554e+001	-1.364029e+001	-7.410312e+001
2013800000.000	-3.150858e+001	1.651510e+002	-1.982619e+001	-1.328107e+002	-2.030542e+001	-1.327796e+002	-1.246100e+001	-1.400709e+002
2018700000.000	-3.087745e+001	1.683292e+002	-1.993531e+001	1.791846e+002	-1.989530e+001	-1.777645e+002	-1.170067e+001	1.552642e+002
2023600000.000	-2.980471e+001	1.707087e+002	-2.013295e+001	1.344175e+002	-1.955548e+001	1.341237e+002	-1.150425e+001	8.705517e+001
2028500000.000	-2.888794e+001	1.706811e+002	-1.978941e+001	8.892814e+001	-1.964721e+001	8.472495e+001	-1.188152e+001	1.416581e+001
2033400000.000	-2.790113e+001	1.691962e+002	-1.968885e+001	4.010890e+001	-2.016821e+001	3.779973e+001	-1.215813e+001	-5.711489e+001
2038300000.000	-2.679434e+001	1.640203e+002	-2.008571e+001	-7.441685e+000	-2.045360e+001	-5.972834e+000	-1.196926e+001	-1.228984e+002
2043200000.000	-2.588726e+001	1.555265e+002	-2.032863e+001	-5.180635e+001	-2.025703e+001	-5.003698e+001	-1.171010e+001	1.735960e+002
2048100000.000	-2.518549e+001	1.435750e+002	-2.016039e+001	-9.707595e+001	-1.994129e+001	-9.698112e+001	-1.176066e+001	1.072287e+002
2053000000.000	-2.479317e+001	1.303277e+002	-2.016188e+001	-1.448046e+002	-2.002039e+001	-1.456883e+002	-1.236306e+001	3.652410e+001
2057900000.000	-2.450203e+001	1.170533e+002	-2.051361e+001	1.690459e+002	-2.046680e+001	1.676062e+002	-1.319000e+001	-3.377532e+001
2062800000.000	-2.432439e+001	1.018375e+002	-2.064962e+001	1.246338e+002	-2.079362e+001	1.232903e+002	-1.382384e+001	-1.008289e+002
2067700000.000	-2.472840e+001	8.780540e+001	-2.059102e+001	7.978318e+001	-2.082958e+001	7.990500e+001	-1.416333e+001	-1.645515e+002
2072600000.000	-2.530243e+001	7.585014e+001	-2.052315e+001	3.382026e+001	-2.050927e+001	3.519334e+001	-1.452031e+001	1.319474e+002
2077500000.000	-2.594041e+001	6.594678e+001	-2.061304e+001	-1.179648e+001	-2.034607e+001	-1.180173e+001	-1.548721e+001	6.734746e+001
2082400000.000	-2.667899e+001	5.568027e+001	-2.050395e+001	-5.681506e+001	-2.038063e+001	-5.876328e+001	-1.698857e+001	2.017605e+000
2087300000.000	-2.752661e+001	4.541504e+001	-2.035421e+001	-1.037157e+002	-2.052047e+001	-1.053884e+002	-1.821332e+001	-6.416612e+001
2092200000.000	-2.817055e+001	3.361186e+001	-2.052390e+001	-1.500340e+002	-2.074165e+001	-1.499962e+002	-1.913824e+001	-1.291065e+002
2097100000.000	-2.892548e+001	1.716967e+001	-2.056026e+001	1.648849e+002	-2.059425e+001	1.655605e+002	-2.013101e+001	1.719787e+002
2102000000.000	-2.960271e+001	-1.027925e+000	-2.047010e+001	1.194036e+002	-2.041447e+001	1.195389e+002	-2.186996e+001	1.162898e+002
2106900000.000	-2.982544e+001	-2.565763e+001	-2.029420e+001	7.366466e+001	-2.027687e+001	7.332379e+001	-2.416002e+001	5.676338e+001
2111800000.000	-3.014874e+001	-5.399642e+001	-2.012619e+001	2.614733e+001	-2.016045e+001	2.590194e+001	-2.677229e+001	-1.640130e+001
2116700000.000	-3.039159e+001	-8.094771e+001	-2.018372e+001	-2.128152e+001	-2.022048e+001	-2.106589e+001	-2.892309e+001	-8.626066e+001
2121600000.000	-3.014604e+001	-1.046285e+002	-2.027888e+001	-6.804083e+001	-2.024408e+001	-6.766058e+001	-3.140404e+001	-1.361999e+002
2126500000.000	-2.960761e+001	-1.273024e+002	-2.036438e+001	-1.151949e+002	-2.027498e+001	-1.149314e+002	-3.378803e+001	-1.521475e+002
2131400000.000	-2.879842e+001	-1.454958e+002	-2.057506e+001	-1.619068e+002	-2.045634e+001	-1.618879e+002	-3.115390e+001	-1.624213e+002
2136300000.000	-2.765851e+001	-1.613475e+002	-2.075921e+001	1.519117e+002	-2.062300e+001	1.516850e+002	-2.779464e+001	1.612116e+002
2141200000.000	-2.659800e+001	-1.774987e+002	-2.093262e+001	1.062253e+002	-2.075969e+001	1.055905e+002	-2.598333e+001	1.079696e+002
2146100000.000	-2.634656e+001	1.697245e+002	-2.100405e+001	6.023534e+001	-2.085246e+001	5.865859e+001	-2.553829e+001	4.298530e+001
2151000000.000	-2.585571e+001	1.607427e+002	-2.112128e+001	1.422948e+001	-2.116282e+001	1.203213e+001	-2.432661e+001	-3.082066e+001
2155900000.000	-2.573918e+001	1.529090e+002	-2.124942e+001	-3.222559e+001	-2.147637e+001	-3.363027e+001	-2.195533e+001	-1.014587e+002
2160800000.000	-2.554705e+001	1.478500e+002	-2.151962e+001	-7.816507e+001	-2.170648e+001	-7.803932e+001	-1.980825e+001	-1.627762e+002
2165700000.000	-2.492574e+001	1.427892e+002	-2.166507e+001	-1.228645e+002	-2.166410e+001	-1.224733e+002	-1.849219e+001	1.380301e+002
2170600000.000	-2.421389e+001	1.327565e+002	-2.157711e+001	-1.687176e+002	-2.149379e+001	-1.692481e+002	-1.805467e+001	7.397546e+001
2175500000.000	-2.417148e+001	1.206305e+002	-2.166967e+001	1.437504e+002	-2.170432e+001	1.425433e+002	-1.793834e+001	3.148694e+000
2180400000.000	-2.424057e+001	1.104710e+002	-2.204296e+001	9.680420e+001	-2.221910e+001	9.601851e+001	-1.740664e+001	-6.682318e+001
2185300000.000	-2.413151e+001	9.995307e+001	-2.248980e+001	5.145678e+001	-2.268476e+001	5.168006e+001	-1.653373e+001	-1.314917e+002
2190200000.000	-2.397434e+001	8.845837e+001	-2.281877e+001	7.308529e+000	-2.290549e+001	8.353540e+000	-1.566405e+001	1.658656e+002
2195100000.000	-2.385049e+001	7.606878e+001	-2.301966e+001	-3.682665e+001	-2.288334e+001	-3.587248e+001	-1.501649e+001	1.013807e+002
2200000000.000	-2.401971e+001	6.229404e+001	-2.317835e+001	-8.072361e+001	-2.295586e+001	-8.139099e+001	-1.459127e+001	3.586669e+001
2204900000.000	-2.467825e+001	4.904815e+001	-2.316739e+001	-1.245323e+002	-2.318101e+001	-1.266129e+002	-1.433311e+001	-3.132260e+001
2209800000.000	-2.575227e+001	3.772066e+001	-2.313812e+001	-1.697299e+002	-2.342220e+001	-1.705697e+002	-1.463691e+001	-1.001685e+002
2214700000.000	-2.707305e+001	2.740981e+001	-2.326970e+001	1.451335e+002	-2.345962e+001	1.464026e+002	-1.484604e+001	-1.663911e+002
2219600000.000	-2.873157e+001	1.817361e+001	-2.341176e+001	1.009106e+002	-2.327383e+001	1.022527e+002	-1.464296e+001	1.276805e+002
2224500000.000	-3.046796e+001	1.024226e+001	-2.341207e+001	5.685323e+001	-2.316244e+001	5.614994e+001	-1.476064e+001	6.056113e+001
2229400000.000	-3.190587e+001	2.650003e+000	-2.336771e+001	1.251781e+001	-2.335621e+001	1.030163e+001	-1.535319e+001	-6.897210e+000
2234300000.000	-3.267156e+001	-1.061893e+001	-2.339770e+001	-3.230065e+001	-2.366444e+001	-3.364747e+001	-1.594431e+001	-7.265806e+001
2239200000.000	-3.379653e+001	-3.153405e+001	-2.343841e+001	-7.614289e+001	-2.374832e+001	-7.572688e+001	-1.630210e+001	-1.347032e+002
2244100000.000	-3.528276e+001	-5.502952e+001	-2.335685e+001	-1.196700e+002	-2.347209e+001	-1.180101e+002	-1.677380e+001	1.655827e+002
2249000000.000	-3.699184e+001	-7.997633e+001	-2.310908e+001	-1.632059e+002	-2.299756e+001	-1.619115e+002	-1.778587e+001	1.044063e+002
2253900000.000	-3.834508e+001	-1.025102e+002	-2.273863e+001	1.525906e+002	-2.255394e+001	1.525837e+002	-1.913953e+001	3.954366e+001
2258800000.000	-3.850782e+001	-1.208810e+002	-2.226334e+001	1.074360e+002	-2.218267e+001	1.066436e+002	-2.017407e+001	-2.741386e+001
2263700000.000	-3.582183e+001	-1.361308e+002	-2.177263e+001	6.037425e+001	-2.181650e+001	5.983095e+001	-2.055497e+001	-9.104485e+001
2268600000.000	-3.243337e+001	-1.621879e+002	-2.161224e+001	1.233857e+001	-2.163779e+001	1.239218e+001	-2.084669e+001	-1.509051e+002
2273500000.000	-3.050546e+001	1.731265e+002	-2.161608e+001	-3.431579e+001	-2.152803e+001	-3.425611e+001	-2.143411e+001	1.532764e+002
2278400000.000	-2.967032e+001	1.556820e+002	-2.146209e+001	-7.994135e+001	-2.131840e+001	-8.053946e+001	-2.197079e+001	9.834339e+001
2283300000.000	-2.898626e+001	1.469610e+002	-2.108172e+001	-1.268611e+002	-2.098790e+001	-1.283400e+002	-2.265886e+001	3.753774e+001
2288200000.000	-2.771946e+001	1.383448e+002	-2.088868e+001	-1.760268e+002	-2.095413e+001	-1.776381e+002	-2.372523e+001	-2.738406e+001
2293100000.000	-2.684132e+001	1.267075e+002	-2.103549e+001	1.354368e+002	-2.118668e+001	1.343972e+002	-2.465779e+001	-8.961060e+001
2298000000.000	-2.635693e+001	1.142679e+002	-2.118190e+001	8.806960e+001	-2.134118e+001	8.779706e+001	-2.492311e+001	-1.439556e+002
2302900000.000	-2.620953e+001	1.004600e+002	-2.130984e+001	4.072373e+001	-2.141376e+001	4.091682e+001	-2.518692e+001	1.651283e+002
2307800000.000	-2.654133e+001	8.750645e+001	-2.148231e+001	-6.804177e+000	-2.150967e+001	-6.606352e+000	-2.567969e+001	1.133176e+002
2312700000.000	-2.687809e+001	7.746995e+001	-2.174394e+001	-5.403432e+001	-2.173937e+001	-5.409431e+001	-2.617023e+001	5.670212e+001
2317600000.000	-2.694664e+001	6.970592e+001	-2.203851e+001	-1.006317e+002	-2.204403e+001	-1.010709e+002	-2.602952e+001	-1.334647e+000
2322500000.000	-2.659470e+001	6.232586e+001	-2.232940e+001	-1.469904e+002	-2.239693e+001	-1.474068e+002	-2.522746e+001	-5.691615e+001
2327400000.000	-2.621026e+001	5.294625e+001	-2.261580e+001	1.670977e+002	-2.273106e+001	1.670234e+002	-2.440809e+001	-1.137427e+002
2332300000.000	-2.626750e+001	4.135020e+001	-2.289195e+001	1.212420e+002	-2.294665e+001	1.218541e+002	-2.368347e+001	-1.728546e+002
2337200000.000	-2.724492e+001	3.020509e+001	-2.317414e+001	7.563547e+001	-2.308222e+001	7.626999e+001	-2.255547e+001	1.266507e+002
2342100000.000	-2.908466e+001	2.394499e+001	-2.343941e+001	3.015041e+001	-2.327368e+001	3.000773e+001	-2.141577e+001	6.770620e+001
2347000000.000	-3.065547e+001	2.416281e+001	-2.382589e+001	-1.538716e+001	-2.372678e+001	-1.651248e+001	-2.053529e+001	8.390944e+000
2351900000.000	-3.162266e+001	2.176257e+001	-2.429621e+001	-5.888728e+001	-2.434791e+001	-6.044751e+001	-1.989375e+001	-5.467718e+001
2356800000.000	-3.304577e+001	1.709189e+001	-2.439182e+001	-1.007156e+002	-2.461612e+001	-1.014403e+002	-1.895876e+001	-1.199117e+002
2361700000.000	-3.382487e+001	1.035625e+001	-2.410132e+001	-1.441098e+002	-2.428927e+001	-1.435068e+002	-1.787230e+001	1.758120e+002
2366600000.000	-3.422444e+001	-7.011813e+000	-2.384834e+001	1.696156e+002	-2.381800e+001	1.706403e+002	-1.741003e+001	1.118437e+002
2371500000.000	-3.510279e+001	-3.093649e+001	-2.390710e+001	1.228677e+002	-2.376279e+001	1.227019e+002	-1.762724e+001	4.632861e+001
2376400000.000	-3.603529e+001	-5.202473e+001	-2.407194e+001	7.708933e+001	-2.408767e+001	7.575622e+001	-1.772530e+001	-2.067085e+001
2381300000.000	-3.654779e+001	-6.807149e+001	-2.423629e+001	3.170297e+001	-2.446517e+001	3.095146e+001	-1.731680e+001	-8.334527e+001
2386200000.000	-3.654640e+001	-8.410958e+001	-2.442610e+001	-1.345758e+001	-2.467087e+001	-1.221081e+001	-1.678990e+001	-1.407630e+002
2391100000.000	-3.670719e+001	-1.048100e+002	-2.460383e+001	-5.790239e+001	-2.456610e+001	-5.551614e+001	-1.649736e+001	1.614956e+002
2396000000.000	-3.697568e+001	-1.315208e+002	-2.458402e+001	-1.013211e+002	-2.424204e+001	-1.004779e+002	-1.641639e+001	9.774321e+001
2400900000.000	-3.657372e+001	-1.645011e+002	-2.435811e+001	-1.466782e+002	-2.408271e+001	-1.479928e+002	-1.620283e+001	2.981982e+001
2405800000.000	-3.559186e+001	1.684573e+002	-2.431825e+001	1.664415e+002	-2.433815e+001	1.646127e+002	-1.595495e+001	-3.607964e+001
2410700000.000	-3.391081e+001	1.534573e+002	-2.458738e+001	1.199155e+002	-2.475308e+001	1.190647e+002	-1.591547e+001	-9.740343e+001
2415600000.000	-3.167661e+001	1.428616e+002	-2.493829e+001	7.505011e+001	-2.504552e+001	7.532495e+001	-1.586665e+001	-1.581977e+002
2420500000.000	-2.982912e+001	1.312907e+002	-2.523758e+001	3.090670e+001	-2.520672e+001	3.152676e+001	-1.558712e+001	1.386452e+002
2425400000.000	-2.862686e+001	1.202241e+002	-2.556686e+001	-1.199173e+001	-2.539378e+001	-1.200181e+001	-1.535416e+001	7.397505e+001
2430300000.000	-2.774488e+001	1.099536e+002	-2.564289e+001	-5.299694e+001	-2.549008e+001	-5.447545e+001	-1.557152e+001	1.036944e+001
2435200000.000	-2.679237e+001	9.828206e+001	-2.532753e+001	-9.402009e+001	-2.544094e+001	-9.630696e+001	-1.604318e+001	-5.212193e+001
