!Agilent Technologies,E5061B,MY49305579,A.02.22
!Date: Thu Aug 24 16:22:38 2017
!Data & Calibration Information:
!Freq	S11:SOLT2(ON)	S21:SOLT2(ON)	S12:SOLT2(ON)	S22:SOLT2(ON)
# Hz S dB R 50
1710000000.000	-2.492694e+001	-1.103455e+002	-1.868019e+001	-8.648423e+001	-1.828598e+001	-8.736177e+001	-1.614478e+001	1.007904e+002
1714900000.000	-2.321430e+001	-1.293566e+002	-1.805373e+001	-1.343226e+002	-1.808889e+001	-1.362925e+002	-1.529207e+001	2.869320e+001
1719800000.000	-2.232027e+001	-1.486787e+002	-1.816564e+001	1.767446e+002	-1.830335e+001	1.769833e+002	-1.471204e+001	-4.445139e+001
1724700000.000	-2.184947e+001	-1.667423e+002	-1.851077e+001	1.324839e+002	-1.840078e+001	1.328534e+002	-1.376222e+001	-1.113388e+002
1729600000.000	-2.169849e+001	1.752204e+002	-1.817785e+001	8.955774e+001	-1.817997e+001	8.890667e+001	-1.281564e+001	-1.736321e+002
1734500000.000	-2.211181e+001	1.586036e+002	-1.763756e+001	4.235079e+001	-1.774217e+001	4.315849e+001	-1.232592e+001	1.238206e+002
1739400000.000	-2.291159e+001	1.435496e+002	-1.777751e+001	-6.400364e+000	-1.748632e+001	-5.058933e+000	-1.258283e+001	5.614183e+001
1744300000.000	-2.426315e+001	1.300670e+002	-1.803823e+001	-5.064909e+001	-1.766831e+001	-5.318821e+001	-1.315658e+001	-1.613870e+001
1749200000.000	-2.615790e+001	1.185735e+002	-1.768121e+001	-9.554281e+001	-1.801562e+001	-9.893927e+001	-1.315705e+001	-8.624757e+001
1754100000.000	-2.865621e+001	1.091183e+002	-1.748692e+001	-1.444244e+002	-1.809676e+001	-1.430672e+002	-1.269055e+001	-1.502389e+002
1759000000.000	-3.190933e+001	1.025514e+002	-1.800940e+001	1.676023e+002	-1.791274e+001	1.716040e+002	-1.252896e+001	1.464941e+002
1763900000.000	-3.634570e+001	1.011201e+002	-1.838430e+001	1.242092e+002	-1.784796e+001	1.238770e+002	-1.307445e+001	7.870367e+001
1768800000.000	-4.310506e+001	1.202381e+002	-1.819495e+001	7.933229e+001	-1.822704e+001	7.615696e+001	-1.389908e+001	5.723830e+000
1773700000.000	-4.194591e+001	-1.699035e+002	-1.837821e+001	3.116173e+001	-1.879957e+001	3.110729e+001	-1.432857e+001	-6.552604e+001
1778600000.000	-3.594889e+001	-1.619956e+002	-1.910165e+001	-1.397684e+001	-1.917818e+001	-1.172844e+001	-1.453184e+001	-1.309143e+002
1783500000.000	-3.229291e+001	-1.704608e+002	-1.943653e+001	-5.537658e+001	-1.923427e+001	-5.468151e+001	-1.517273e+001	1.658835e+002
1788400000.000	-2.991449e+001	1.747804e+002	-1.932269e+001	-9.850715e+001	-1.924724e+001	-9.887182e+001	-1.666688e+001	9.997051e+001
1793300000.000	-2.851881e+001	1.597521e+002	-1.940710e+001	-1.431224e+002	-1.937281e+001	-1.430664e+002	-1.901042e+001	2.876109e+001
1798200000.000	-2.766861e+001	1.435715e+002	-1.956880e+001	1.740473e+002	-1.948226e+001	1.736608e+002	-2.148313e+001	-4.596450e+001
1803100000.000	-2.755702e+001	1.251469e+002	-1.941564e+001	1.313202e+002	-1.943424e+001	1.306388e+002	-2.377200e+001	-1.150599e+002
1808000000.000	-2.815280e+001	1.046489e+002	-1.924681e+001	8.721459e+001	-1.930829e+001	8.698067e+001	-2.774098e+001	-1.688849e+002
1812900000.000	-2.942435e+001	7.816469e+001	-1.908235e+001	4.314476e+001	-1.915894e+001	4.304000e+001	-3.407208e+001	-1.647341e+002
1817800000.000	-3.111964e+001	3.994187e+001	-1.884877e+001	-1.992347e+000	-1.897764e+001	-1.400298e+000	-2.721112e+001	-1.622260e+002
1822700000.000	-3.191359e+001	-1.017558e+001	-1.884150e+001	-4.770017e+001	-1.880654e+001	-4.618640e+001	-2.310139e+001	1.487162e+002
1827600000.000	-3.033663e+001	-5.351410e+001	-1.890216e+001	-9.224925e+001	-1.862413e+001	-9.187660e+001	-2.088507e+001	8.375305e+001
1832500000.000	-2.843801e+001	-8.381540e+001	-1.877660e+001	-1.366404e+002	-1.867882e+001	-1.381999e+002	-1.904725e+001	1.172570e+001
1837400000.000	-2.704071e+001	-1.048567e+002	-1.870976e+001	1.775720e+002	-1.893969e+001	1.771153e+002	-1.702300e+001	-5.666813e+001
1842300000.000	-2.583361e+001	-1.233258e+002	-1.896507e+001	1.322213e+002	-1.902589e+001	1.339035e+002	-1.533704e+001	-1.205980e+002
1847200000.000	-2.517072e+001	-1.419040e+002	-1.911789e+001	9.032946e+001	-1.888700e+001	9.112667e+001	-1.415621e+001	1.765547e+002
1852100000.000	-2.495391e+001	-1.579678e+002	-1.861661e+001	4.756035e+001	-1.849357e+001	4.696885e+001	-1.339184e+001	1.105015e+002
1857000000.000	-2.489054e+001	-1.735433e+002	-1.826235e+001	2.177657e-001	-1.822682e+001	3.479428e-001	-1.313138e+001	4.034807e+001
1861900000.000	-2.513170e+001	1.736926e+002	-1.854008e+001	-4.575139e+001	-1.831589e+001	-4.597983e+001	-1.320487e+001	-2.989398e+001
1866800000.000	-2.530343e+001	1.645489e+002	-1.850556e+001	-8.829089e+001	-1.845710e+001	-9.034763e+001	-1.287291e+001	-9.683825e+001
1871700000.000	-2.551264e+001	1.577731e+002	-1.798601e+001	-1.332703e+002	-1.831348e+001	-1.337971e+002	-1.228782e+001	-1.607032e+002
1876600000.000	-2.537804e+001	1.532036e+002	-1.786676e+001	1.783678e+002	-1.791837e+001	-1.788877e+002	-1.182848e+001	1.364025e+002
1881500000.000	-2.511558e+001	1.468204e+002	-1.824291e+001	1.326650e+002	-1.766739e+001	1.333210e+002	-1.193185e+001	7.035524e+001
1886400000.000	-2.513472e+001	1.382611e+002	-1.815694e+001	8.972122e+001	-1.786087e+001	8.530752e+001	-1.242015e+001	1.012629e+000
1891300000.000	-2.575394e+001	1.284309e+002	-1.774646e+001	4.285451e+001	-1.828795e+001	3.929884e+001	-1.255766e+001	-6.662081e+001
1896200000.000	-2.717695e+001	1.191395e+002	-1.801697e+001	-5.939651e+000	-1.865236e+001	-4.065267e+000	-1.229027e+001	-1.285208e+002
1901100000.000	-2.895586e+001	1.179512e+002	-1.853527e+001	-5.050070e+001	-1.846552e+001	-4.684931e+001	-1.203489e+001	1.726585e+002
1906000000.000	-2.991520e+001	1.129271e+002	-1.866860e+001	-9.339341e+001	-1.824180e+001	-9.328599e+001	-1.210360e+001	1.102587e+002
1910900000.000	-3.170789e+001	1.108028e+002	-1.842418e+001	-1.383880e+002	-1.836831e+001	-1.405992e+002	-1.248080e+001	4.262311e+001
1915800000.000	-3.283845e+001	1.112116e+002	-1.861357e+001	1.740521e+002	-1.885968e+001	1.733648e+002	-1.273986e+001	-2.545040e+001
1920700000.000	-3.385504e+001	1.145284e+002	-1.921761e+001	1.298704e+002	-1.934005e+001	1.305297e+002	-1.267441e+001	-8.898172e+001
1925600000.000	-3.323790e+001	1.179519e+002	-1.936933e+001	8.864655e+001	-1.941475e+001	8.917815e+001	-1.236330e+001	-1.493319e+002
1930500000.000	-3.250294e+001	1.121429e+002	-1.901834e+001	4.580324e+001	-1.906735e+001	4.688940e+001	-1.192839e+001	1.484455e+002
1935400000.000	-3.208428e+001	1.017224e+002	-1.874764e+001	6.869423e-002	-1.851842e+001	1.467838e+000	-1.169254e+001	8.220760e+001
1940300000.000	-3.334896e+001	8.176515e+001	-1.879979e+001	-4.610627e+001	-1.842206e+001	-4.736772e+001	-1.196176e+001	1.214131e+001
1945200000.000	-3.742682e+001	6.372053e+001	-1.879140e+001	-9.099689e+001	-1.887743e+001	-9.390518e+001	-1.262091e+001	-5.614669e+001
1950100000.000	-4.728004e+001	4.537957e+001	-1.877177e+001	-1.374809e+002	-1.920667e+001	-1.375435e+002	-1.297934e+001	-1.211136e+002
1955000000.000	-4.689097e+001	-1.248700e+002	-1.913382e+001	1.764928e+002	-1.920752e+001	1.792840e+002	-1.319653e+001	1.760881e+002
1959900000.000	-3.656681e+001	-1.485709e+002	-1.931257e+001	1.332630e+002	-1.893798e+001	1.343187e+002	-1.381500e+001	1.138080e+002
1964800000.000	-3.287575e+001	-1.714107e+002	-1.918273e+001	8.824642e+001	-1.894233e+001	8.631956e+001	-1.481091e+001	4.913195e+001
1969700000.000	-3.131876e+001	1.700790e+002	-1.936556e+001	4.146338e+001	-1.951447e+001	3.979776e+001	-1.614269e+001	-2.167201e+001
1974600000.000	-3.080006e+001	1.487590e+002	-1.979244e+001	-3.838252e+000	-1.998214e+001	-3.527865e+000	-1.739325e+001	-9.161457e+001
1979500000.000	-3.211801e+001	1.319207e+002	-2.016231e+001	-4.716839e+001	-2.016993e+001	-4.641463e+001	-1.816113e+001	-1.561584e+002
1984400000.000	-3.342935e+001	1.223313e+002	-2.031217e+001	-9.055169e+001	-2.027689e+001	-9.009980e+001	-1.918073e+001	1.436305e+002
1989300000.000	-3.529651e+001	1.143337e+002	-2.046802e+001	-1.343379e+002	-2.039701e+001	-1.339749e+002	-2.112889e+001	8.555869e+001
1994200000.000	-3.796587e+001	1.187505e+002	-2.064690e+001	-1.777033e+002	-2.053061e+001	-1.776105e+002	-2.398102e+001	2.902908e+001
1999100000.000	-3.944702e+001	1.413430e+002	-2.071918e+001	1.391876e+002	-2.062005e+001	1.387578e+002	-2.652357e+001	-2.968189e+001
2004000000.000	-3.788713e+001	1.617901e+002	-2.072601e+001	9.563381e+001	-2.068981e+001	9.496989e+001	-2.815874e+001	-8.815032e+001
2008900000.000	-3.574401e+001	1.737440e+002	-2.080415e+001	5.148144e+001	-2.079634e+001	5.088894e+001	-2.871263e+001	-1.275736e+002
2013800000.000	-3.353869e+001	-1.781283e+002	-2.095183e+001	7.861703e+000	-2.097322e+001	7.459955e+000	-2.689759e+001	-1.533625e+002
2018700000.000	-3.118308e+001	-1.750553e+002	-2.106033e+001	-3.536797e+001	-2.105764e+001	-3.540259e+001	-2.446192e+001	1.700288e+002
2023600000.000	-2.926861e+001	-1.774248e+002	-2.116390e+001	-7.817624e+001	-2.106639e+001	-7.843550e+001	-2.333264e+001	1.220168e+002
2028500000.000	-2.791172e+001	1.784610e+002	-2.115843e+001	-1.204614e+002	-2.106398e+001	-1.217968e+002	-2.307866e+001	6.003007e+001
2033400000.000	-2.677854e+001	1.732777e+002	-2.101776e+001	-1.632637e+002	-2.111932e+001	-1.648686e+002	-2.217468e+001	-1.257791e+001
2038300000.000	-2.571172e+001	1.649633e+002	-2.088321e+001	1.533577e+002	-2.111650e+001	1.529464e+002	-2.010378e+001	-8.048285e+001
2043200000.000	-2.506143e+001	1.545131e+002	-2.082515e+001	1.102773e+002	-2.094229e+001	1.110253e+002	-1.820467e+001	-1.405951e+002
2048100000.000	-2.451984e+001	1.422049e+002	-2.056735e+001	6.822737e+001	-2.051135e+001	6.886105e+001	-1.696467e+001	1.606680e+002
2053000000.000	-2.417355e+001	1.289519e+002	-2.008524e+001	2.443993e+001	-1.995973e+001	2.444368e+001	-1.628058e+001	9.779255e+001
2057900000.000	-2.387552e+001	1.154395e+002	-1.973145e+001	-2.073306e+001	-1.958835e+001	-2.141493e+001	-1.587554e+001	3.035026e+001
2062800000.000	-2.358791e+001	9.982669e+001	-1.947296e+001	-6.576565e+001	-1.943798e+001	-6.745098e+001	-1.550658e+001	-3.815886e+001
2067700000.000	-2.385407e+001	8.389012e+001	-1.915894e+001	-1.107866e+002	-1.936673e+001	-1.122630e+002	-1.487218e+001	-1.038933e+002
2072600000.000	-2.451348e+001	6.937094e+001	-1.881617e+001	-1.570969e+002	-1.910283e+001	-1.563918e+002	-1.397242e+001	-1.674843e+002
2077500000.000	-2.537515e+001	5.645668e+001	-1.868669e+001	1.557498e+002	-1.860865e+001	1.578904e+002	-1.312403e+001	1.287878e+002
2082400000.000	-2.669491e+001	4.351450e+001	-1.872712e+001	1.096982e+002	-1.830692e+001	1.094818e+002	-1.273937e+001	6.222052e+001
2087300000.000	-2.834655e+001	3.249817e+001	-1.858345e+001	6.396092e+001	-1.845785e+001	6.084676e+001	-1.295934e+001	-6.380815e+000
2092200000.000	-2.992238e+001	2.166205e+001	-1.850552e+001	1.654092e+001	-1.885024e+001	1.452187e+001	-1.313593e+001	-7.355277e+001
2097100000.000	-3.141882e+001	9.786195e+000	-1.875557e+001	-3.075600e+001	-1.910607e+001	-2.973396e+001	-1.286370e+001	-1.371336e+002
2102000000.000	-3.236528e+001	-3.242778e+000	-1.908192e+001	-7.597376e+001	-1.905015e+001	-7.401401e+001	-1.234951e+001	1.599176e+002
2106900000.000	-3.243172e+001	-2.445235e+001	-1.918089e+001	-1.205783e+002	-1.892896e+001	-1.203172e+002	-1.219310e+001	9.265157e+001
2111800000.000	-3.248818e+001	-5.124464e+001	-1.923416e+001	-1.662782e+002	-1.911274e+001	-1.675213e+002	-1.262699e+001	2.080892e+001
2116700000.000	-3.260018e+001	-7.804979e+001	-1.942181e+001	1.480819e+002	-1.951801e+001	1.469043e+002	-1.312319e+001	-5.044805e+001
2121600000.000	-3.198848e+001	-1.010675e+002	-1.953818e+001	1.030960e+002	-1.973186e+001	1.032358e+002	-1.352025e+001	-1.176830e+002
2126500000.000	-3.106430e+001	-1.231086e+002	-1.961605e+001	5.682514e+001	-1.968267e+001	5.843677e+001	-1.389628e+001	1.786962e+002
2131400000.000	-2.984620e+001	-1.406411e+002	-1.997634e+001	1.026369e+001	-1.968862e+001	1.183177e+001	-1.460578e+001	1.124471e+002
2136300000.000	-2.828986e+001	-1.565826e+002	-2.045370e+001	-3.437142e+001	-2.002242e+001	-3.524564e+001	-1.589066e+001	4.302625e+001
2141200000.000	-2.691693e+001	-1.735611e+002	-2.072380e+001	-7.798265e+001	-2.057339e+001	-8.076414e+001	-1.722879e+001	-2.854020e+001
2146100000.000	-2.642518e+001	1.736784e+002	-2.089388e+001	-1.234326e+002	-2.105899e+001	-1.253536e+002	-1.804327e+001	-9.774227e+001
2151000000.000	-2.562792e+001	1.633888e+002	-2.141867e+001	-1.683467e+002	-2.158862e+001	-1.685365e+002	-1.833862e+001	-1.612661e+002
2155900000.000	-2.540134e+001	1.535530e+002	-2.193019e+001	1.487215e+002	-2.190056e+001	1.487882e+002	-1.904766e+001	1.382133e+002
2160800000.000	-2.533798e+001	1.465849e+002	-2.227222e+001	1.067084e+002	-2.220863e+001	1.056934e+002	-2.087214e+001	7.609336e+001
2165700000.000	-2.507292e+001	1.410522e+002	-2.241679e+001	6.503293e+001	-2.250667e+001	6.367451e+001	-2.366151e+001	5.796812e+000
2170600000.000	-2.449102e+001	1.328086e+002	-2.233575e+001	2.211572e+001	-2.250999e+001	2.149328e+001	-2.533309e+001	-7.231358e+001
2175500000.000	-2.432452e+001	1.215578e+002	-2.249033e+001	-2.246596e+001	-2.262221e+001	-2.245360e+001	-2.568222e+001	-1.448271e+002
2180400000.000	-2.437305e+001	1.115987e+002	-2.282596e+001	-6.552548e+001	-2.287501e+001	-6.531138e+001	-2.801365e+001	1.515771e+002
2185300000.000	-2.424070e+001	1.015184e+002	-2.304693e+001	-1.075987e+002	-2.306799e+001	-1.077069e+002	-3.458791e+001	8.961491e+001
2190200000.000	-2.400269e+001	9.059092e+001	-2.320706e+001	-1.488608e+002	-2.324535e+001	-1.489882e+002	-4.511719e+001	-1.222889e+002
2195100000.000	-2.374986e+001	7.830256e+001	-2.304321e+001	1.700319e+002	-2.309554e+001	1.700926e+002	-3.184103e+001	1.564185e+002
2200000000.000	-2.386571e+001	6.503274e+001	-2.281933e+001	1.276058e+002	-2.280633e+001	1.277766e+002	-2.732892e+001	9.285131e+001
2204900000.000	-2.429369e+001	5.219291e+001	-2.259297e+001	8.435414e+001	-2.254065e+001	8.406211e+001	-2.475003e+001	2.962703e+001
2209800000.000	-2.509689e+001	4.019169e+001	-2.238491e+001	4.089645e+001	-2.240472e+001	4.003153e+001	-2.345286e+001	-3.599204e+001
2214700000.000	-2.616949e+001	2.859283e+001	-2.219833e+001	-3.254375e+000	-2.231239e+001	-3.659915e+000	-2.248936e+001	-1.039235e+002
2219600000.000	-2.754734e+001	1.788889e+001	-2.212533e+001	-4.749878e+001	-2.221491e+001	-4.704051e+001	-2.115024e+001	-1.711528e+002
2224500000.000	-2.895476e+001	6.688379e+000	-2.198293e+001	-9.112364e+001	-2.194097e+001	-9.068371e+001	-1.976671e+001	1.230665e+002
2229400000.000	-3.039857e+001	-5.725202e+000	-2.177987e+001	-1.358129e+002	-2.167784e+001	-1.363759e+002	-1.881469e+001	5.710923e+001
2234300000.000	-3.132114e+001	-2.117014e+001	-2.177886e+001	1.788263e+002	-2.182085e+001	1.774066e+002	-1.800604e+001	-1.143232e+001
2239200000.000	-3.220405e+001	-4.484262e+001	-2.190542e+001	1.344136e+002	-2.215530e+001	1.336822e+002	-1.730908e+001	-7.861052e+001
2244100000.000	-3.340581e+001	-7.200534e+001	-2.199971e+001	9.095695e+001	-2.228250e+001	9.179414e+001	-1.653538e+001	-1.403618e+002
2249000000.000	-3.455380e+001	-1.002919e+002	-2.198342e+001	4.782939e+001	-2.203667e+001	4.987352e+001	-1.600591e+001	1.584689e+002
2253900000.000	-3.505461e+001	-1.281215e+002	-2.193940e+001	4.462418e+000	-2.168710e+001	5.809495e+000	-1.589681e+001	9.403496e+001
2258800000.000	-3.506299e+001	-1.535503e+002	-2.183154e+001	-3.876527e+001	-2.153523e+001	-3.956682e+001	-1.597690e+001	2.473504e+001
2263700000.000	-3.397006e+001	-1.701905e+002	-2.167805e+001	-8.237710e+001	-2.165214e+001	-8.427533e+001	-1.597412e+001	-4.427631e+001
2268600000.000	-3.148000e+001	1.709820e+002	-2.159474e+001	-1.262204e+002	-2.179200e+001	-1.269305e+002	-1.565764e+001	-1.093371e+002
2273500000.000	-2.980388e+001	1.489595e+002	-2.154250e+001	-1.688745e+002	-2.164715e+001	-1.679750e+002	-1.516173e+001	-1.716057e+002
2278400000.000	-2.958237e+001	1.282554e+002	-2.116491e+001	1.494645e+002	-2.097014e+001	1.502564e+002	-1.457594e+001	1.248319e+002
2283300000.000	-3.092982e+001	1.161343e+002	-2.042994e+001	1.054355e+002	-2.015626e+001	1.041396e+002	-1.438614e+001	5.682253e+001
2288200000.000	-3.225558e+001	1.184783e+002	-1.984936e+001	5.857407e+001	-1.985032e+001	5.599404e+001	-1.476171e+001	-1.357895e+001
2293100000.000	-3.182798e+001	1.267003e+002	-1.957538e+001	1.099710e+001	-1.985281e+001	9.453212e+000	-1.526414e+001	-8.191997e+001
2298000000.000	-3.024093e+001	1.273833e+002	-1.938937e+001	-3.588376e+001	-1.967988e+001	-3.548038e+001	-1.526287e+001	-1.457145e+002
2302900000.000	-2.866385e+001	1.196956e+002	-1.917183e+001	-8.388790e+001	-1.922517e+001	-8.249647e+001	-1.486936e+001	1.489794e+002
2307800000.000	-2.781899e+001	1.083472e+002	-1.933829e+001	-1.332272e+002	-1.915781e+001	-1.329354e+002	-1.517901e+001	7.730203e+001
2312700000.000	-2.714660e+001	9.871001e+001	-1.987829e+001	1.795861e+002	-1.979758e+001	1.782733e+002	-1.640559e+001	4.631076e+000
2317600000.000	-2.613869e+001	8.966826e+001	-2.034087e+001	1.347946e+002	-2.049173e+001	1.335986e+002	-1.778985e+001	-6.333714e+001
2322500000.000	-2.494580e+001	7.806949e+001	-2.065193e+001	9.091805e+001	-2.086994e+001	9.097379e+001	-1.900328e+001	-1.269881e+002
2327400000.000	-2.403895e+001	6.418214e+001	-2.076605e+001	4.718037e+001	-2.087217e+001	4.810810e+001	-2.007296e+001	1.695236e+002
2332300000.000	-2.367496e+001	4.822878e+001	-2.079937e+001	2.727442e+000	-2.073728e+001	3.511925e+000	-2.104916e+001	1.054979e+002
2337200000.000	-2.421791e+001	3.187884e+001	-2.083659e+001	-4.238879e+001	-2.071166e+001	-4.249009e+001	-2.194551e+001	4.374765e+001
2342100000.000	-2.560222e+001	1.778956e+001	-2.096049e+001	-8.802632e+001	-2.091249e+001	-8.870685e+001	-2.337766e+001	-1.641433e+001
2347000000.000	-2.744682e+001	6.940224e+000	-2.121111e+001	-1.333648e+002	-2.123733e+001	-1.339915e+002	-2.548615e+001	-7.615273e+001
2351900000.000	-2.926592e+001	-4.259322e+000	-2.148064e+001	-1.782532e+002	-2.153643e+001	-1.786216e+002	-2.733127e+001	-1.365204e+002
2356800000.000	-3.167142e+001	-1.855824e+001	-2.179232e+001	1.372643e+002	-2.184134e+001	1.370506e+002	-2.882924e+001	1.702760e+002
2361700000.000	-3.400098e+001	-3.339202e+001	-2.214028e+001	9.321133e+001	-2.218370e+001	9.306761e+001	-3.017671e+001	1.323749e+002
2366600000.000	-3.531165e+001	-5.538888e+001	-2.249066e+001	5.018070e+001	-2.252860e+001	5.025852e+001	-3.048592e+001	1.009387e+002
2371500000.000	-3.626013e+001	-8.714720e+001	-2.262538e+001	8.026184e+000	-2.263093e+001	8.015192e+000	-2.966801e+001	5.332356e+001
2376400000.000	-3.804636e+001	-1.200177e+002	-2.261307e+001	-3.503360e+001	-2.262557e+001	-3.533209e+001	-2.789643e+001	-1.210109e+001
2381300000.000	-4.081304e+001	-1.474650e+002	-2.259141e+001	-7.898871e+001	-2.267530e+001	-7.929357e+001	-2.536142e+001	-7.309727e+001
2386200000.000	-4.414207e+001	-1.717777e+002	-2.272878e+001	-1.232474e+002	-2.285691e+001	-1.228290e+002	-2.320976e+001	-1.252937e+002
2391100000.000	-4.695210e+001	1.571580e+002	-2.288955e+001	-1.666770e+002	-2.290971e+001	-1.654813e+002	-2.224347e+001	-1.780166e+002
2396000000.000	-4.661346e+001	1.267629e+002	-2.296950e+001	1.504459e+002	-2.281831e+001	1.513224e+002	-2.207335e+001	1.235890e+002
2400900000.000	-4.417255e+001	1.042485e+002	-2.288539e+001	1.073198e+002	-2.267847e+001	1.071012e+002	-2.158679e+001	5.760177e+001
2405800000.000	-4.495680e+001	9.062743e+001	-2.279781e+001	6.288849e+001	-2.270973e+001	6.181934e+001	-2.061150e+001	-8.188230e+000
2410700000.000	-4.734734e+001	1.328257e+002	-2.291149e+001	1.824469e+001	-2.295936e+001	1.732243e+001	-1.967071e+001	-6.982572e+001
2415600000.000	-3.897150e+001	1.607832e+002	-2.306790e+001	-2.517933e+001	-2.315931e+001	-2.544277e+001	-1.908739e+001	-1.308275e+002
2420500000.000	-3.387890e+001	1.532791e+002	-2.303912e+001	-6.815897e+001	-2.306713e+001	-6.789227e+001	-1.841939e+001	1.668656e+002
2425400000.000	-3.083241e+001	1.423583e+002	-2.297839e+001	-1.125562e+002	-2.287817e+001	-1.122413e+002	-1.750704e+001	1.037923e+002
2430300000.000	-2.873426e+001	1.307290e+002	-2.307285e+001	-1.570752e+002	-2.290433e+001	-1.578506e+002	-1.694822e+001	4.064622e+001
2435200000.000	-2.697943e+001	1.162342e+002	-2.325189e+001	1.591350e+002	-2.321884e+001	1.571079e+002	-1.699728e+001	-2.192206e+001
