!Agilent Technologies,E5061B,MY49305579,A.02.22
!Date: Thu Aug 24 16:22:47 2017
!Data & Calibration Information:
!Freq	S11:SOLT2(ON)	S21:SOLT2(ON)	S12:SOLT2(ON)	S22:SOLT2(ON)
# Hz S dB R 50
1710000000.000	-2.669198e+001	-1.343769e+002	-1.995361e+001	1.762911e+002	-1.983716e+001	1.752171e+002	-2.221900e+001	5.461244e+001
1714900000.000	-2.545491e+001	-1.472968e+002	-1.984672e+001	1.292613e+002	-1.995015e+001	1.288605e+002	-2.077421e+001	-2.664102e+001
1719800000.000	-2.488332e+001	-1.617071e+002	-2.033014e+001	8.455789e+001	-2.031838e+001	8.509797e+001	-1.992619e+001	-9.706818e+001
1724700000.000	-2.458550e+001	-1.754416e+002	-2.062810e+001	4.250588e+001	-2.053708e+001	4.249646e+001	-1.872073e+001	-1.564662e+002
1729600000.000	-2.463418e+001	1.702710e+002	-2.059731e+001	1.688187e-001	-2.060028e+001	3.686405e-002	-1.828674e+001	1.455036e+002
1734500000.000	-2.531170e+001	1.581196e+002	-2.056285e+001	-4.339510e+001	-2.051254e+001	-4.285961e+001	-1.921444e+001	8.481169e+001
1739400000.000	-2.651690e+001	1.489888e+002	-2.066549e+001	-8.590198e+001	-2.046338e+001	-8.616089e+001	-2.066106e+001	1.527707e+001
1744300000.000	-2.790433e+001	1.461091e+002	-2.045686e+001	-1.274054e+002	-2.040550e+001	-1.291189e+002	-2.072241e+001	-6.260161e+001
1749200000.000	-2.900238e+001	1.471141e+002	-2.002737e+001	-1.704960e+002	-2.023989e+001	-1.711752e+002	-1.976596e+001	-1.325974e+002
1754100000.000	-2.966039e+001	1.499448e+002	-1.966171e+001	1.446903e+002	-1.976603e+001	1.458248e+002	-1.955898e+001	1.679698e+002
1759000000.000	-2.976755e+001	1.518888e+002	-1.943566e+001	1.002637e+002	-1.926279e+001	1.008061e+002	-2.086538e+001	1.069402e+002
1763900000.000	-2.959792e+001	1.493783e+002	-1.908361e+001	5.600605e+001	-1.900874e+001	5.473809e+001	-2.335502e+001	3.604982e+001
1768800000.000	-2.969762e+001	1.427305e+002	-1.871237e+001	1.023139e+001	-1.887492e+001	9.373900e+000	-2.444376e+001	-4.196003e+001
1773700000.000	-3.012879e+001	1.344255e+002	-1.853159e+001	-3.597412e+001	-1.869431e+001	-3.536141e+001	-2.405179e+001	-1.084690e+002
1778600000.000	-3.089496e+001	1.253189e+002	-1.841283e+001	-8.118580e+001	-1.841254e+001	-8.032449e+001	-2.464407e+001	-1.611151e+002
1783500000.000	-3.189894e+001	1.168290e+002	-1.816144e+001	-1.263005e+002	-1.812080e+001	-1.259291e+002	-2.655115e+001	1.543715e+002
1788400000.000	-3.304894e+001	1.083985e+002	-1.787358e+001	-1.721877e+002	-1.783536e+001	-1.720699e+002	-2.939668e+001	1.133254e+002
1793300000.000	-3.522960e+001	1.000575e+002	-1.759616e+001	1.412522e+002	-1.757028e+001	1.413639e+002	-3.209610e+001	6.595820e+001
1798200000.000	-3.893619e+001	9.978557e+001	-1.741212e+001	9.406016e+001	-1.736423e+001	9.403106e+001	-3.270214e+001	-4.995159e+000
1803100000.000	-4.343277e+001	1.246268e+002	-1.730718e+001	4.677142e+001	-1.727422e+001	4.643472e+001	-2.992489e+001	-7.710135e+001
1808000000.000	-4.209223e+001	1.624416e+002	-1.725411e+001	-7.822264e-001	-1.729511e+001	-1.077857e+000	-2.753184e+001	-1.333379e+002
1812900000.000	-4.017544e+001	1.721190e+002	-1.728308e+001	-4.887808e+001	-1.733145e+001	-4.866339e+001	-2.741240e+001	1.786641e+002
1817800000.000	-4.081313e+001	1.788820e+002	-1.750868e+001	-9.715660e+001	-1.747639e+001	-9.676854e+001	-2.966641e+001	1.378019e+002
1822700000.000	-4.025024e+001	-1.561366e+002	-1.790702e+001	-1.446864e+002	-1.784586e+001	-1.446262e+002	-3.362737e+001	1.020431e+002
1827600000.000	-3.848046e+001	-1.413820e+002	-1.836378e+001	1.685769e+002	-1.830901e+001	1.684253e+002	-3.606347e+001	6.072734e+001
1832500000.000	-3.620899e+001	-1.336202e+002	-1.887316e+001	1.224477e+002	-1.886371e+001	1.220958e+002	-3.308899e+001	-2.095190e+000
1837400000.000	-3.465445e+001	-1.302326e+002	-1.940151e+001	7.708954e+001	-1.945974e+001	7.705206e+001	-2.803570e+001	-6.031472e+001
1842300000.000	-3.244487e+001	-1.301004e+002	-2.002122e+001	3.193366e+001	-2.003721e+001	3.255991e+001	-2.444459e+001	-1.147490e+002
1847200000.000	-3.073352e+001	-1.391806e+002	-2.076086e+001	-1.135098e+001	-2.066247e+001	-1.079808e+001	-2.249349e+001	-1.704995e+002
1852100000.000	-2.979972e+001	-1.471013e+002	-2.121662e+001	-5.260904e+001	-2.113367e+001	-5.269022e+001	-2.161659e+001	1.306352e+002
1857000000.000	-2.877942e+001	-1.559484e+002	-2.152359e+001	-9.493750e+001	-2.146838e+001	-9.481258e+001	-2.115287e+001	6.433887e+001
1861900000.000	-2.776685e+001	-1.631366e+002	-2.191540e+001	-1.363676e+002	-2.178317e+001	-1.362683e+002	-2.092409e+001	-1.052372e+001
1866800000.000	-2.650973e+001	-1.712140e+002	-2.214548e+001	-1.769126e+002	-2.202641e+001	-1.777394e+002	-2.108439e+001	-8.200157e+001
1871700000.000	-2.547904e+001	-1.792789e+002	-2.212009e+001	1.433909e+002	-2.217059e+001	1.426365e+002	-1.958467e+001	-1.414560e+002
1876600000.000	-2.439474e+001	1.725797e+002	-2.184291e+001	1.024098e+002	-2.189121e+001	1.029224e+002	-1.838057e+001	1.598069e+002
1881500000.000	-2.348264e+001	1.624278e+002	-2.163266e+001	6.046765e+001	-2.139846e+001	6.099613e+001	-1.805975e+001	9.855991e+001
1886400000.000	-2.302122e+001	1.500373e+002	-2.132277e+001	1.946499e+001	-2.106587e+001	1.721422e+001	-1.836806e+001	2.960699e+001
1891300000.000	-2.321918e+001	1.368290e+002	-2.072037e+001	-2.278349e+001	-2.095110e+001	-2.590717e+001	-1.798465e+001	-4.319385e+001
1896200000.000	-2.413530e+001	1.241953e+002	-2.017479e+001	-6.715921e+001	-2.066277e+001	-6.713538e+001	-1.684447e+001	-1.092937e+002
1901100000.000	-2.510727e+001	1.159967e+002	-1.988755e+001	-1.121964e+002	-2.002524e+001	-1.099156e+002	-1.603892e+001	-1.692303e+002
1906000000.000	-2.592047e+001	1.031825e+002	-1.953670e+001	-1.546671e+002	-1.933572e+001	-1.538346e+002	-1.599899e+001	1.289050e+002
1910900000.000	-2.733400e+001	8.984462e+001	-1.873038e+001	1.609004e+002	-1.866378e+001	1.597850e+002	-1.644519e+001	5.966668e+001
1915800000.000	-2.878659e+001	7.583026e+001	-1.818592e+001	1.131228e+002	-1.832576e+001	1.126974e+002	-1.662241e+001	-1.376416e+001
1920700000.000	-3.092374e+001	5.759751e+001	-1.802126e+001	6.622917e+001	-1.811586e+001	6.670929e+001	-1.634325e+001	-8.311487e+001
1925600000.000	-3.389337e+001	3.879788e+001	-1.772121e+001	2.090851e+001	-1.775320e+001	2.136579e+001	-1.611730e+001	-1.481094e+002
1930500000.000	-3.812283e+001	7.615187e+000	-1.722459e+001	-2.632444e+001	-1.723660e+001	-2.543215e+001	-1.625423e+001	1.461555e+002
1935400000.000	-4.291689e+001	-6.215901e+001	-1.705048e+001	-7.518990e+001	-1.687186e+001	-7.429703e+001	-1.693697e+001	7.697768e+001
1940300000.000	-3.831260e+001	-1.227092e+002	-1.710006e+001	-1.227304e+002	-1.685917e+001	-1.235301e+002	-1.812943e+001	4.674915e+000
1945200000.000	-3.331556e+001	-1.522730e+002	-1.702473e+001	-1.700860e+002	-1.702729e+001	-1.715255e+002	-1.939856e+001	-6.842440e+001
1950100000.000	-3.048563e+001	-1.756889e+002	-1.705962e+001	1.410386e+002	-1.718681e+001	1.408764e+002	-2.039171e+001	-1.390690e+002
1955000000.000	-2.954253e+001	1.658489e+002	-1.750446e+001	9.249047e+001	-1.746616e+001	9.284313e+001	-2.232616e+001	1.520027e+002
1959900000.000	-2.885014e+001	1.543210e+002	-1.806871e+001	4.716994e+001	-1.801332e+001	4.659975e+001	-2.842072e+001	8.656019e+001
1964800000.000	-2.816463e+001	1.369821e+002	-1.824011e+001	2.232551e+000	-1.829965e+001	1.868278e+000	-5.462394e+001	-1.692229e+002
1969700000.000	-2.856815e+001	1.175111e+002	-1.848813e+001	-4.448122e+001	-1.852022e+001	-4.441432e+001	-3.173079e+001	1.509251e+002
1974600000.000	-2.911908e+001	9.572019e+001	-1.897582e+001	-8.941104e+001	-1.896149e+001	-8.940878e+001	-2.742532e+001	9.175946e+001
1979500000.000	-3.102813e+001	6.731678e+001	-1.921872e+001	-1.341556e+002	-1.923852e+001	-1.342675e+002	-2.567443e+001	1.446919e+001
1984400000.000	-3.413805e+001	3.560839e+001	-1.956087e+001	-1.788734e+002	-1.957619e+001	-1.787624e+002	-2.365392e+001	-6.512269e+001
1989300000.000	-3.785125e+001	-1.292255e+001	-1.984263e+001	1.363362e+002	-1.987291e+001	1.365136e+002	-2.105291e+001	-1.334278e+002
1994200000.000	-3.768648e+001	-8.041075e+001	-2.017800e+001	9.181812e+001	-2.019051e+001	9.261548e+001	-1.887399e+001	1.626667e+002
1999100000.000	-3.384502e+001	-1.225279e+002	-2.061589e+001	4.725223e+001	-2.044119e+001	4.843616e+001	-1.763690e+001	9.771866e+001
2004000000.000	-3.059225e+001	-1.470183e+002	-2.116014e+001	4.397112e+000	-2.078998e+001	3.788904e+000	-1.700539e+001	2.820190e+001
2008900000.000	-2.853627e+001	-1.638426e+002	-2.150300e+001	-3.688808e+001	-2.135786e+001	-3.977761e+001	-1.637638e+001	-4.317467e+001
2013800000.000	-2.712086e+001	-1.760280e+002	-2.160849e+001	-7.884832e+001	-2.191252e+001	-8.065409e+001	-1.527419e+001	-1.095151e+002
2018700000.000	-2.611628e+001	1.739857e+002	-2.180125e+001	-1.208482e+002	-2.202140e+001	-1.194621e+002	-1.412420e+001	-1.718121e+002
2023600000.000	-2.549814e+001	1.631092e+002	-2.183476e+001	-1.613165e+002	-2.154903e+001	-1.602657e+002	-1.354984e+001	1.242141e+002
2028500000.000	-2.564705e+001	1.533052e+002	-2.153778e+001	1.574094e+002	-2.123182e+001	1.549788e+002	-1.361214e+001	5.457283e+001
2033400000.000	-2.597600e+001	1.460391e+002	-2.115572e+001	1.139999e+002	-2.139181e+001	1.109475e+002	-1.372254e+001	-1.876538e+001
2038300000.000	-2.622140e+001	1.385346e+002	-2.108307e+001	7.006442e+001	-2.150497e+001	7.004540e+001	-1.335724e+001	-8.783335e+001
2043200000.000	-2.667290e+001	1.298660e+002	-2.095637e+001	2.805623e+001	-2.108623e+001	2.983040e+001	-1.263906e+001	-1.522952e+002
2048100000.000	-2.718703e+001	1.209082e+002	-2.040063e+001	-1.382495e+001	-2.026392e+001	-1.289113e+001	-1.211685e+001	1.422586e+002
2053000000.000	-2.781339e+001	1.131639e+002	-1.970194e+001	-5.954224e+001	-1.954469e+001	-5.967062e+001	-1.207824e+001	7.161713e+001
2057900000.000	-2.817853e+001	1.070525e+002	-1.949714e+001	-1.063913e+002	-1.935599e+001	-1.074478e+002	-1.259529e+001	-2.040051e+000
2062800000.000	-2.824334e+001	9.949735e+001	-1.935837e+001	-1.511752e+002	-1.942350e+001	-1.528732e+002	-1.316880e+001	-7.358778e+001
2067700000.000	-2.872517e+001	9.424627e+001	-1.893740e+001	1.636832e+002	-1.918415e+001	1.633274e+002	-1.342546e+001	-1.418924e+002
2072600000.000	-2.874222e+001	9.260104e+001	-1.859728e+001	1.156734e+002	-1.864982e+001	1.171981e+002	-1.352242e+001	1.504032e+002
2077500000.000	-2.802881e+001	8.959716e+001	-1.868198e+001	6.817382e+001	-1.837018e+001	6.848590e+001	-1.415326e+001	7.984754e+001
2082400000.000	-2.743281e+001	8.209507e+001	-1.872642e+001	2.184697e+001	-1.857100e+001	1.949006e+001	-1.582331e+001	6.570114e+000
2087300000.000	-2.693042e+001	7.260530e+001	-1.877577e+001	-2.534267e+001	-1.899363e+001	-2.711072e+001	-1.785273e+001	-6.797545e+001
2092200000.000	-2.660907e+001	5.773789e+001	-1.910952e+001	-7.247580e+001	-1.932423e+001	-7.223464e+001	-1.962255e+001	-1.417181e+002
2097100000.000	-2.678612e+001	4.007845e+001	-1.954798e+001	-1.176933e+002	-1.955048e+001	-1.172410e+002	-2.226462e+001	1.467234e+002
2102000000.000	-2.705610e+001	2.137516e+001	-1.989878e+001	-1.617371e+002	-1.989171e+001	-1.620638e+002	-2.809427e+001	6.960026e+001
2106900000.000	-2.703403e+001	-1.172207e+000	-2.007465e+001	1.550243e+002	-2.014678e+001	1.548406e+002	-3.512989e+001	-6.673255e+001
2111800000.000	-2.687840e+001	-2.691923e+001	-2.007026e+001	1.113682e+002	-2.013155e+001	1.117768e+002	-2.983468e+001	-1.739077e+002
2116700000.000	-2.665972e+001	-5.438087e+001	-2.003701e+001	6.655980e+001	-2.001433e+001	6.732034e+001	-2.763552e+001	1.116007e+002
2121600000.000	-2.614868e+001	-8.101746e+001	-2.006797e+001	2.210585e+001	-1.996626e+001	2.259507e+001	-2.555108e+001	2.927886e+001
2126500000.000	-2.541367e+001	-1.082779e+002	-1.995828e+001	-2.353573e+001	-1.983179e+001	-2.369644e+001	-2.333134e+001	-4.970946e+001
2131400000.000	-2.470095e+001	-1.330494e+002	-2.009685e+001	-6.985363e+001	-2.003114e+001	-7.028760e+001	-2.108723e+001	-1.134678e+002
2136300000.000	-2.389792e+001	-1.554280e+002	-2.037474e+001	-1.158756e+002	-2.029923e+001	-1.158594e+002	-1.924706e+001	-1.732244e+002
2141200000.000	-2.323566e+001	-1.763029e+002	-2.076547e+001	-1.612762e+002	-2.054513e+001	-1.613379e+002	-1.810619e+001	1.252815e+002
2146100000.000	-2.315782e+001	1.662075e+002	-2.125786e+001	1.540823e+002	-2.096472e+001	1.523128e+002	-1.761211e+001	5.838866e+001
2151000000.000	-2.305315e+001	1.518860e+002	-2.170463e+001	1.109340e+002	-2.171295e+001	1.076246e+002	-1.731499e+001	-1.350806e+001
2155900000.000	-2.344525e+001	1.384659e+002	-2.210573e+001	6.796317e+001	-2.249062e+001	6.598145e+001	-1.651722e+001	-8.399607e+001
2160800000.000	-2.416750e+001	1.284652e+002	-2.254019e+001	2.617791e+001	-2.287474e+001	2.680103e+001	-1.530485e+001	-1.486095e+002
2165700000.000	-2.487896e+001	1.214499e+002	-2.283499e+001	-1.421968e+001	-2.282441e+001	-1.292480e+001	-1.431839e+001	1.491134e+002
2170600000.000	-2.526897e+001	1.144093e+002	-2.280328e+001	-5.425730e+001	-2.261522e+001	-5.451717e+001	-1.388861e+001	8.348146e+001
2175500000.000	-2.585640e+001	1.057167e+002	-2.257084e+001	-9.551515e+001	-2.254486e+001	-9.715255e+001	-1.395480e+001	1.258364e+001
2180400000.000	-2.651716e+001	9.951355e+001	-2.240406e+001	-1.374359e+002	-2.261097e+001	-1.386382e+002	-1.395570e+001	-5.794006e+001
2185300000.000	-2.674600e+001	9.408857e+001	-2.212042e+001	-1.787643e+002	-2.240449e+001	-1.784852e+002	-1.360178e+001	-1.236992e+002
2190200000.000	-2.665997e+001	8.775819e+001	-2.166004e+001	1.390674e+002	-2.177627e+001	1.407325e+002	-1.298959e+001	1.727447e+002
2195100000.000	-2.639013e+001	7.992261e+001	-2.116529e+001	9.610054e+001	-2.095213e+001	9.761282e+001	-1.232057e+001	1.068031e+002
2200000000.000	-2.646873e+001	7.066124e+001	-2.060322e+001	5.208448e+001	-2.026382e+001	5.116450e+001	-1.215460e+001	3.775227e+001
2204900000.000	-2.675645e+001	6.311321e+001	-2.010129e+001	7.197818e+000	-2.008563e+001	4.488689e+000	-1.268312e+001	-3.028543e+001
2209800000.000	-2.718967e+001	5.716999e+001	-1.960604e+001	-3.825768e+001	-1.993693e+001	-3.957329e+001	-1.331097e+001	-9.671896e+001
2214700000.000	-2.742613e+001	5.178992e+001	-1.918627e+001	-8.498302e+001	-1.944214e+001	-8.376793e+001	-1.361028e+001	-1.631680e+002
2219600000.000	-2.757810e+001	4.508705e+001	-1.896118e+001	-1.318684e+002	-1.884857e+001	-1.303430e+002	-1.370010e+001	1.297121e+002
2224500000.000	-2.769170e+001	3.492401e+001	-1.882370e+001	-1.785290e+002	-1.857686e+001	-1.791122e+002	-1.418619e+001	6.238213e+001
2229400000.000	-2.795068e+001	2.259600e+001	-1.877139e+001	1.355792e+002	-1.875278e+001	1.334963e+002	-1.508356e+001	-3.317731e+000
2234300000.000	-2.774526e+001	6.585712e+000	-1.847945e+001	9.020495e+001	-1.875322e+001	8.878490e+001	-1.554126e+001	-6.845342e+001
2239200000.000	-2.767402e+001	-1.760460e+001	-1.816318e+001	4.236226e+001	-1.849120e+001	4.292938e+001	-1.600987e+001	-1.336875e+002
2244100000.000	-2.812831e+001	-4.507445e+001	-1.812662e+001	-6.024298e+000	-1.824109e+001	-4.239257e+000	-1.710478e+001	1.635806e+002
2249000000.000	-2.869331e+001	-7.368721e+001	-1.824822e+001	-5.425578e+001	-1.813729e+001	-5.291344e+001	-1.917714e+001	1.005958e+002
2253900000.000	-2.917913e+001	-1.028572e+002	-1.850957e+001	-1.020028e+002	-1.834174e+001	-1.017836e+002	-2.215260e+001	3.603870e+001
2258800000.000	-2.955294e+001	-1.306251e+002	-1.886073e+001	-1.491438e+002	-1.875369e+001	-1.495565e+002	-2.505577e+001	-2.808387e+001
2263700000.000	-2.909476e+001	-1.541103e+002	-1.925017e+001	1.642771e+002	-1.918949e+001	1.637435e+002	-2.726425e+001	-8.229057e+001
2268600000.000	-2.784796e+001	-1.779005e+002	-1.968161e+001	1.180524e+002	-1.963492e+001	1.173401e+002	-2.802789e+001	-1.204045e+002
2273500000.000	-2.692580e+001	1.587919e+002	-2.017202e+001	7.220374e+001	-2.017616e+001	7.152777e+001	-2.651087e+001	-1.543388e+002
2278400000.000	-2.675132e+001	1.385324e+002	-2.069972e+001	2.698974e+001	-2.070886e+001	2.659292e+001	-2.423339e+001	1.622541e+002
2283300000.000	-2.723420e+001	1.245680e+002	-2.126868e+001	-1.770285e+001	-2.120111e+001	-1.817943e+001	-2.244898e+001	1.102933e+002
2288200000.000	-2.762865e+001	1.166941e+002	-2.186914e+001	-6.156629e+001	-2.180605e+001	-6.270476e+001	-2.120020e+001	5.105012e+001
2293100000.000	-2.775040e+001	1.101330e+002	-2.245189e+001	-1.048413e+002	-2.251459e+001	-1.064788e+002	-2.020608e+001	-1.341421e+001
2298000000.000	-2.769423e+001	1.027767e+002	-2.306113e+001	-1.469653e+002	-2.328292e+001	-1.481002e+002	-1.904421e+001	-7.804790e+001
2302900000.000	-2.764557e+001	9.300782e+001	-2.360385e+001	1.724387e+002	-2.385932e+001	1.726053e+002	-1.775806e+001	-1.399289e+002
2307800000.000	-2.795626e+001	8.263458e+001	-2.381328e+001	1.331410e+002	-2.391405e+001	1.344036e+002	-1.664826e+001	1.580001e+002
2312700000.000	-2.823876e+001	7.493981e+001	-2.369800e+001	9.248723e+001	-2.356062e+001	9.330973e+001	-1.590526e+001	9.218322e+001
2317600000.000	-2.818326e+001	6.921799e+001	-2.363019e+001	5.071535e+001	-2.346346e+001	4.981283e+001	-1.552823e+001	2.375880e+001
2322500000.000	-2.766236e+001	6.319197e+001	-2.353284e+001	8.962625e+000	-2.361824e+001	7.301924e+000	-1.542982e+001	-4.297184e+001
2327400000.000	-2.714767e+001	5.458620e+001	-2.343895e+001	-3.321896e+001	-2.371931e+001	-3.358674e+001	-1.536919e+001	-1.066547e+002
2332300000.000	-2.721534e+001	4.380789e+001	-2.336165e+001	-7.497933e+001	-2.352755e+001	-7.345494e+001	-1.506516e+001	-1.699282e+002
2337200000.000	-2.830750e+001	3.364375e+001	-2.313073e+001	-1.159996e+002	-2.296453e+001	-1.143821e+002	-1.435130e+001	1.253815e+002
2342100000.000	-3.038967e+001	3.129413e+001	-2.262157e+001	-1.578674e+002	-2.228035e+001	-1.583344e+002	-1.368056e+001	5.905032e+001
2347000000.000	-3.167268e+001	3.884893e+001	-2.213891e+001	1.580907e+002	-2.199997e+001	1.556876e+002	-1.366573e+001	-7.711112e+000
2351900000.000	-3.152686e+001	4.275540e+001	-2.180877e+001	1.140033e+002	-2.202009e+001	1.118071e+002	-1.401339e+001	-7.288493e+001
2356800000.000	-3.106271e+001	4.039227e+001	-2.141021e+001	6.986451e+001	-2.177946e+001	6.958768e+001	-1.392693e+001	-1.363050e+002
2361700000.000	-3.035441e+001	2.810905e+001	-2.104838e+001	2.472288e+001	-2.124933e+001	2.641181e+001	-1.339726e+001	1.609235e+002
2366600000.000	-3.008220e+001	7.011922e+000	-2.081025e+001	-2.039092e+001	-2.063751e+001	-1.885727e+001	-1.301964e+001	9.558825e+001
2371500000.000	-3.026037e+001	-1.816420e+001	-2.051403e+001	-6.520880e+001	-2.025745e+001	-6.622013e+001	-1.325876e+001	2.644587e+001
2376400000.000	-3.043244e+001	-4.205852e+001	-2.017262e+001	-1.106723e+002	-2.029084e+001	-1.129108e+002	-1.373418e+001	-4.211819e+001
2381300000.000	-3.021704e+001	-6.518004e+001	-1.987587e+001	-1.569577e+002	-2.029277e+001	-1.571286e+002	-1.390344e+001	-1.051444e+002
2386200000.000	-3.006678e+001	-9.001495e+001	-1.972928e+001	1.564296e+002	-1.996166e+001	1.590137e+002	-1.394087e+001	-1.646584e+002
2391100000.000	-3.008539e+001	-1.167162e+002	-1.963098e+001	1.104803e+002	-1.938042e+001	1.131279e+002	-1.413528e+001	1.334836e+002
2396000000.000	-3.010021e+001	-1.475301e+002	-1.941495e+001	6.430485e+001	-1.897631e+001	6.400921e+001	-1.452528e+001	6.504612e+001
2400900000.000	-2.991095e+001	-1.799093e+002	-1.928451e+001	1.681404e+001	-1.913069e+001	1.453044e+001	-1.514809e+001	-5.254790e+000
2405800000.000	-2.947041e+001	1.511588e+002	-1.936038e+001	-3.071280e+001	-1.951097e+001	-3.222525e+001	-1.595619e+001	-7.024353e+001
2410700000.000	-2.917462e+001	1.291407e+002	-1.952540e+001	-7.737603e+001	-1.968462e+001	-7.744975e+001	-1.690012e+001	-1.313839e+002
2415600000.000	-2.897447e+001	1.137849e+002	-1.963409e+001	-1.238534e+002	-1.966319e+001	-1.234654e+002	-1.795245e+001	1.670154e+002
2420500000.000	-2.904704e+001	1.015417e+002	-1.979204e+001	-1.709050e+002	-1.972230e+001	-1.708355e+002	-1.901905e+001	1.050934e+002
2425400000.000	-2.965610e+001	9.275681e+001	-2.008583e+001	1.418142e+002	-1.999750e+001	1.412710e+002	-2.048545e+001	4.649150e+001
2430300000.000	-3.057157e+001	8.960313e+001	-2.052405e+001	9.504306e+001	-2.050431e+001	9.397876e+001	-2.249513e+001	-4.388196e+000
2435200000.000	-3.026560e+001	9.122147e+001	-2.107449e+001	4.863875e+001	-2.114373e+001	4.755708e+001	-2.409337e+001	-4.890630e+001
