!Agilent Technologies,E5061B,MY49305579,A.02.22
!Date: Thu Aug 24 16:22:58 2017
!Data & Calibration Information:
!Freq	S11:SOLT2(ON)	S21:SOLT2(ON)	S12:SOLT2(ON)	S22:SOLT2(ON)
# Hz S dB R 50
1710000000.000	-3.239075e+001	-1.407044e+002	-1.603302e+001	1.570616e+002	-1.622451e+001	1.573968e+002	-1.908403e+001	-6.271823e+001
1714900000.000	-3.034818e+001	-1.358222e+002	-1.645051e+001	1.107181e+002	-1.636066e+001	1.117724e+002	-2.028444e+001	-1.452776e+002
1719800000.000	-2.836985e+001	-1.408477e+002	-1.649481e+001	6.638906e+001	-1.637409e+001	6.610926e+001	-2.208203e+001	1.326980e+002
1724700000.000	-2.656331e+001	-1.499046e+002	-1.649726e+001	1.987447e+001	-1.647659e+001	1.977998e+001	-2.433299e+001	3.084586e+001
1729600000.000	-2.527993e+001	-1.630017e+002	-1.683146e+001	-2.532497e+001	-1.674391e+001	-2.544704e+001	-2.163762e+001	-7.617942e+001
1734500000.000	-2.462511e+001	-1.744666e+002	-1.684669e+001	-6.855324e+001	-1.686017e+001	-6.923054e+001	-1.791269e+001	-1.521257e+002
1739400000.000	-2.413372e+001	1.746102e+002	-1.663703e+001	-1.141309e+002	-1.673029e+001	-1.132724e+002	-1.572125e+001	1.413014e+002
1744300000.000	-2.388795e+001	1.641465e+002	-1.685429e+001	-1.603197e+002	-1.653063e+001	-1.591968e+002	-1.483692e+001	7.057890e+001
1749200000.000	-2.388196e+001	1.523576e+002	-1.699880e+001	1.569647e+002	-1.663313e+001	1.540105e+002	-1.426469e+001	-5.950528e+000
1754100000.000	-2.429352e+001	1.400800e+002	-1.650884e+001	1.128139e+002	-1.694903e+001	1.091584e+002	-1.306734e+001	-7.974693e+001
1759000000.000	-2.512794e+001	1.260652e+002	-1.633112e+001	6.405347e+001	-1.699930e+001	6.625716e+001	-1.170382e+001	-1.465035e+002
1763900000.000	-2.635706e+001	1.102114e+002	-1.687904e+001	1.806562e+001	-1.662213e+001	2.247956e+001	-1.059518e+001	1.479119e+002
1768800000.000	-2.843991e+001	8.991996e+001	-1.686111e+001	-2.331065e+001	-1.623184e+001	-2.499190e+001	-9.937737e+000	7.633392e+001
1773700000.000	-3.204939e+001	6.724637e+001	-1.615531e+001	-6.976198e+001	-1.642446e+001	-7.376270e+001	-9.680829e+000	7.538328e-001
1778600000.000	-3.823040e+001	3.563286e+001	-1.640920e+001	-1.206322e+002	-1.698323e+001	-1.192979e+002	-9.418627e+000	-7.098938e+001
1783500000.000	-4.662734e+001	-6.860224e+001	-1.733618e+001	-1.647806e+002	-1.725999e+001	-1.616977e+002	-8.899237e+000	-1.373864e+002
1788400000.000	-3.781997e+001	-1.422472e+002	-1.724662e+001	1.552481e+002	-1.699804e+001	1.554397e+002	-8.209398e+000	1.557614e+002
1793300000.000	-3.349244e+001	-1.671488e+002	-1.666203e+001	1.083901e+002	-1.662157e+001	1.085756e+002	-7.862059e+000	8.292641e+001
1798200000.000	-3.130863e+001	1.738118e+002	-1.721315e+001	6.015578e+001	-1.690827e+001	6.025434e+001	-8.362812e+000	6.354973e+000
1803100000.000	-3.051614e+001	1.565359e+002	-1.767567e+001	1.910984e+001	-1.757061e+001	1.605695e+001	-9.143380e+000	-6.652211e+001
1808000000.000	-3.088732e+001	1.405859e+002	-1.720945e+001	-2.335701e+001	-1.775909e+001	-2.475218e+001	-9.558150e+000	-1.345060e+002
1812900000.000	-3.250523e+001	1.244152e+002	-1.705378e+001	-7.082811e+001	-1.732524e+001	-6.697063e+001	-9.901160e+000	1.579300e+002
1817800000.000	-3.643661e+001	1.094406e+002	-1.742709e+001	-1.152888e+002	-1.683795e+001	-1.133360e+002	-1.087611e+001	8.596768e+001
1822700000.000	-4.463817e+001	1.011226e+002	-1.728325e+001	-1.573992e+002	-1.699729e+001	-1.607247e+002	-1.273979e+001	9.751372e+000
1827600000.000	-5.330289e+001	-1.068237e+002	-1.688237e+001	1.566644e+002	-1.728616e+001	1.550635e+002	-1.467423e+001	-6.447443e+001
1832500000.000	-4.159666e+001	-9.891488e+001	-1.701794e+001	1.100001e+002	-1.722913e+001	1.120535e+002	-1.656969e+001	-1.345255e+002
1837400000.000	-3.696972e+001	-9.647747e+001	-1.710209e+001	6.618561e+001	-1.691567e+001	6.740414e+001	-1.961365e+001	1.560502e+002
1842300000.000	-3.291716e+001	-1.027570e+002	-1.690462e+001	2.128577e+001	-1.680947e+001	2.091745e+001	-2.520515e+001	7.438244e+001
1847200000.000	-3.047297e+001	-1.157332e+002	-1.694400e+001	-2.482182e+001	-1.694198e+001	-2.456965e+001	-2.986969e+001	-6.007910e+001
1852100000.000	-2.861962e+001	-1.256562e+002	-1.701712e+001	-6.907111e+001	-1.693372e+001	-6.879767e+001	-2.467777e+001	-1.686084e+002
1857000000.000	-2.685428e+001	-1.387436e+002	-1.683778e+001	-1.137775e+002	-1.677879e+001	-1.136434e+002	-2.124843e+001	1.106597e+002
1861900000.000	-2.531507e+001	-1.515281e+002	-1.680855e+001	-1.601042e+002	-1.666433e+001	-1.596320e+002	-1.900398e+001	3.128765e+001
1866800000.000	-2.384417e+001	-1.653286e+002	-1.696256e+001	1.553276e+002	-1.672448e+001	1.543310e+002	-1.686431e+001	-4.705928e+001
1871700000.000	-2.282781e+001	-1.794496e+002	-1.672334e+001	1.115930e+002	-1.682074e+001	1.096820e+002	-1.473003e+001	-1.190398e+002
1876600000.000	-2.206440e+001	1.668944e+002	-1.639809e+001	6.412305e+001	-1.666990e+001	6.507224e+001	-1.290276e+001	1.746738e+002
1881500000.000	-2.163847e+001	1.528385e+002	-1.675323e+001	1.647679e+001	-1.640124e+001	1.874104e+001	-1.162092e+001	1.070510e+002
1886400000.000	-2.168461e+001	1.376990e+002	-1.697988e+001	-2.639878e+001	-1.639237e+001	-2.976086e+001	-1.101278e+001	3.358730e+001
1891300000.000	-2.235313e+001	1.220549e+002	-1.650521e+001	-7.160435e+001	-1.692384e+001	-7.728982e+001	-1.065253e+001	-4.101099e+001
1896200000.000	-2.374049e+001	1.061637e+002	-1.652284e+001	-1.214315e+002	-1.747309e+001	-1.204766e+002	-1.007132e+001	-1.096256e+002
1901100000.000	-2.570750e+001	9.332083e+001	-1.725045e+001	-1.683184e+002	-1.733463e+001	-1.628599e+002	-9.403317e+000	-1.739046e+002
1906000000.000	-2.771020e+001	7.833852e+001	-1.764736e+001	1.499929e+002	-1.701325e+001	1.509373e+002	-8.863277e+000	1.183229e+002
1910900000.000	-3.103961e+001	6.180071e+001	-1.726915e+001	1.050092e+002	-1.714369e+001	1.018200e+002	-9.006885e+000	4.373620e+001
1915800000.000	-3.540377e+001	4.714177e+001	-1.764114e+001	5.625652e+001	-1.797026e+001	5.540776e+001	-9.654689e+000	-2.967802e+001
1920700000.000	-4.423774e+001	2.032511e+001	-1.841168e+001	1.302397e+001	-1.856264e+001	1.404084e+001	-1.006667e+001	-9.658903e+001
1925600000.000	-4.655687e+001	-1.608684e+002	-1.850770e+001	-2.764748e+001	-1.855369e+001	-2.681942e+001	-1.009995e+001	-1.605390e+002
1930500000.000	-3.796205e+001	1.785399e+002	-1.808306e+001	-7.188888e+001	-1.806710e+001	-7.029249e+001	-1.005173e+001	1.326821e+002
1935400000.000	-3.435614e+001	1.622414e+002	-1.815416e+001	-1.193897e+002	-1.778684e+001	-1.183220e+002	-1.048038e+001	6.181023e+001
1940300000.000	-3.348007e+001	1.482106e+002	-1.864207e+001	-1.641029e+002	-1.830167e+001	-1.663852e+002	-1.159856e+001	-9.997993e+000
1945200000.000	-3.341131e+001	1.429522e+002	-1.875138e+001	1.527275e+002	-1.896892e+001	1.501099e+002	-1.281906e+001	-7.836457e+001
1950100000.000	-3.306657e+001	1.406118e+002	-1.884537e+001	1.077391e+002	-1.921252e+001	1.084970e+002	-1.364505e+001	-1.436270e+002
1955000000.000	-3.312815e+001	1.358162e+002	-1.914407e+001	6.342556e+001	-1.907208e+001	6.554567e+001	-1.454108e+001	1.523372e+002
1959900000.000	-3.293609e+001	1.355212e+002	-1.938468e+001	2.030678e+001	-1.909736e+001	2.007523e+001	-1.623658e+001	8.680154e+001
1964800000.000	-3.247616e+001	1.244592e+002	-1.941365e+001	-2.306072e+001	-1.940600e+001	-2.456967e+001	-1.917362e+001	1.714284e+001
1969700000.000	-3.333327e+001	1.123405e+002	-1.964807e+001	-6.755674e+001	-1.978789e+001	-6.793348e+001	-2.249997e+001	-5.823435e+001
1974600000.000	-3.391411e+001	9.461121e+001	-1.997871e+001	-1.095590e+002	-2.003971e+001	-1.091818e+002	-2.538699e+001	-1.349883e+002
1979500000.000	-3.668674e+001	6.379045e+001	-2.000103e+001	-1.510413e+002	-1.999099e+001	-1.507871e+002	-2.971404e+001	1.555422e+002
1984400000.000	-4.267671e+001	2.102635e+001	-1.988876e+001	1.674403e+002	-1.988093e+001	1.676734e+002	-5.458449e+001	2.809431e+001
1989300000.000	-4.287715e+001	-6.703250e+001	-1.955467e+001	1.253890e+002	-1.954506e+001	1.256013e+002	-2.813014e+001	-1.445181e+002
1994200000.000	-3.574675e+001	-1.168166e+002	-1.915765e+001	8.221392e+001	-1.911613e+001	8.274605e+001	-2.234849e+001	1.519895e+002
1999100000.000	-3.110829e+001	-1.438276e+002	-1.875474e+001	3.775311e+001	-1.856138e+001	3.850705e+001	-1.944438e+001	8.523664e+001
2004000000.000	-2.837394e+001	-1.660611e+002	-1.850733e+001	-6.937511e+000	-1.815813e+001	-8.099686e+000	-1.768248e+001	1.235561e+001
2008900000.000	-2.700108e+001	1.765067e+002	-1.811055e+001	-5.121450e+001	-1.809085e+001	-5.422659e+001	-1.603565e+001	-6.084735e+001
2013800000.000	-2.646715e+001	1.622967e+002	-1.764654e+001	-9.772550e+001	-1.803547e+001	-9.873282e+001	-1.442218e+001	-1.281659e+002
2018700000.000	-2.654548e+001	1.511580e+002	-1.756960e+001	-1.451308e+002	-1.769018e+001	-1.428795e+002	-1.309433e+001	1.679610e+002
2023600000.000	-2.727119e+001	1.408033e+002	-1.764117e+001	1.702161e+002	-1.719305e+001	1.706897e+002	-1.232308e+001	1.006406e+002
2028500000.000	-2.917463e+001	1.343704e+002	-1.711585e+001	1.249503e+002	-1.692493e+001	1.212628e+002	-1.212666e+001	2.550525e+001
2033400000.000	-3.138043e+001	1.406250e+002	-1.689361e+001	7.540137e+001	-1.734033e+001	7.296987e+001	-1.219182e+001	-4.944706e+001
2038300000.000	-3.142964e+001	1.550632e+002	-1.731034e+001	2.710499e+001	-1.770207e+001	2.855099e+001	-1.189807e+001	-1.176376e+002
2043200000.000	-2.985001e+001	1.608072e+002	-1.767971e+001	-1.748101e+001	-1.761584e+001	-1.551675e+001	-1.151573e+001	1.773531e+002
2048100000.000	-2.795242e+001	1.559545e+002	-1.759085e+001	-6.237397e+001	-1.736662e+001	-6.221785e+001	-1.150888e+001	1.098363e+002
2053000000.000	-2.655894e+001	1.449636e+002	-1.766543e+001	-1.097684e+002	-1.750489e+001	-1.106084e+002	-1.210527e+001	3.825174e+001
2057900000.000	-2.545447e+001	1.327711e+002	-1.802789e+001	-1.560426e+002	-1.796332e+001	-1.574768e+002	-1.294083e+001	-3.255809e+001
2062800000.000	-2.449345e+001	1.168310e+002	-1.835980e+001	1.589980e+002	-1.849453e+001	1.574851e+002	-1.354699e+001	-1.002948e+002
2067700000.000	-2.430645e+001	1.010519e+002	-1.854934e+001	1.144202e+002	-1.878612e+001	1.144865e+002	-1.379108e+001	-1.644631e+002
2072600000.000	-2.441656e+001	8.711295e+001	-1.873777e+001	6.881144e+001	-1.872844e+001	7.012660e+001	-1.394750e+001	1.306728e+002
2077500000.000	-2.465988e+001	7.443489e+001	-1.913498e+001	2.403641e+001	-1.886181e+001	2.383121e+001	-1.478933e+001	6.351297e+001
2082400000.000	-2.520332e+001	6.153717e+001	-1.936602e+001	-1.968785e+001	-1.926864e+001	-2.182049e+001	-1.634376e+001	-4.911581e+000
2087300000.000	-2.589960e+001	4.916891e+001	-1.951085e+001	-6.433641e+001	-1.973801e+001	-6.583526e+001	-1.790793e+001	-7.338123e+001
2092200000.000	-2.657170e+001	3.459249e+001	-1.979684e+001	-1.091430e+002	-2.001141e+001	-1.088586e+002	-1.897569e+001	-1.388129e+002
2097100000.000	-2.745096e+001	1.772701e+001	-2.017684e+001	-1.532930e+002	-2.018392e+001	-1.526075e+002	-2.028509e+001	1.588586e+002
2102000000.000	-2.817039e+001	-7.271744e-002	-2.048780e+001	1.634112e+002	-2.043287e+001	1.633657e+002	-2.301112e+001	9.724778e+001
2106900000.000	-2.854194e+001	-2.218255e+001	-2.078581e+001	1.199006e+002	-2.080594e+001	1.195993e+002	-2.763966e+001	2.907700e+001
2111800000.000	-2.876479e+001	-4.627265e+001	-2.124997e+001	7.719740e+001	-2.130349e+001	7.726477e+001	-3.340707e+001	-5.697807e+001
2116700000.000	-2.869618e+001	-6.948863e+001	-2.158199e+001	3.699331e+001	-2.158687e+001	3.751512e+001	-4.125041e+001	-1.538979e+002
2121600000.000	-2.787030e+001	-9.178613e+001	-2.149728e+001	-2.341587e+000	-2.142835e+001	-1.873509e+000	-3.702435e+001	-1.359187e+001
2126500000.000	-2.683280e+001	-1.163765e+002	-2.104960e+001	-4.391970e+001	-2.095614e+001	-4.386228e+001	-2.779772e+001	-8.574282e+001
2131400000.000	-2.581963e+001	-1.384791e+002	-2.078531e+001	-8.690386e+001	-2.069964e+001	-8.690074e+001	-2.381329e+001	-1.440050e+002
2136300000.000	-2.464899e+001	-1.585935e+002	-2.052149e+001	-1.294851e+002	-2.037204e+001	-1.293565e+002	-2.150824e+001	1.574325e+002
2141200000.000	-2.361132e+001	-1.792604e+002	-2.006763e+001	-1.718497e+002	-1.979510e+001	-1.726214e+002	-2.032610e+001	9.233179e+001
2146100000.000	-2.351674e+001	1.618546e+002	-1.946093e+001	1.433648e+002	-1.929158e+001	1.408592e+002	-1.983474e+001	1.934406e+001
2151000000.000	-2.356867e+001	1.474640e+002	-1.904840e+001	9.770660e+001	-1.922718e+001	9.496975e+001	-1.903713e+001	-5.582859e+001
2155900000.000	-2.413220e+001	1.343206e+002	-1.883266e+001	5.139450e+001	-1.917392e+001	5.076714e+001	-1.762490e+001	-1.248778e+002
2160800000.000	-2.504266e+001	1.246718e+002	-1.871317e+001	6.260528e+000	-1.884309e+001	7.238125e+000	-1.637163e+001	1.717380e+002
2165700000.000	-2.611403e+001	1.177075e+002	-1.840256e+001	-3.837285e+001	-1.828664e+001	-3.822875e+001	-1.581020e+001	1.070040e+002
2170600000.000	-2.723495e+001	1.134047e+002	-1.794146e+001	-8.513634e+001	-1.789180e+001	-8.646818e+001	-1.603064e+001	3.617781e+001
2175500000.000	-2.805196e+001	1.132183e+002	-1.787497e+001	-1.335751e+002	-1.803295e+001	-1.348601e+002	-1.637045e+001	-3.797899e+001
2180400000.000	-2.796344e+001	1.136641e+002	-1.804715e+001	1.799255e+002	-1.827453e+001	1.799320e+002	-1.621859e+001	-1.071592e+002
2185300000.000	-2.719155e+001	1.110385e+002	-1.806961e+001	1.342803e+002	-1.818957e+001	1.352649e+002	-1.591876e+001	-1.722762e+002
2190200000.000	-2.603725e+001	1.039333e+002	-1.805897e+001	8.796693e+001	-1.796782e+001	8.893771e+001	-1.601864e+001	1.230677e+002
2195100000.000	-2.506261e+001	9.321748e+001	-1.815056e+001	4.144797e+001	-1.795546e+001	4.117566e+001	-1.651525e+001	5.702339e+001
2200000000.000	-2.448291e+001	8.097962e+001	-1.826168e+001	-4.772361e+000	-1.819622e+001	-6.285362e+000	-1.755591e+001	-8.532751e+000
2204900000.000	-2.425236e+001	6.790635e+001	-1.843277e+001	-5.117966e+001	-1.858176e+001	-5.239964e+001	-1.880076e+001	-7.208059e+001
2209800000.000	-2.445964e+001	5.535079e+001	-1.869706e+001	-9.736095e+001	-1.888912e+001	-9.728378e+001	-1.976941e+001	-1.363662e+002
2214700000.000	-2.491928e+001	4.265209e+001	-1.901097e+001	-1.430892e+002	-1.905115e+001	-1.422743e+002	-2.025184e+001	1.598487e+002
2219600000.000	-2.573202e+001	2.992130e+001	-1.935029e+001	1.718433e+002	-1.924858e+001	1.720864e+002	-2.053836e+001	9.741848e+001
2224500000.000	-2.664108e+001	1.669506e+001	-1.965710e+001	1.272027e+002	-1.958420e+001	1.263646e+002	-2.126045e+001	3.572440e+001
2229400000.000	-2.749834e+001	1.775839e+000	-1.987675e+001	8.293834e+001	-1.996110e+001	8.180134e+001	-2.186379e+001	-2.701582e+001
2234300000.000	-2.819591e+001	-1.739227e+001	-2.000921e+001	3.743409e+001	-2.021514e+001	3.698605e+001	-2.224163e+001	-9.386344e+001
2239200000.000	-2.920198e+001	-4.064657e+001	-2.051549e+001	-8.610722e+000	-2.068187e+001	-8.126828e+000	-2.364928e+001	-1.559482e+002
2244100000.000	-3.029300e+001	-6.480952e+001	-2.117427e+001	-5.244176e+001	-2.124225e+001	-5.160753e+001	-2.651304e+001	1.531517e+002
2249000000.000	-3.116311e+001	-8.843517e+001	-2.172050e+001	-9.466742e+001	-2.171284e+001	-9.394387e+001	-3.097784e+001	1.147989e+002
2253900000.000	-3.140431e+001	-1.120001e+002	-2.211812e+001	-1.358257e+002	-2.205744e+001	-1.352885e+002	-3.476222e+001	9.237523e+001
2258800000.000	-3.117828e+001	-1.354348e+002	-2.234829e+001	-1.764789e+002	-2.221771e+001	-1.763343e+002	-3.394878e+001	5.623155e+001
2263700000.000	-3.002874e+001	-1.555637e+002	-2.237910e+001	1.431532e+002	-2.223595e+001	1.426036e+002	-3.043619e+001	-6.564412e+000
2268600000.000	-2.806117e+001	-1.778558e+002	-2.218051e+001	1.021455e+002	-2.212071e+001	1.010330e+002	-2.649865e+001	-7.280660e+001
2273500000.000	-2.659182e+001	1.584576e+002	-2.191794e+001	5.997397e+001	-2.196796e+001	5.918441e+001	-2.367401e+001	-1.348933e+002
2278400000.000	-2.600651e+001	1.363176e+002	-2.164238e+001	1.744320e+001	-2.166999e+001	1.724233e+001	-2.179629e+001	1.657965e+002
2283300000.000	-2.636819e+001	1.187425e+002	-2.128189e+001	-2.602163e+001	-2.120815e+001	-2.643138e+001	-2.056226e+001	1.043377e+002
2288200000.000	-2.698220e+001	1.067760e+002	-2.107153e+001	-7.058809e+001	-2.100437e+001	-7.188263e+001	-1.998559e+001	3.855812e+001
2293100000.000	-2.760483e+001	9.668203e+001	-2.100040e+001	-1.145485e+002	-2.110019e+001	-1.162032e+002	-1.950837e+001	-2.987136e+001
2298000000.000	-2.845413e+001	8.620986e+001	-2.083747e+001	-1.577514e+002	-2.108606e+001	-1.584433e+002	-1.875613e+001	-9.686317e+001
2302900000.000	-2.969632e+001	7.533133e+001	-2.053098e+001	1.590177e+002	-2.074399e+001	1.597185e+002	-1.789740e+001	-1.609642e+002
2307800000.000	-3.191679e+001	6.875190e+001	-2.005885e+001	1.145625e+002	-2.007602e+001	1.157592e+002	-1.741426e+001	1.338064e+002
2312700000.000	-3.378132e+001	7.762549e+001	-1.972787e+001	6.856340e+001	-1.956889e+001	6.883612e+001	-1.737765e+001	6.569680e+001
2317600000.000	-3.250112e+001	9.420195e+001	-1.954466e+001	2.218385e+001	-1.945578e+001	2.104516e+001	-1.757289e+001	-3.548233e+000
2322500000.000	-2.926095e+001	9.425853e+001	-1.949385e+001	-2.400362e+001	-1.961392e+001	-2.514658e+001	-1.785402e+001	-6.957761e+001
2327400000.000	-2.692201e+001	8.346345e+001	-1.950220e+001	-6.987651e+001	-1.970352e+001	-6.972585e+001	-1.806432e+001	-1.332892e+002
2332300000.000	-2.560004e+001	6.992920e+001	-1.956581e+001	-1.154275e+002	-1.960458e+001	-1.143250e+002	-1.803356e+001	1.622355e+002
2337200000.000	-2.525306e+001	5.661563e+001	-1.961652e+001	-1.604516e+002	-1.946322e+001	-1.599915e+002	-1.775243e+001	9.686633e+001
2342100000.000	-2.537141e+001	4.609918e+001	-1.965886e+001	1.543824e+002	-1.949661e+001	1.535308e+002	-1.776392e+001	3.260703e+001
2347000000.000	-2.549544e+001	3.541841e+001	-1.972305e+001	1.095382e+002	-1.973827e+001	1.079441e+002	-1.819312e+001	-3.074813e+001
2351900000.000	-2.582123e+001	2.041671e+001	-1.978083e+001	6.457213e+001	-1.996364e+001	6.364018e+001	-1.864180e+001	-9.440959e+001
2356800000.000	-2.684471e+001	2.516307e+000	-1.988987e+001	2.027946e+001	-2.008784e+001	2.048781e+001	-1.847915e+001	-1.564847e+002
2361700000.000	-2.781343e+001	-1.702657e+001	-1.982024e+001	-2.317492e+001	-1.987943e+001	-2.216298e+001	-1.778938e+001	1.418524e+002
2366600000.000	-2.842471e+001	-4.289632e+001	-1.947675e+001	-6.816719e+001	-1.935176e+001	-6.768858e+001	-1.758958e+001	7.408188e+001
2371500000.000	-2.931063e+001	-7.410851e+001	-1.930651e+001	-1.158044e+002	-1.924039e+001	-1.167913e+002	-1.860972e+001	-6.305814e-001
2376400000.000	-3.073750e+001	-1.030170e+002	-1.955716e+001	-1.632943e+002	-1.970771e+001	-1.640584e+002	-2.011985e+001	-7.128470e+001
2381300000.000	-3.228604e+001	-1.274139e+002	-1.992077e+001	1.507678e+002	-2.009077e+001	1.512667e+002	-2.142096e+001	-1.289970e+002
2386200000.000	-3.382573e+001	-1.512662e+002	-2.030320e+001	1.057215e+002	-2.034606e+001	1.068051e+002	-2.291388e+001	-1.765310e+002
2391100000.000	-3.521446e+001	-1.751096e+002	-2.066978e+001	6.169743e+001	-2.058202e+001	6.261951e+001	-2.460376e+001	1.382436e+002
2396000000.000	-3.561825e+001	1.586959e+002	-2.085897e+001	1.841303e+001	-2.070897e+001	1.847606e+001	-2.587486e+001	8.523251e+001
2400900000.000	-3.531406e+001	1.317614e+002	-2.091353e+001	-2.575260e+001	-2.080052e+001	-2.627245e+001	-2.601291e+001	2.573778e+001
2405800000.000	-3.581058e+001	1.126914e+002	-2.110899e+001	-7.120242e+001	-2.107265e+001	-7.196625e+001	-2.528343e+001	-2.827213e+001
2410700000.000	-3.644615e+001	1.124656e+002	-2.154991e+001	-1.153801e+002	-2.157823e+001	-1.160493e+002	-2.401538e+001	-7.684519e+001
2415600000.000	-3.511310e+001	1.201584e+002	-2.190322e+001	-1.578651e+002	-2.197583e+001	-1.581762e+002	-2.270617e+001	-1.297688e+002
2420500000.000	-3.289644e+001	1.210203e+002	-2.205662e+001	1.602273e+002	-2.209805e+001	1.603103e+002	-2.131747e+001	1.718293e+002
2425400000.000	-3.123246e+001	1.164157e+002	-2.206524e+001	1.177119e+002	-2.202066e+001	1.179732e+002	-1.973820e+001	1.108884e+002
2430300000.000	-2.999847e+001	1.098448e+002	-2.207182e+001	7.477480e+001	-2.194363e+001	7.428199e+001	-1.854508e+001	4.913262e+001
2435200000.000	-2.866137e+001	1.005689e+002	-2.209364e+001	3.177921e+001	-2.204490e+001	3.014725e+001	-1.807291e+001	-1.344718e+001
