!Agilent Technologies,E5061B,MY49305579,A.02.22
!Date: Thu Aug 24 16:23:33 2017
!Data & Calibration Information:
!Freq	S11:SOLT2(ON)	S21:SOLT2(ON)	S12:SOLT2(ON)	S22:SOLT2(ON)
# Hz S dB R 50
1710000000.000	-2.700282e+001	-1.416908e+002	-1.790293e+001	-3.993215e+000	-1.793534e+001	-3.924132e+000	-2.709702e+001	-7.003400e+001
1714900000.000	-2.605526e+001	-1.534563e+002	-1.791744e+001	-4.959169e+001	-1.787630e+001	-4.928525e+001	-2.708743e+001	-1.342848e+002
1719800000.000	-2.585078e+001	-1.672471e+002	-1.794157e+001	-9.480476e+001	-1.788550e+001	-9.478668e+001	-2.877694e+001	1.720355e+002
1724700000.000	-2.607749e+001	-1.788711e+002	-1.780257e+001	-1.403803e+002	-1.776140e+001	-1.403727e+002	-3.604057e+001	1.460284e+002
1729600000.000	-2.649172e+001	1.718162e+002	-1.788180e+001	1.732160e+002	-1.783271e+001	1.731964e+002	-3.881358e+001	-1.732798e+002
1734500000.000	-2.720264e+001	1.662509e+002	-1.788667e+001	1.284458e+002	-1.785476e+001	1.282148e+002	-2.886943e+001	-1.720792e+002
1739400000.000	-2.761980e+001	1.659718e+002	-1.777805e+001	8.270481e+001	-1.776075e+001	8.284748e+001	-2.543000e+001	1.372054e+002
1744300000.000	-2.726012e+001	1.662957e+002	-1.780263e+001	3.674169e+001	-1.766709e+001	3.686151e+001	-2.521694e+001	7.240833e+001
1749200000.000	-2.668035e+001	1.627680e+002	-1.778190e+001	-8.154799e+000	-1.766487e+001	-9.571088e+000	-2.467070e+001	-1.341173e+001
1754100000.000	-2.618281e+001	1.552644e+002	-1.758389e+001	-5.373982e+001	-1.776857e+001	-5.524493e+001	-2.145560e+001	-9.192006e+001
1759000000.000	-2.616894e+001	1.445664e+002	-1.747940e+001	-1.009211e+002	-1.775342e+001	-1.001195e+002	-1.885039e+001	-1.555985e+002
1763900000.000	-2.667432e+001	1.312463e+002	-1.769602e+001	-1.470049e+002	-1.758431e+001	-1.454371e+002	-1.759751e+001	1.415674e+002
1768800000.000	-2.786813e+001	1.151857e+002	-1.761690e+001	1.688873e+002	-1.740016e+001	1.678699e+002	-1.723961e+001	7.045038e+001
1773700000.000	-3.016364e+001	9.790072e+001	-1.723474e+001	1.220082e+002	-1.744335e+001	1.204431e+002	-1.661552e+001	-7.115618e+000
1778600000.000	-3.383116e+001	8.275440e+001	-1.737397e+001	7.317149e+001	-1.766008e+001	7.437107e+001	-1.537004e+001	-8.050637e+001
1783500000.000	-3.997208e+001	7.429360e+001	-1.780460e+001	2.791715e+001	-1.773080e+001	2.970809e+001	-1.421953e+001	-1.477327e+002
1788400000.000	-4.929468e+001	1.393639e+002	-1.768402e+001	-1.579190e+001	-1.753295e+001	-1.570003e+001	-1.357309e+001	1.445063e+002
1793300000.000	-3.983846e+001	-1.738340e+002	-1.744930e+001	-6.343090e+001	-1.741156e+001	-6.325396e+001	-1.364615e+001	7.154112e+001
1798200000.000	-3.498422e+001	1.777890e+002	-1.781655e+001	-1.107323e+002	-1.763872e+001	-1.108426e+002	-1.410915e+001	-4.878496e+000
1803100000.000	-3.289939e+001	1.645676e+002	-1.803590e+001	-1.544610e+002	-1.800428e+001	-1.562220e+002	-1.429411e+001	-7.888050e+001
1808000000.000	-3.233183e+001	1.508756e+002	-1.777129e+001	1.602847e+002	-1.808791e+001	1.599269e+002	-1.424242e+001	-1.479095e+002
1812900000.000	-3.323983e+001	1.353990e+002	-1.782763e+001	1.122265e+002	-1.788106e+001	1.145454e+002	-1.458770e+001	1.433696e+002
1817800000.000	-3.673948e+001	1.185247e+002	-1.827841e+001	6.729904e+001	-1.792252e+001	6.755384e+001	-1.604615e+001	6.916074e+001
1822700000.000	-4.506015e+001	1.169523e+002	-1.811424e+001	2.346930e+001	-1.806620e+001	2.122124e+001	-1.776557e+001	-9.900329e+000
1827600000.000	-5.188501e+001	-9.913968e+001	-1.796809e+001	-2.369351e+001	-1.826461e+001	-2.391235e+001	-1.873926e+001	-8.779256e+001
1832500000.000	-3.949995e+001	-9.777810e+001	-1.820811e+001	-7.050724e+001	-1.824002e+001	-6.876248e+001	-1.977449e+001	-1.610340e+002
1837400000.000	-3.543983e+001	-1.018094e+002	-1.833470e+001	-1.153946e+002	-1.813708e+001	-1.150717e+002	-2.211419e+001	1.211599e+002
1842300000.000	-3.187489e+001	-1.079367e+002	-1.829411e+001	-1.619989e+002	-1.827260e+001	-1.625351e+002	-2.470674e+001	2.696723e+001
1847200000.000	-2.950254e+001	-1.225082e+002	-1.864319e+001	1.508537e+002	-1.866153e+001	1.512027e+002	-2.400346e+001	-7.080719e+001
1852100000.000	-2.814212e+001	-1.354425e+002	-1.902958e+001	1.068349e+002	-1.894228e+001	1.071409e+002	-2.208866e+001	-1.496613e+002
1857000000.000	-2.691391e+001	-1.482871e+002	-1.904863e+001	6.277606e+001	-1.899173e+001	6.281028e+001	-2.091869e+001	1.380812e+002
1861900000.000	-2.588685e+001	-1.603928e+002	-1.910406e+001	1.689169e+001	-1.899841e+001	1.732246e+001	-2.045884e+001	6.222008e+001
1866800000.000	-2.488604e+001	-1.716781e+002	-1.941852e+001	-2.787085e+001	-1.918500e+001	-2.826661e+001	-2.005904e+001	-1.861097e+001
1871700000.000	-2.410754e+001	1.777836e+002	-1.944435e+001	-7.098778e+001	-1.939984e+001	-7.268321e+001	-1.868984e+001	-9.535762e+001
1876600000.000	-2.329763e+001	1.680180e+002	-1.922847e+001	-1.160718e+002	-1.941774e+001	-1.164511e+002	-1.703300e+001	-1.629730e+002
1881500000.000	-2.261048e+001	1.565992e+002	-1.935267e+001	-1.624735e+002	-1.928527e+001	-1.611407e+002	-1.605833e+001	1.322321e+002
1886400000.000	-2.236954e+001	1.432715e+002	-1.952408e+001	1.538314e+002	-1.914910e+001	1.527511e+002	-1.592391e+001	6.256842e+001
1891300000.000	-2.264075e+001	1.288426e+002	-1.915489e+001	1.096892e+002	-1.922399e+001	1.058822e+002	-1.577225e+001	-1.301499e+001
1896200000.000	-2.367596e+001	1.123284e+002	-1.889198e+001	6.018512e+001	-1.948920e+001	5.925331e+001	-1.503611e+001	-8.547119e+001
1901100000.000	-2.548612e+001	1.007867e+002	-1.984510e+001	1.288060e+001	-2.016279e+001	1.561619e+001	-1.425453e+001	-1.470912e+002
1906000000.000	-2.697779e+001	8.508888e+001	-2.009680e+001	-2.771898e+001	-1.984353e+001	-2.565418e+001	-1.341396e+001	1.496745e+002
1910900000.000	-2.980669e+001	6.714546e+001	-1.969370e+001	-7.096520e+001	-1.946922e+001	-7.202863e+001	-1.334932e+001	7.921278e+001
1915800000.000	-3.404141e+001	4.843587e+001	-1.948136e+001	-1.188322e+002	-1.960028e+001	-1.198669e+002	-1.367556e+001	3.896913e+000
1920700000.000	-4.250844e+001	2.503104e+001	-1.991691e+001	-1.645701e+002	-2.002911e+001	-1.642295e+002	-1.394669e+001	-6.492817e+001
1925600000.000	-4.759035e+001	-1.671370e+002	-1.995243e+001	1.523352e+002	-2.000032e+001	1.527502e+002	-1.344850e+001	-1.298059e+002
1930500000.000	-3.805347e+001	1.711737e+002	-1.968041e+001	1.072275e+002	-1.973328e+001	1.081864e+002	-1.314803e+001	1.637166e+002
1935400000.000	-3.478461e+001	1.571554e+002	-1.969044e+001	5.998777e+001	-1.951369e+001	6.141988e+001	-1.327647e+001	9.448326e+001
1940300000.000	-3.373755e+001	1.437533e+002	-1.996535e+001	1.466500e+001	-1.959838e+001	1.380535e+001	-1.380153e+001	2.284324e+001
1945200000.000	-3.384695e+001	1.364858e+002	-1.994298e+001	-2.962866e+001	-1.994644e+001	-3.222373e+001	-1.456711e+001	-4.946904e+001
1950100000.000	-3.398327e+001	1.336603e+002	-1.982469e+001	-7.588547e+001	-2.015943e+001	-7.633290e+001	-1.514745e+001	-1.192765e+002
1955000000.000	-3.509260e+001	1.298779e+002	-1.996383e+001	-1.227584e+002	-2.002408e+001	-1.208417e+002	-1.574481e+001	1.730476e+002
1959900000.000	-3.570296e+001	1.400475e+002	-2.015730e+001	-1.686293e+002	-1.991451e+001	-1.682494e+002	-1.733646e+001	1.043485e+002
1964800000.000	-3.444988e+001	1.380845e+002	-2.031754e+001	1.452199e+002	-2.025685e+001	1.438812e+002	-2.059905e+001	3.058862e+001
1969700000.000	-3.447764e+001	1.312672e+002	-2.072495e+001	9.830220e+001	-2.083952e+001	9.785863e+001	-2.460564e+001	-5.542123e+001
1974600000.000	-3.424823e+001	1.168067e+002	-2.132099e+001	5.427275e+001	-2.135895e+001	5.464981e+001	-2.701447e+001	-1.491866e+002
1979500000.000	-3.701611e+001	9.405590e+001	-2.152464e+001	1.114920e+001	-2.150504e+001	1.137675e+001	-2.946702e+001	1.225320e+002
1984400000.000	-4.268646e+001	8.923950e+001	-2.173158e+001	-3.369144e+001	-2.172034e+001	-3.355823e+001	-3.214097e+001	9.495718e+000
1989300000.000	-5.439187e+001	1.213514e+002	-2.220057e+001	-7.644315e+001	-2.218043e+001	-7.638584e+001	-2.680871e+001	-1.046697e+002
1994200000.000	-4.235926e+001	-1.428953e+002	-2.223903e+001	-1.185570e+002	-2.223827e+001	-1.182452e+002	-2.282722e+001	-1.790898e+002
1999100000.000	-3.524516e+001	-1.517736e+002	-2.224125e+001	-1.619576e+002	-2.212863e+001	-1.611461e+002	-2.074836e+001	1.141135e+002
2004000000.000	-3.144352e+001	-1.646271e+002	-2.232880e+001	1.548275e+002	-2.203824e+001	1.545297e+002	-1.976537e+001	4.341327e+001
2008900000.000	-2.923597e+001	-1.770107e+002	-2.229759e+001	1.122034e+002	-2.213446e+001	1.099133e+002	-1.883291e+001	-3.114525e+001
2013800000.000	-2.797672e+001	1.724310e+002	-2.214405e+001	6.906337e+001	-2.236071e+001	6.719115e+001	-1.744852e+001	-1.000804e+002
2018700000.000	-2.721164e+001	1.632929e+002	-2.198287e+001	2.497830e+001	-2.222482e+001	2.566927e+001	-1.610067e+001	-1.615334e+002
2023600000.000	-2.718854e+001	1.536318e+002	-2.194060e+001	-1.808672e+001	-2.177883e+001	-1.679927e+001	-1.522421e+001	1.371066e+002
2028500000.000	-2.806589e+001	1.466453e+002	-2.149748e+001	-6.144376e+001	-2.121688e+001	-6.288033e+001	-1.513712e+001	6.895999e+001
2033400000.000	-2.929459e+001	1.466437e+002	-2.108074e+001	-1.074735e+002	-2.119789e+001	-1.102043e+002	-1.523353e+001	-3.890530e+000
2038300000.000	-2.945440e+001	1.511650e+002	-2.110786e+001	-1.544143e+002	-2.147387e+001	-1.549195e+002	-1.478405e+001	-7.366214e+001
2043200000.000	-2.890016e+001	1.520034e+002	-2.124162e+001	1.615360e+002	-2.139689e+001	1.629622e+002	-1.391140e+001	-1.379667e+002
2048100000.000	-2.791818e+001	1.488930e+002	-2.101827e+001	1.182479e+002	-2.092522e+001	1.192953e+002	-1.324429e+001	1.585931e+002
2053000000.000	-2.668973e+001	1.413558e+002	-2.054881e+001	7.279824e+001	-2.036917e+001	7.292191e+001	-1.296017e+001	9.079406e+001
2057900000.000	-2.548818e+001	1.295450e+002	-2.042331e+001	2.512579e+001	-2.023201e+001	2.420724e+001	-1.321611e+001	1.883323e+001
2062800000.000	-2.467192e+001	1.141853e+002	-2.057665e+001	-2.066461e+001	-2.054519e+001	-2.262548e+001	-1.364284e+001	-5.225444e+001
2067700000.000	-2.445866e+001	9.899076e+001	-2.056413e+001	-6.568320e+001	-2.080831e+001	-6.689632e+001	-1.386173e+001	-1.197309e+002
2072600000.000	-2.472362e+001	8.536488e+001	-2.060743e+001	-1.101676e+002	-2.083382e+001	-1.092547e+002	-1.373063e+001	1.766579e+002
2077500000.000	-2.494157e+001	7.438740e+001	-2.029488e+001	-1.544636e+002	-2.013878e+001	-1.529585e+002	-1.334148e+001	1.104660e+002
2082400000.000	-2.529546e+001	6.188955e+001	-2.000913e+001	1.592479e+002	-1.969371e+001	1.579834e+002	-1.393004e+001	3.922162e+001
2087300000.000	-2.580840e+001	4.907552e+001	-1.977792e+001	1.117618e+002	-1.985588e+001	1.092085e+002	-1.530108e+001	-3.329279e+001
2092200000.000	-2.638217e+001	3.314129e+001	-1.988060e+001	6.342263e+001	-2.018223e+001	6.291839e+001	-1.664696e+001	-1.041676e+002
2097100000.000	-2.725089e+001	1.478947e+001	-2.027839e+001	1.659212e+001	-2.038632e+001	1.750434e+001	-1.825971e+001	-1.700291e+002
2102000000.000	-2.787641e+001	-3.859282e+000	-2.055121e+001	-2.669381e+001	-2.049951e+001	-2.619841e+001	-2.047009e+001	1.346544e+002
2106900000.000	-2.803178e+001	-2.951982e+001	-2.029438e+001	-7.203190e+001	-2.025350e+001	-7.217561e+001	-2.294835e+001	7.540960e+001
2111800000.000	-2.836349e+001	-5.724249e+001	-2.029370e+001	-1.189057e+002	-2.030035e+001	-1.190822e+002	-2.611195e+001	1.012954e+001
2116700000.000	-2.853986e+001	-8.477228e+001	-2.035495e+001	-1.656868e+002	-2.037214e+001	-1.654984e+002	-2.813381e+001	-6.324631e+001
2121600000.000	-2.842363e+001	-1.100362e+002	-2.052531e+001	1.468637e+002	-2.048916e+001	1.473521e+002	-3.107048e+001	-1.290350e+002
2126500000.000	-2.826856e+001	-1.337194e+002	-2.097250e+001	1.000155e+002	-2.086063e+001	1.002067e+002	-3.891547e+001	-1.457442e+002
2131400000.000	-2.795062e+001	-1.519862e+002	-2.145179e+001	5.477524e+001	-2.133466e+001	5.448499e+001	-3.159882e+001	-1.176340e+002
2136300000.000	-2.722114e+001	-1.665138e+002	-2.187534e+001	1.041442e+001	-2.179975e+001	1.005451e+001	-2.552464e+001	-1.638215e+002
2141200000.000	-2.632737e+001	1.788510e+002	-2.218272e+001	-3.312366e+001	-2.205981e+001	-3.341602e+001	-2.272842e+001	1.389542e+002
2146100000.000	-2.610791e+001	1.668394e+002	-2.244653e+001	-7.771017e+001	-2.223652e+001	-7.885597e+001	-2.156640e+001	7.487735e+001
2151000000.000	-2.553035e+001	1.583412e+002	-2.283989e+001	-1.204967e+002	-2.278817e+001	-1.229582e+002	-2.068937e+001	2.605023e+000
2155900000.000	-2.532553e+001	1.494093e+002	-2.288737e+001	-1.633322e+002	-2.313146e+001	-1.652706e+002	-1.927209e+001	-7.188364e+001
2160800000.000	-2.520908e+001	1.423209e+002	-2.301190e+001	1.527204e+002	-2.330581e+001	1.528040e+002	-1.755342e+001	-1.384306e+002
2165700000.000	-2.501116e+001	1.352907e+002	-2.325731e+001	1.094078e+002	-2.332223e+001	1.103898e+002	-1.620797e+001	1.599311e+002
2170600000.000	-2.473507e+001	1.257224e+002	-2.345987e+001	6.810443e+001	-2.333957e+001	6.812254e+001	-1.546073e+001	9.589591e+001
2175500000.000	-2.503789e+001	1.144988e+002	-2.316891e+001	2.657027e+001	-2.312073e+001	2.521889e+001	-1.531115e+001	2.527990e+001
2180400000.000	-2.553037e+001	1.056168e+002	-2.289554e+001	-1.730323e+001	-2.305501e+001	-1.859924e+001	-1.517374e+001	-4.623919e+001
2185300000.000	-2.580684e+001	9.808760e+001	-2.274433e+001	-6.086563e+001	-2.300168e+001	-6.094447e+001	-1.471063e+001	-1.129479e+002
2190200000.000	-2.578030e+001	9.059472e+001	-2.245634e+001	-1.046715e+002	-2.260426e+001	-1.033536e+002	-1.404047e+001	-1.765502e+002
2195100000.000	-2.563442e+001	8.273321e+001	-2.220828e+001	-1.494131e+002	-2.208122e+001	-1.479099e+002	-1.334030e+001	1.188311e+002
2200000000.000	-2.549758e+001	7.429040e+001	-2.203394e+001	1.659076e+002	-2.172273e+001	1.655359e+002	-1.291806e+001	5.165497e+001
2204900000.000	-2.535448e+001	6.577332e+001	-2.181610e+001	1.216465e+002	-2.172173e+001	1.192097e+002	-1.307425e+001	-1.517684e+001
2209800000.000	-2.535824e+001	5.622800e+001	-2.148857e+001	7.662298e+001	-2.178819e+001	7.482117e+001	-1.340240e+001	-8.087767e+001
2214700000.000	-2.553233e+001	4.549631e+001	-2.123081e+001	3.070252e+001	-2.156514e+001	3.157706e+001	-1.345757e+001	-1.463019e+002
2219600000.000	-2.596116e+001	3.361863e+001	-2.108250e+001	-1.541160e+001	-2.105833e+001	-1.339077e+001	-1.314516e+001	1.476628e+002
2224500000.000	-2.656544e+001	1.962821e+001	-2.093560e+001	-6.138829e+001	-2.063483e+001	-6.123909e+001	-1.298440e+001	8.004887e+001
2229400000.000	-2.724232e+001	4.349346e+000	-2.089597e+001	-1.078326e+002	-2.077229e+001	-1.099176e+002	-1.337914e+001	1.124372e+001
2234300000.000	-2.746846e+001	-1.468264e+001	-2.096968e+001	-1.529520e+002	-2.122210e+001	-1.548670e+002	-1.390082e+001	-5.624650e+001
2239200000.000	-2.774536e+001	-4.155416e+001	-2.080761e+001	1.626302e+002	-2.119158e+001	1.629632e+002	-1.421274e+001	-1.211948e+002
2244100000.000	-2.842975e+001	-7.141857e+001	-2.047391e+001	1.169526e+002	-2.064233e+001	1.191061e+002	-1.457477e+001	1.754114e+002
2249000000.000	-2.917105e+001	-1.018380e+002	-2.020064e+001	6.982033e+001	-2.002731e+001	7.157559e+001	-1.556019e+001	1.093182e+002
2253900000.000	-2.970057e+001	-1.319212e+002	-2.005603e+001	2.186025e+001	-1.979325e+001	2.173827e+001	-1.745343e+001	3.879998e+001
2258800000.000	-3.005185e+001	-1.596739e+002	-2.008340e+001	-2.642193e+001	-1.999615e+001	-2.756949e+001	-1.970291e+001	-3.277176e+001
2263700000.000	-2.991558e+001	1.783729e+002	-2.030118e+001	-7.457691e+001	-2.032969e+001	-7.518636e+001	-2.190693e+001	-9.892411e+001
2268600000.000	-2.885485e+001	1.591996e+002	-2.062534e+001	-1.218501e+002	-2.062623e+001	-1.220699e+002	-2.438474e+001	-1.553935e+002
2273500000.000	-2.797589e+001	1.383817e+002	-2.098141e+001	-1.685710e+002	-2.095601e+001	-1.689879e+002	-2.762694e+001	1.635641e+002
2278400000.000	-2.816678e+001	1.184642e+002	-2.138156e+001	1.451134e+002	-2.137260e+001	1.446549e+002	-2.872350e+001	1.458084e+002
2283300000.000	-2.960384e+001	1.050856e+002	-2.181192e+001	9.929008e+001	-2.178156e+001	9.889165e+001	-2.576427e+001	1.131606e+002
2288200000.000	-3.123839e+001	1.018799e+002	-2.227123e+001	5.386778e+001	-2.221700e+001	5.295998e+001	-2.318302e+001	5.884738e+001
2293100000.000	-3.238846e+001	1.045084e+002	-2.278377e+001	8.955624e+000	-2.281537e+001	7.494655e+000	-2.130966e+001	-5.684213e+000
2298000000.000	-3.278957e+001	1.105510e+002	-2.332491e+001	-3.508661e+001	-2.350085e+001	-3.618167e+001	-1.966575e+001	-7.160745e+001
2302900000.000	-3.204058e+001	1.148219e+002	-2.384080e+001	-7.794524e+001	-2.407316e+001	-7.784689e+001	-1.817282e+001	-1.345241e+002
2307800000.000	-3.072932e+001	1.153134e+002	-2.416374e+001	-1.200426e+002	-2.425990e+001	-1.187519e+002	-1.698216e+001	1.631708e+002
2312700000.000	-2.878499e+001	1.108466e+002	-2.435508e+001	-1.622065e+002	-2.419043e+001	-1.613227e+002	-1.614951e+001	9.760402e+001
2317600000.000	-2.677021e+001	1.013415e+002	-2.446824e+001	1.554473e+002	-2.426330e+001	1.543802e+002	-1.564954e+001	2.901490e+001
2322500000.000	-2.495716e+001	8.764018e+001	-2.449491e+001	1.127745e+002	-2.455709e+001	1.107547e+002	-1.543220e+001	-3.816369e+001
2327400000.000	-2.377023e+001	7.144543e+001	-2.454151e+001	6.938323e+001	-2.484580e+001	6.873022e+001	-1.533830e+001	-1.021918e+002
2332300000.000	-2.330190e+001	5.404045e+001	-2.466326e+001	2.597140e+001	-2.488431e+001	2.738320e+001	-1.507842e+001	-1.653287e+002
2337200000.000	-2.375885e+001	3.706295e+001	-2.494647e+001	-1.695224e+001	-2.485502e+001	-1.501408e+001	-1.440374e+001	1.308438e+002
2342100000.000	-2.489450e+001	2.343120e+001	-2.526561e+001	-5.684073e+001	-2.493693e+001	-5.672923e+001	-1.356103e+001	6.597339e+001
2347000000.000	-2.615685e+001	1.148393e+001	-2.494128e+001	-9.568310e+001	-2.476057e+001	-9.780241e+001	-1.318722e+001	-1.183434e+000
2351900000.000	-2.759358e+001	-3.553602e+000	-2.438848e+001	-1.369489e+002	-2.455650e+001	-1.391287e+002	-1.339531e+001	-6.792960e+001
2356800000.000	-2.976174e+001	-2.167443e+001	-2.378100e+001	-1.792648e+002	-2.413637e+001	-1.795389e+002	-1.334979e+001	-1.323720e+002
2361700000.000	-3.198778e+001	-4.083803e+001	-2.306311e+001	1.372640e+002	-2.325661e+001	1.390987e+002	-1.282388e+001	1.645236e+002
2366600000.000	-3.337784e+001	-6.484658e+001	-2.242378e+001	9.202245e+001	-2.220908e+001	9.385932e+001	-1.237777e+001	9.915599e+001
2371500000.000	-3.437536e+001	-9.498355e+001	-2.188144e+001	4.635433e+001	-2.154200e+001	4.534583e+001	-1.249607e+001	2.991677e+001
2376400000.000	-3.549124e+001	-1.252648e+002	-2.137003e+001	2.480360e-001	-2.143803e+001	-2.442536e+000	-1.291391e+001	-3.927392e+001
2381300000.000	-3.727944e+001	-1.546664e+002	-2.090674e+001	-4.676638e+001	-2.134965e+001	-4.747073e+001	-1.309057e+001	-1.032690e+002
2386200000.000	-3.908651e+001	1.750518e+002	-2.063869e+001	-9.403043e+001	-2.093147e+001	-9.156156e+001	-1.310934e+001	-1.638581e+002
2391100000.000	-3.983437e+001	1.371149e+002	-2.033758e+001	-1.403837e+002	-2.012509e+001	-1.377159e+002	-1.325034e+001	1.327176e+002
2396000000.000	-3.971986e+001	9.702023e+001	-1.985938e+001	1.720023e+002	-1.945638e+001	1.717048e+002	-1.371688e+001	6.168116e+001
2400900000.000	-3.989977e+001	6.858735e+001	-1.962437e+001	1.222410e+002	-1.953602e+001	1.202819e+002	-1.478848e+001	-1.042990e+001
2405800000.000	-4.186593e+001	4.296636e+001	-1.973627e+001	7.300323e+001	-1.988549e+001	7.213167e+001	-1.614099e+001	-7.520834e+001
2410700000.000	-5.408373e+001	-1.869602e+001	-1.992720e+001	2.486114e+001	-2.003270e+001	2.514750e+001	-1.764019e+001	-1.350332e+002
2415600000.000	-4.063887e+001	-1.645923e+002	-2.015232e+001	-2.300843e+001	-2.014073e+001	-2.261344e+001	-1.940366e+001	1.657548e+002
2420500000.000	-3.355822e+001	1.712584e+002	-2.046366e+001	-7.079128e+001	-2.037335e+001	-7.086164e+001	-2.129013e+001	1.101915e+002
2425400000.000	-2.980729e+001	1.525562e+002	-2.090595e+001	-1.184500e+002	-2.081745e+001	-1.189401e+002	-2.268606e+001	6.398809e+001
2430300000.000	-2.760444e+001	1.354080e+002	-2.152311e+001	-1.650871e+002	-2.145513e+001	-1.659827e+002	-2.270417e+001	2.357949e+001
2435200000.000	-2.599610e+001	1.180132e+002	-2.221086e+001	1.500841e+002	-2.220833e+001	1.486651e+002	-2.160668e+001	-2.333495e+001
