!Agilent Technologies,E5061B,MY49305579,A.02.22
!Date: Thu Aug 24 16:27:08 2017
!Data & Calibration Information:
!Freq	S11:SOLT2(ON)	S21:SOLT2(ON)	S12:SOLT2(ON)	S22:SOLT2(ON)
# Hz S dB R 50
1710000000.000	-1.798182e+001	1.623827e+002	-2.021433e+001	-1.538318e+002	-2.011391e+001	-1.567680e+002	-1.431456e+001	7.242179e+001
1714900000.000	-1.818070e+001	1.427178e+002	-1.955925e+001	1.575067e+002	-1.994429e+001	1.561859e+002	-1.450654e+001	1.019229e+000
1719800000.000	-1.868020e+001	1.212750e+002	-1.970990e+001	1.081501e+002	-1.993268e+001	1.097489e+002	-1.419506e+001	-6.896459e+001
1724700000.000	-1.954267e+001	9.872232e+001	-1.993017e+001	6.363167e+001	-1.982911e+001	6.443717e+001	-1.354833e+001	-1.333517e+002
1729600000.000	-2.090201e+001	7.479972e+001	-1.946676e+001	1.876446e+001	-1.950018e+001	1.849634e+001	-1.307795e+001	1.653082e+002
1734500000.000	-2.274712e+001	4.830392e+001	-1.916570e+001	-3.070071e+001	-1.923974e+001	-2.953964e+001	-1.326448e+001	1.022889e+002
1739400000.000	-2.509708e+001	1.627786e+001	-1.956255e+001	-7.890248e+001	-1.930477e+001	-7.803202e+001	-1.417533e+001	3.420750e+001
1744300000.000	-2.742156e+001	-2.433863e+001	-1.978071e+001	-1.231005e+002	-1.960952e+001	-1.250002e+002	-1.494308e+001	-3.771043e+001
1749200000.000	-2.838391e+001	-6.963227e+001	-1.952072e+001	-1.687439e+002	-1.983881e+001	-1.699113e+002	-1.492649e+001	-1.057672e+002
1754100000.000	-2.786256e+001	-1.081691e+002	-1.947151e+001	1.432162e+002	-1.975675e+001	1.453829e+002	-1.479752e+001	-1.665111e+002
1759000000.000	-2.705316e+001	-1.373030e+002	-1.987408e+001	9.632089e+001	-1.959831e+001	9.882530e+001	-1.520150e+001	1.335289e+002
1763900000.000	-2.661613e+001	-1.619532e+002	-2.005632e+001	5.235305e+001	-1.964840e+001	5.123951e+001	-1.641271e+001	7.001644e+001
1768800000.000	-2.677994e+001	1.741471e+002	-1.986426e+001	6.857915e+000	-1.991598e+001	4.288044e+000	-1.742083e+001	2.208008e+000
1773700000.000	-2.770406e+001	1.495136e+002	-1.993963e+001	-4.116258e+001	-2.029715e+001	-4.147170e+001	-1.739054e+001	-6.354848e+001
1778600000.000	-2.941689e+001	1.224381e+002	-2.045180e+001	-8.738377e+001	-2.057533e+001	-8.562743e+001	-1.691536e+001	-1.241742e+002
1783500000.000	-3.210499e+001	8.850678e+001	-2.081834e+001	-1.307362e+002	-2.068407e+001	-1.296805e+002	-1.687785e+001	1.777948e+002
1788400000.000	-3.541006e+001	3.748681e+001	-2.080511e+001	-1.744450e+002	-2.071238e+001	-1.744402e+002	-1.737394e+001	1.177294e+002
1793300000.000	-3.491282e+001	-3.314008e+001	-2.094002e+001	1.402861e+002	-2.089551e+001	1.405140e+002	-1.847538e+001	5.256807e+001
1798200000.000	-3.095788e+001	-8.099169e+001	-2.122624e+001	9.681412e+001	-2.110923e+001	9.685057e+001	-1.934819e+001	-1.601849e+001
1803100000.000	-2.769028e+001	-1.101491e+002	-2.121410e+001	5.496460e+001	-2.116869e+001	5.428677e+001	-1.949796e+001	-8.269137e+001
1808000000.000	-2.534536e+001	-1.320139e+002	-2.085078e+001	1.180137e+001	-2.093619e+001	1.170028e+001	-1.942636e+001	-1.430668e+002
1812900000.000	-2.375694e+001	-1.510888e+002	-2.059517e+001	-3.334097e+001	-2.057181e+001	-3.239554e+001	-2.016692e+001	1.607739e+002
1817800000.000	-2.302880e+001	-1.675706e+002	-2.036489e+001	-7.778563e+001	-2.013879e+001	-7.761019e+001	-2.204412e+001	1.048400e+002
1822700000.000	-2.239787e+001	1.783058e+002	-2.008902e+001	-1.233759e+002	-1.992324e+001	-1.247658e+002	-2.500073e+001	4.362967e+001
1827600000.000	-2.205582e+001	1.627115e+002	-1.984501e+001	-1.694078e+002	-1.989825e+001	-1.711857e+002	-2.691406e+001	-1.842094e+001
1832500000.000	-2.204099e+001	1.451088e+002	-1.970041e+001	1.437942e+002	-1.991124e+001	1.430570e+002	-2.712192e+001	-7.267812e+001
1837400000.000	-2.239613e+001	1.255319e+002	-1.969248e+001	9.720764e+001	-1.988677e+001	9.762521e+001	-2.640974e+001	-1.129239e+002
1842300000.000	-2.306105e+001	1.033631e+002	-1.975710e+001	5.103350e+001	-1.983749e+001	5.205588e+001	-2.548577e+001	-1.510453e+002
1847200000.000	-2.397697e+001	7.880023e+001	-1.980168e+001	5.600883e+000	-1.975735e+001	6.378511e+000	-2.461521e+001	1.678805e+002
1852100000.000	-2.511949e+001	4.965736e+001	-1.975239e+001	-4.002234e+001	-1.970834e+001	-3.972008e+001	-2.379677e+001	1.187480e+002
1857000000.000	-2.648764e+001	1.544381e+001	-1.975746e+001	-8.641941e+001	-1.972604e+001	-8.603959e+001	-2.330361e+001	6.147543e+001
1861900000.000	-2.748441e+001	-2.584003e+001	-1.991477e+001	-1.326767e+002	-1.982849e+001	-1.322841e+002	-2.234579e+001	-2.074253e+000
1866800000.000	-2.758472e+001	-7.013550e+001	-2.018335e+001	-1.777063e+002	-2.007318e+001	-1.780717e+002	-2.041883e+001	-6.892378e+001
1871700000.000	-2.643828e+001	-1.061613e+002	-2.019310e+001	1.384176e+002	-2.025889e+001	1.379688e+002	-1.840665e+001	-1.318951e+002
1876600000.000	-2.477291e+001	-1.339851e+002	-2.009774e+001	9.280391e+001	-2.016363e+001	9.404125e+001	-1.679747e+001	1.694049e+002
1881500000.000	-2.334633e+001	-1.568117e+002	-2.030001e+001	4.687318e+001	-1.997337e+001	4.837357e+001	-1.590599e+001	1.090544e+002
1886400000.000	-2.243895e+001	-1.770138e+002	-2.048116e+001	3.612774e+000	-1.999833e+001	1.541736e+000	-1.552452e+001	4.235616e+001
1891300000.000	-2.203546e+001	1.640777e+002	-2.016446e+001	-4.004344e+001	-2.026109e+001	-4.448918e+001	-1.493578e+001	-2.797698e+001
1896200000.000	-2.225589e+001	1.445728e+002	-1.989289e+001	-8.739969e+001	-2.052782e+001	-8.849175e+001	-1.388642e+001	-9.380477e+001
1901100000.000	-2.322541e+001	1.268555e+002	-2.028324e+001	-1.349082e+002	-2.058960e+001	-1.318731e+002	-1.281642e+001	-1.543564e+002
1906000000.000	-2.412510e+001	1.075758e+002	-2.062729e+001	-1.771591e+002	-2.033128e+001	-1.752259e+002	-1.202530e+001	1.443531e+002
1910900000.000	-2.582448e+001	8.266722e+001	-2.020112e+001	1.396337e+002	-1.996454e+001	1.382368e+002	-1.154442e+001	7.656047e+001
1915800000.000	-2.846887e+001	5.159756e+001	-1.994190e+001	9.165639e+001	-2.010699e+001	9.025480e+001	-1.133300e+001	4.762374e+000
1920700000.000	-3.204236e+001	8.696152e+000	-2.037614e+001	4.516390e+001	-2.054319e+001	4.558962e+001	-1.118506e+001	-6.429580e+001
1925600000.000	-3.343669e+001	-5.163558e+001	-2.056072e+001	2.463373e+000	-2.063640e+001	3.011688e+000	-1.088516e+001	-1.282341e+002
1930500000.000	-3.078378e+001	-1.047879e+002	-2.020591e+001	-4.136699e+001	-2.029365e+001	-3.997555e+001	-1.034472e+001	1.682510e+002
1935400000.000	-2.780833e+001	-1.393283e+002	-2.001251e+001	-8.864411e+001	-1.976511e+001	-8.629122e+001	-9.920838e+000	1.011368e+002
1940300000.000	-2.572008e+001	-1.645895e+002	-2.025022e+001	-1.346825e+002	-1.964684e+001	-1.354803e+002	-1.007543e+001	3.101596e+001
1945200000.000	-2.437643e+001	1.749253e+002	-2.021783e+001	-1.784508e+002	-2.008482e+001	1.770816e+002	-1.065737e+001	-3.800319e+001
1950100000.000	-2.350565e+001	1.572420e+002	-1.993068e+001	1.350507e+002	-2.047366e+001	1.328743e+002	-1.097545e+001	-1.030456e+002
1955000000.000	-2.305054e+001	1.401779e+002	-2.009823e+001	8.714741e+001	-2.049001e+001	8.959671e+001	-1.081406e+001	-1.651852e+002
1959900000.000	-2.299361e+001	1.233557e+002	-2.047957e+001	4.223126e+001	-2.017745e+001	4.456152e+001	-1.058172e+001	1.316477e+002
1964800000.000	-2.316504e+001	1.061213e+002	-2.041467e+001	-1.539301e+000	-2.006089e+001	-3.397843e+000	-1.086359e+001	6.382977e+001
1969700000.000	-2.358343e+001	8.750498e+001	-2.018223e+001	-4.864071e+001	-2.038639e+001	-5.106413e+001	-1.192034e+001	-7.303155e+000
1974600000.000	-2.421521e+001	6.740678e+001	-2.054099e+001	-9.682926e+001	-2.086743e+001	-9.652529e+001	-1.291807e+001	-7.576059e+001
1979500000.000	-2.505639e+001	4.447924e+001	-2.108100e+001	-1.414625e+002	-2.116956e+001	-1.400599e+002	-1.327474e+001	-1.399755e+002
1984400000.000	-2.664258e+001	1.783870e+001	-2.119313e+001	1.751534e+002	-2.117656e+001	1.761428e+002	-1.336848e+001	1.575065e+002
1989300000.000	-2.844353e+001	-9.285076e-001	-2.114516e+001	1.296037e+002	-2.106663e+001	1.306272e+002	-1.381104e+001	9.379155e+001
1994200000.000	-2.865311e+001	-2.876301e+001	-2.145877e+001	8.347634e+001	-2.124367e+001	8.395326e+001	-1.473115e+001	2.865579e+001
1999100000.000	-2.867982e+001	-6.209891e+001	-2.172959e+001	3.937967e+001	-2.153669e+001	3.831646e+001	-1.545522e+001	-3.838974e+001
2004000000.000	-2.794934e+001	-9.316898e+001	-2.180318e+001	-5.571463e+000	-2.189102e+001	-6.640583e+000	-1.586412e+001	-1.062906e+002
2008900000.000	-2.659731e+001	-1.180322e+002	-2.206616e+001	-5.184482e+001	-2.216230e+001	-5.095340e+001	-1.637108e+001	-1.707659e+002
2013800000.000	-2.497879e+001	-1.389518e+002	-2.268094e+001	-9.646214e+001	-2.242887e+001	-9.559178e+001	-1.759358e+001	1.265760e+002
2018700000.000	-2.370383e+001	-1.571751e+002	-2.311262e+001	-1.384208e+002	-2.279007e+001	-1.399851e+002	-1.999139e+001	6.016268e+001
2023600000.000	-2.285038e+001	-1.739563e+002	-2.323078e+001	1.795695e+002	-2.322071e+001	1.769976e+002	-2.267562e+001	-1.492597e+001
2028500000.000	-2.249053e+001	1.703804e+002	-2.327110e+001	1.364070e+002	-2.348328e+001	1.351764e+002	-2.362973e+001	-9.144504e+001
2033400000.000	-2.264041e+001	1.554144e+002	-2.336811e+001	9.362409e+001	-2.351615e+001	9.363999e+001	-2.432987e+001	-1.560530e+002
2038300000.000	-2.320916e+001	1.416038e+002	-2.330343e+001	5.111327e+001	-2.336070e+001	5.104705e+001	-2.721362e+001	1.485870e+002
2043200000.000	-2.399369e+001	1.290080e+002	-2.319538e+001	7.731577e+000	-2.324264e+001	7.568439e+000	-3.544053e+001	9.707556e+001
2048100000.000	-2.495760e+001	1.170827e+002	-2.311464e+001	-3.591245e+001	-2.315060e+001	-3.591077e+001	-3.965895e+001	-1.431941e+002
2053000000.000	-2.601328e+001	1.069820e+002	-2.302463e+001	-7.940643e+001	-2.301550e+001	-7.938082e+001	-3.044456e+001	1.595271e+002
2057900000.000	-2.702125e+001	9.871424e+001	-2.285833e+001	-1.232015e+002	-2.281482e+001	-1.232347e+002	-2.757224e+001	9.244815e+001
2062800000.000	-2.785979e+001	9.343976e+001	-2.274309e+001	-1.675792e+002	-2.267258e+001	-1.679653e+002	-2.594770e+001	1.687220e+001
2067700000.000	-2.811672e+001	8.901319e+001	-2.270121e+001	1.485654e+002	-2.268643e+001	1.475244e+002	-2.376538e+001	-5.806049e+001
2072600000.000	-2.855769e+001	7.960294e+001	-2.253452e+001	1.053516e+002	-2.264790e+001	1.047278e+002	-2.122289e+001	-1.267791e+002
2077500000.000	-3.029260e+001	7.764015e+001	-2.221069e+001	6.095597e+001	-2.227993e+001	6.153016e+001	-1.911686e+001	1.701447e+002
2082400000.000	-3.083606e+001	8.284169e+001	-2.199147e+001	1.586491e+001	-2.182163e+001	1.632671e+001	-1.772936e+001	1.077267e+002
2087300000.000	-3.060344e+001	8.831906e+001	-2.180109e+001	-2.907573e+001	-2.158471e+001	-3.060869e+001	-1.708100e+001	4.177538e+001
2092200000.000	-2.922835e+001	8.441318e+001	-2.153844e+001	-7.445661e+001	-2.164382e+001	-7.687624e+001	-1.665554e+001	-2.748269e+001
2097100000.000	-2.871580e+001	7.412201e+001	-2.141102e+001	-1.209751e+002	-2.175585e+001	-1.217377e+002	-1.594530e+001	-9.432367e+001
2102000000.000	-2.856815e+001	6.505624e+001	-2.147607e+001	-1.664760e+002	-2.168433e+001	-1.653466e+002	-1.499444e+001	-1.563899e+002
2106900000.000	-2.755996e+001	5.004759e+001	-2.139017e+001	1.488963e+002	-2.134378e+001	1.501486e+002	-1.429349e+001	1.413834e+002
2111800000.000	-2.717497e+001	2.749690e+001	-2.119785e+001	1.031174e+002	-2.105612e+001	1.031032e+002	-1.409256e+001	7.496882e+001
2116700000.000	-2.731116e+001	1.599149e+000	-2.128401e+001	5.727830e+001	-2.121101e+001	5.650849e+001	-1.413273e+001	5.676178e+000
2121600000.000	-2.879044e+001	-2.586558e+001	-2.104098e+001	1.392918e+001	-2.113541e+001	1.301638e+001	-1.394871e+001	-6.087972e+001
2126500000.000	-2.924552e+001	-3.491536e+001	-2.053865e+001	-3.471547e+001	-2.079317e+001	-3.426883e+001	-1.327253e+001	-1.247118e+002
2131400000.000	-2.714197e+001	-5.675373e+001	-2.072917e+001	-8.348549e+001	-2.079767e+001	-8.089444e+001	-1.278767e+001	1.715841e+002
2136300000.000	-2.530526e+001	-8.361142e+001	-2.109818e+001	-1.307317e+002	-2.065487e+001	-1.282647e+002	-1.258632e+001	1.054223e+002
2141200000.000	-2.351002e+001	-1.095250e+002	-2.147702e+001	-1.764076e+002	-2.084396e+001	-1.778692e+002	-1.295275e+001	3.559581e+001
2146100000.000	-2.191843e+001	-1.334967e+002	-2.173622e+001	1.386258e+002	-2.158574e+001	1.345998e+002	-1.362308e+001	-3.496988e+001
2151000000.000	-2.061867e+001	-1.543863e+002	-2.196712e+001	9.308303e+001	-2.228439e+001	9.070218e+001	-1.385037e+001	-1.019483e+002
2155900000.000	-1.944951e+001	-1.742547e+002	-2.243751e+001	4.803858e+001	-2.268455e+001	4.839092e+001	-1.356481e+001	-1.646605e+002
2160800000.000	-1.872129e+001	1.661124e+002	-2.285237e+001	5.403619e+000	-2.274539e+001	5.909148e+000	-1.335846e+001	1.336245e+002
2165700000.000	-1.841278e+001	1.467020e+002	-2.287947e+001	-3.657593e+001	-2.272594e+001	-3.798992e+001	-1.372475e+001	6.912926e+001
2170600000.000	-1.855136e+001	1.275793e+002	-2.268301e+001	-8.020398e+001	-2.276421e+001	-8.253210e+001	-1.444607e+001	7.509226e-001
2175500000.000	-1.904537e+001	1.095558e+002	-2.263133e+001	-1.256056e+002	-2.292336e+001	-1.268518e+002	-1.479547e+001	-6.775369e+001
2180400000.000	-1.968752e+001	9.251065e+001	-2.275237e+001	-1.700157e+002	-2.304427e+001	-1.697267e+002	-1.473594e+001	-1.323487e+002
2185300000.000	-2.050155e+001	7.625779e+001	-2.272190e+001	1.462985e+002	-2.285046e+001	1.475215e+002	-1.469317e+001	1.654988e+002
2190200000.000	-2.126646e+001	6.188525e+001	-2.248079e+001	1.017660e+002	-2.241609e+001	1.027161e+002	-1.489730e+001	1.023705e+002
2195100000.000	-2.172553e+001	4.637643e+001	-2.230718e+001	5.486739e+001	-2.217362e+001	5.473309e+001	-1.541999e+001	3.724594e+001
2200000000.000	-2.256984e+001	2.751514e+001	-2.251131e+001	8.305606e+000	-2.251872e+001	7.360847e+000	-1.632434e+001	-2.850270e+001
2204900000.000	-2.403916e+001	5.638263e+000	-2.273667e+001	-3.739508e+001	-2.287472e+001	-3.756611e+001	-1.745670e+001	-9.300284e+001
2209800000.000	-2.689663e+001	-1.928902e+001	-2.305824e+001	-8.226832e+001	-2.313143e+001	-8.138487e+001	-1.814251e+001	-1.575275e+002
2214700000.000	-3.109416e+001	-4.753431e+001	-2.330217e+001	-1.261264e+002	-2.316502e+001	-1.254176e+002	-1.848060e+001	1.376475e+002
2219600000.000	-3.623327e+001	-9.614073e+001	-2.347351e+001	-1.697494e+002	-2.325988e+001	-1.703841e+002	-1.903067e+001	7.382590e+001
2224500000.000	-3.656244e+001	-1.728637e+002	-2.352401e+001	1.468998e+002	-2.347825e+001	1.452454e+002	-2.005368e+001	1.076739e+001
2229400000.000	-3.357694e+001	1.413297e+002	-2.346216e+001	1.035611e+002	-2.360624e+001	1.020745e+002	-2.118989e+001	-5.267980e+001
2234300000.000	-3.187039e+001	1.199077e+002	-2.318499e+001	5.913863e+001	-2.340691e+001	5.871227e+001	-2.190270e+001	-1.130116e+002
2239200000.000	-2.938666e+001	1.036564e+002	-2.306566e+001	1.260260e+001	-2.322307e+001	1.295244e+001	-2.245757e+001	-1.701454e+002
2244100000.000	-2.749684e+001	7.930097e+001	-2.317564e+001	-3.362151e+001	-2.325317e+001	-3.309658e+001	-2.404511e+001	1.331588e+002
2249000000.000	-2.650753e+001	5.347585e+001	-2.334784e+001	-7.928902e+001	-2.337505e+001	-7.900550e+001	-2.671789e+001	7.316059e+001
2253900000.000	-2.612044e+001	2.705054e+001	-2.353909e+001	-1.247189e+002	-2.358047e+001	-1.244944e+002	-2.953926e+001	2.403551e+000
2258800000.000	-2.610277e+001	8.526428e-001	-2.375215e+001	-1.697625e+002	-2.381117e+001	-1.693646e+002	-3.103546e+001	-6.905562e+001
2263700000.000	-2.602445e+001	-2.612953e+001	-2.397447e+001	1.452949e+002	-2.394951e+001	1.460807e+002	-3.184147e+001	-1.269496e+002
2268600000.000	-2.530971e+001	-5.624444e+001	-2.420604e+001	1.005835e+002	-2.408617e+001	1.012260e+002	-3.334340e+001	-1.695222e+002
2273500000.000	-2.400368e+001	-9.231978e+001	-2.447272e+001	5.600530e+001	-2.426480e+001	5.601578e+001	-3.425952e+001	1.630231e+002
2278400000.000	-2.277413e+001	-1.287506e+002	-2.472839e+001	1.202394e+001	-2.455298e+001	1.111897e+001	-3.340166e+001	1.401098e+002
2283300000.000	-2.168572e+001	-1.604245e+002	-2.493001e+001	-3.162668e+001	-2.483440e+001	-3.305133e+001	-3.119874e+001	1.026180e+002
2288200000.000	-2.082006e+001	1.722117e+002	-2.505611e+001	-7.551891e+001	-2.504682e+001	-7.707060e+001	-3.013395e+001	5.017370e+001
2293100000.000	-2.030352e+001	1.480784e+002	-2.520939e+001	-1.201656e+002	-2.528760e+001	-1.216154e+002	-2.904263e+001	-1.325027e+001
2298000000.000	-2.003705e+001	1.261010e+002	-2.552438e+001	-1.644866e+002	-2.568553e+001	-1.655355e+002	-2.699174e+001	-7.978520e+001
2302900000.000	-1.994471e+001	1.049307e+002	-2.587516e+001	1.520325e+002	-2.605673e+001	1.517951e+002	-2.487987e+001	-1.405396e+002
2307800000.000	-1.998609e+001	8.387497e+001	-2.615027e+001	1.095710e+002	-2.629196e+001	1.098676e+002	-2.350756e+001	1.617751e+002
2312700000.000	-2.018353e+001	6.245794e+001	-2.634052e+001	6.734521e+001	-2.639266e+001	6.768587e+001	-2.272829e+001	1.011484e+002
2317600000.000	-2.065448e+001	4.084431e+001	-2.651095e+001	2.498411e+001	-2.652557e+001	2.513719e+001	-2.204882e+001	3.638505e+001
2322500000.000	-2.150048e+001	1.942390e+001	-2.664968e+001	-1.626881e+001	-2.670945e+001	-1.646938e+001	-2.116382e+001	-2.878705e+001
2327400000.000	-2.286896e+001	-2.423029e+000	-2.661127e+001	-5.691122e+001	-2.672822e+001	-5.648068e+001	-2.034744e+001	-9.284517e+001
2332300000.000	-2.478180e+001	-2.579989e+001	-2.630575e+001	-9.802961e+001	-2.631361e+001	-9.657273e+001	-1.955108e+001	-1.575632e+002
2337200000.000	-2.731960e+001	-5.524519e+001	-2.582125e+001	-1.398496e+002	-2.559269e+001	-1.386402e+002	-1.849389e+001	1.354920e+002
2342100000.000	-2.964976e+001	-9.889950e+001	-2.523501e+001	1.762131e+002	-2.491185e+001	1.757721e+002	-1.765614e+001	6.835139e+001
2347000000.000	-2.962555e+001	-1.549133e+002	-2.486226e+001	1.313251e+002	-2.468260e+001	1.291619e+002	-1.745786e+001	2.109279e+000
2351900000.000	-2.781924e+001	1.609948e+002	-2.456489e+001	8.648898e+001	-2.466475e+001	8.417316e+001	-1.765818e+001	-6.368733e+001
2356800000.000	-2.644174e+001	1.330418e+002	-2.425464e+001	4.162590e+001	-2.452846e+001	4.072444e+001	-1.750427e+001	-1.283601e+002
2361700000.000	-2.534825e+001	1.132946e+002	-2.388871e+001	-3.639698e+000	-2.409116e+001	-3.042060e+000	-1.689030e+001	1.695512e+002
2366600000.000	-2.411226e+001	9.464302e+001	-2.347471e+001	-5.008189e+001	-2.344890e+001	-4.919897e+001	-1.642390e+001	1.071965e+002
2371500000.000	-2.283833e+001	7.200230e+001	-2.329646e+001	-9.795262e+001	-2.318168e+001	-9.866861e+001	-1.638569e+001	4.111042e+001
2376400000.000	-2.189736e+001	4.507544e+001	-2.334774e+001	-1.453264e+002	-2.348527e+001	-1.471186e+002	-1.643221e+001	-2.746124e+001
2381300000.000	-2.138750e+001	1.686466e+001	-2.345351e+001	1.675544e+002	-2.388273e+001	1.673131e+002	-1.620997e+001	-9.125160e+001
2386200000.000	-2.117784e+001	-1.074288e+001	-2.372996e+001	1.206163e+002	-2.408014e+001	1.231260e+002	-1.590007e+001	-1.500977e+002
2391100000.000	-2.115365e+001	-3.806033e+001	-2.413478e+001	7.487116e+001	-2.405061e+001	7.835253e+001	-1.589614e+001	1.504689e+002
2396000000.000	-2.132325e+001	-6.573292e+001	-2.453319e+001	3.022729e+001	-2.409623e+001	3.179588e+001	-1.602865e+001	8.608103e+001
2400900000.000	-2.155111e+001	-9.434777e+001	-2.496844e+001	-1.385020e+001	-2.457631e+001	-1.485033e+001	-1.597506e+001	1.852664e+001
2405800000.000	-2.158530e+001	-1.239317e+002	-2.538957e+001	-5.582626e+001	-2.528588e+001	-5.775858e+001	-1.589338e+001	-4.591861e+001
2410700000.000	-2.130398e+001	-1.531948e+002	-2.545651e+001	-9.610868e+001	-2.554921e+001	-9.730647e+001	-1.578991e+001	-1.065502e+002
2415600000.000	-2.074106e+001	1.794734e+002	-2.507669e+001	-1.373256e+002	-2.513422e+001	-1.374150e+002	-1.542878e+001	-1.684730e+002
2420500000.000	-2.009006e+001	1.546090e+002	-2.451370e+001	1.786116e+002	-2.442914e+001	1.787023e+002	-1.485238e+001	1.259468e+002
2425400000.000	-1.951847e+001	1.311866e+002	-2.413925e+001	1.320865e+002	-2.394219e+001	1.312582e+002	-1.454337e+001	5.862470e+001
2430300000.000	-1.918038e+001	1.080777e+002	-2.410586e+001	8.569176e+001	-2.405199e+001	8.333108e+001	-1.504046e+001	-9.036740e+000
2435200000.000	-1.906477e+001	8.503979e+001	-2.412421e+001	4.052457e+001	-2.441385e+001	3.814345e+001	-1.618535e+001	-7.555046e+001
