!Agilent Technologies,E5061B,MY49305579,A.02.22
!Date: Thu Aug 24 16:28:31 2017
!Data & Calibration Information:
!Freq	S11:SOLT2(ON)	S21:SOLT2(ON)	S12:SOLT2(ON)	S22:SOLT2(ON)
# Hz S dB R 50
1710000000.000	-1.858082e+001	1.653946e+002	-2.253860e+001	8.033255e+001	-2.259570e+001	8.008804e+001	-2.526337e+001	-1.760998e+002
1714900000.000	-1.883313e+001	1.462006e+002	-2.248005e+001	3.578766e+001	-2.255530e+001	3.543043e+001	-2.668783e+001	1.065575e+002
1719800000.000	-1.934147e+001	1.258957e+002	-2.230612e+001	-1.036604e+001	-2.242678e+001	-1.006611e+001	-2.830474e+001	8.790396e+000
1724700000.000	-2.015427e+001	1.044202e+002	-2.235026e+001	-5.646654e+001	-2.233916e+001	-5.585282e+001	-2.535309e+001	-8.387766e+001
1729600000.000	-2.147014e+001	8.198598e+001	-2.224746e+001	-1.013103e+002	-2.221022e+001	-1.014066e+002	-2.218610e+001	-1.491497e+002
1734500000.000	-2.328135e+001	5.778318e+001	-2.195745e+001	-1.478787e+002	-2.202642e+001	-1.477969e+002	-2.099431e+001	1.533327e+002
1739400000.000	-2.574990e+001	2.927853e+001	-2.194762e+001	1.643362e+002	-2.193196e+001	1.651203e+002	-2.161816e+001	9.442409e+001
1744300000.000	-2.858423e+001	-7.356799e+000	-2.207851e+001	1.178524e+002	-2.194803e+001	1.179300e+002	-2.299967e+001	2.414596e+001
1749200000.000	-3.042996e+001	-5.443544e+001	-2.207133e+001	7.181117e+001	-2.207347e+001	7.097324e+001	-2.239045e+001	-5.555154e+001
1754100000.000	-3.015401e+001	-9.734911e+001	-2.203340e+001	2.464633e+001	-2.223155e+001	2.474410e+001	-2.034087e+001	-1.236069e+002
1759000000.000	-2.900110e+001	-1.289270e+002	-2.224072e+001	-2.311463e+001	-2.227318e+001	-2.131892e+001	-1.930756e+001	1.769209e+002
1763900000.000	-2.836076e+001	-1.536339e+002	-2.258060e+001	-6.906504e+001	-2.232501e+001	-6.837463e+001	-1.979997e+001	1.168244e+002
1768800000.000	-2.836530e+001	-1.762774e+002	-2.270543e+001	-1.143513e+002	-2.256247e+001	-1.157520e+002	-2.086749e+001	5.042019e+001
1773700000.000	-2.935235e+001	1.609400e+002	-2.276505e+001	-1.611915e+002	-2.293848e+001	-1.623363e+002	-2.058396e+001	-2.134575e+001
1778600000.000	-3.148528e+001	1.367454e+002	-2.314899e+001	1.515473e+002	-2.335428e+001	1.524233e+002	-1.912726e+001	-8.801721e+001
1783500000.000	-3.551362e+001	1.076321e+002	-2.363998e+001	1.067760e+002	-2.358519e+001	1.080390e+002	-1.780305e+001	-1.487388e+002
1788400000.000	-4.343125e+001	4.916833e+001	-2.375424e+001	6.273231e+001	-2.364062e+001	6.283261e+001	-1.717426e+001	1.500683e+002
1793300000.000	-3.881563e+001	-6.461259e+001	-2.384145e+001	1.598978e+001	-2.379239e+001	1.620755e+001	-1.726054e+001	8.437658e+001
1798200000.000	-3.233451e+001	-1.008755e+002	-2.433105e+001	-3.057913e+001	-2.420654e+001	-3.041119e+001	-1.747856e+001	1.343664e+001
1803100000.000	-2.864261e+001	-1.229017e+002	-2.490798e+001	-7.464952e+001	-2.479612e+001	-7.559340e+001	-1.716517e+001	-5.831629e+001
1808000000.000	-2.629591e+001	-1.412599e+002	-2.514073e+001	-1.181684e+002	-2.528620e+001	-1.189955e+002	-1.650381e+001	-1.247413e+002
1812900000.000	-2.478287e+001	-1.576786e+002	-2.544853e+001	-1.635755e+002	-2.555490e+001	-1.621201e+002	-1.615934e+001	1.717498e+002
1817800000.000	-2.411445e+001	-1.727888e+002	-2.611701e+001	1.529996e+002	-2.580248e+001	1.540973e+002	-1.669437e+001	1.051527e+002
1822700000.000	-2.365439e+001	1.750696e+002	-2.648368e+001	1.119582e+002	-2.619338e+001	1.097690e+002	-1.783249e+001	3.182112e+001
1827600000.000	-2.340656e+001	1.615717e+002	-2.647582e+001	6.996610e+001	-2.669232e+001	6.740990e+001	-1.861293e+001	-4.285499e+001
1832500000.000	-2.344011e+001	1.461910e+002	-2.661261e+001	2.657369e+001	-2.695709e+001	2.691202e+001	-1.903928e+001	-1.114583e+002
1837400000.000	-2.384606e+001	1.284697e+002	-2.682499e+001	-1.530948e+001	-2.687125e+001	-1.392202e+001	-2.015940e+001	-1.756162e+002
1842300000.000	-2.461295e+001	1.079091e+002	-2.672499e+001	-5.642668e+001	-2.669042e+001	-5.617204e+001	-2.280994e+001	1.176425e+002
1847200000.000	-2.569629e+001	8.504148e+001	-2.647183e+001	-9.949244e+001	-2.649754e+001	-9.937803e+001	-2.685626e+001	4.231066e+001
1852100000.000	-2.712921e+001	5.705840e+001	-2.642306e+001	-1.429768e+002	-2.641044e+001	-1.425194e+002	-2.982245e+001	-4.823169e+001
1857000000.000	-2.895858e+001	2.251056e+001	-2.634269e+001	1.745008e+002	-2.628652e+001	1.748513e+002	-3.023671e+001	-1.364812e+002
1861900000.000	-3.052105e+001	-2.205355e+001	-2.611560e+001	1.316216e+002	-2.607055e+001	1.319802e+002	-3.198635e+001	1.507523e+002
1866800000.000	-3.055416e+001	-7.260044e+001	-2.590204e+001	8.873568e+001	-2.581883e+001	8.916824e+001	-3.943741e+001	7.530592e+001
1871700000.000	-2.881509e+001	-1.109384e+002	-2.554072e+001	4.571881e+001	-2.543840e+001	4.580578e+001	-3.674188e+001	-9.500487e+001
1876600000.000	-2.672313e+001	-1.381989e+002	-2.508678e+001	1.936075e+000	-2.501180e+001	1.807683e+000	-2.880398e+001	-1.573756e+002
1881500000.000	-2.511967e+001	-1.594803e+002	-2.464319e+001	-4.307725e+001	-2.454918e+001	-4.291378e+001	-2.640073e+001	1.481193e+002
1886400000.000	-2.412050e+001	-1.777414e+002	-2.429557e+001	-8.818380e+001	-2.413012e+001	-8.891609e+001	-2.693655e+001	8.872152e+001
1891300000.000	-2.367489e+001	1.650063e+002	-2.389792e+001	-1.333390e+002	-2.387034e+001	-1.351320e+002	-2.743936e+001	8.599216e+000
1896200000.000	-2.398845e+001	1.476123e+002	-2.339598e+001	-1.799830e+002	-2.360849e+001	1.787902e+002	-2.486558e+001	-7.009921e+001
1901100000.000	-2.501113e+001	1.338254e+002	-2.313646e+001	1.315757e+002	-2.335921e+001	1.320925e+002	-2.220530e+001	-1.292632e+002
1906000000.000	-2.579966e+001	1.180647e+002	-2.326009e+001	8.442030e+001	-2.328066e+001	8.551108e+001	-2.101543e+001	1.766271e+002
1910900000.000	-2.765753e+001	9.734042e+001	-2.320774e+001	3.890834e+001	-2.312503e+001	3.910690e+001	-2.097957e+001	1.179205e+002
1915800000.000	-3.094234e+001	7.304844e+001	-2.305582e+001	-7.940558e+000	-2.304680e+001	-8.228250e+000	-2.107957e+001	4.997506e+001
1920700000.000	-3.736113e+001	4.052724e+001	-2.311559e+001	-5.544612e+001	-2.315810e+001	-5.538808e+001	-2.039126e+001	-2.163708e+001
1925600000.000	-4.477650e+001	-5.980633e+001	-2.329781e+001	-1.016589e+002	-2.330269e+001	-1.015376e+002	-1.932600e+001	-8.792516e+001
1930500000.000	-3.563929e+001	-1.274684e+002	-2.337030e+001	-1.474916e+002	-2.339088e+001	-1.472044e+002	-1.839617e+001	-1.496595e+002
1935400000.000	-3.061705e+001	-1.538696e+002	-2.343596e+001	1.662507e+002	-2.340956e+001	1.672175e+002	-1.771120e+001	1.484838e+002
1940300000.000	-2.803370e+001	-1.740960e+002	-2.360774e+001	1.194860e+002	-2.335676e+001	1.201620e+002	-1.747156e+001	8.430026e+001
1945200000.000	-2.650466e+001	1.697813e+002	-2.391308e+001	7.395813e+001	-2.361751e+001	7.240800e+001	-1.750779e+001	1.828863e+001
1950100000.000	-2.549269e+001	1.555034e+002	-2.409274e+001	2.866493e+001	-2.414433e+001	2.609603e+001	-1.733018e+001	-4.854497e+001
1955000000.000	-2.490462e+001	1.412943e+002	-2.432012e+001	-1.703177e+001	-2.466186e+001	-1.773135e+001	-1.666114e+001	-1.116701e+002
1959900000.000	-2.481637e+001	1.270352e+002	-2.466328e+001	-6.210123e+001	-2.485411e+001	-6.054419e+001	-1.572818e+001	-1.712125e+002
1964800000.000	-2.485906e+001	1.131224e+002	-2.499037e+001	-1.055275e+002	-2.480908e+001	-1.045551e+002	-1.517096e+001	1.291221e+002
1969700000.000	-2.509593e+001	9.705468e+001	-2.499719e+001	-1.489636e+002	-2.485001e+001	-1.500475e+002	-1.518532e+001	6.546463e+001
1974600000.000	-2.550256e+001	7.941592e+001	-2.501321e+001	1.653634e+002	-2.513617e+001	1.643233e+002	-1.546953e+001	-3.073809e+000
1979500000.000	-2.613722e+001	5.817260e+001	-2.539221e+001	1.205321e+002	-2.555265e+001	1.207078e+002	-1.545139e+001	-7.253080e+001
1984400000.000	-2.773949e+001	3.388949e+001	-2.556742e+001	7.785400e+001	-2.563934e+001	7.848259e+001	-1.502330e+001	-1.384150e+002
1989300000.000	-2.915782e+001	1.858803e+001	-2.557560e+001	3.395171e+001	-2.561986e+001	3.492339e+001	-1.447201e+001	1.589106e+002
1994200000.000	-2.942175e+001	-9.234426e+000	-2.563767e+001	-1.022534e+001	-2.553617e+001	-8.702468e+000	-1.417000e+001	9.369293e+001
1999100000.000	-2.970554e+001	-4.268609e+001	-2.581902e+001	-5.374598e+001	-2.549039e+001	-5.345767e+001	-1.447609e+001	2.404959e+001
2004000000.000	-2.897021e+001	-7.577595e+001	-2.582142e+001	-9.573577e+001	-2.565837e+001	-9.760622e+001	-1.500278e+001	-4.684313e+001
2008900000.000	-2.732667e+001	-1.032701e+002	-2.539152e+001	-1.382839e+002	-2.557352e+001	-1.392588e+002	-1.506432e+001	-1.140275e+002
2013800000.000	-2.538176e+001	-1.269681e+002	-2.492176e+001	1.750084e+002	-2.499174e+001	1.764306e+002	-1.488136e+001	-1.781392e+002
2018700000.000	-2.379102e+001	-1.467479e+002	-2.494847e+001	1.277794e+002	-2.457508e+001	1.284879e+002	-1.553095e+001	1.155936e+002
2023600000.000	-2.263061e+001	-1.650502e+002	-2.505359e+001	8.213068e+001	-2.476196e+001	7.962831e+001	-1.738291e+001	4.473528e+001
2028500000.000	-2.203552e+001	1.777879e+002	-2.512044e+001	3.576610e+001	-2.528195e+001	3.302577e+001	-1.916206e+001	-3.148700e+001
2033400000.000	-2.201642e+001	1.616711e+002	-2.548282e+001	-1.041536e+001	-2.576811e+001	-1.089221e+001	-1.998117e+001	-1.041125e+002
2038300000.000	-2.239880e+001	1.468413e+002	-2.591058e+001	-5.461960e+001	-2.602352e+001	-5.402795e+001	-2.101614e+001	-1.677452e+002
2043200000.000	-2.306739e+001	1.331054e+002	-2.616187e+001	-9.774757e+001	-2.614299e+001	-9.774745e+001	-2.366413e+001	1.336580e+002
2048100000.000	-2.386927e+001	1.204607e+002	-2.629758e+001	-1.412706e+002	-2.629394e+001	-1.413891e+002	-2.898482e+001	7.569967e+001
2053000000.000	-2.472700e+001	1.086709e+002	-2.643280e+001	1.754622e+002	-2.644167e+001	1.752979e+002	-3.958141e+001	1.807694e+001
2057900000.000	-2.564551e+001	9.850803e+001	-2.649533e+001	1.325814e+002	-2.648132e+001	1.323807e+002	-4.682047e+001	1.005713e+002
2062800000.000	-2.646056e+001	9.019585e+001	-2.643094e+001	8.934795e+001	-2.639598e+001	8.903790e+001	-3.654952e+001	2.728936e+001
2067700000.000	-2.697316e+001	8.284437e+001	-2.642375e+001	4.515818e+001	-2.639492e+001	4.458639e+001	-3.070390e+001	-5.236166e+001
2072600000.000	-2.758491e+001	7.174083e+001	-2.656647e+001	1.497432e+000	-2.661929e+001	9.783348e-001	-2.645116e+001	-1.192054e+002
2077500000.000	-2.960039e+001	6.499089e+001	-2.655924e+001	-4.062991e+001	-2.662743e+001	-4.054811e+001	-2.336726e+001	-1.771818e+002
2082400000.000	-3.124772e+001	6.578252e+001	-2.644100e+001	-8.327074e+001	-2.635915e+001	-8.297599e+001	-2.137764e+001	1.252829e+002
2087300000.000	-3.287640e+001	7.278270e+001	-2.623565e+001	-1.264573e+002	-2.605527e+001	-1.272653e+002	-2.035975e+001	6.306937e+001
2092200000.000	-3.230574e+001	7.910599e+001	-2.595376e+001	-1.691696e+002	-2.596400e+001	-1.710941e+002	-1.978876e+001	-4.919741e+000
2097100000.000	-3.210757e+001	7.692124e+001	-2.552644e+001	1.469439e+002	-2.575884e+001	1.458060e+002	-1.877736e+001	-7.318469e+001
2102000000.000	-3.161857e+001	7.739453e+001	-2.506854e+001	1.016955e+002	-2.530448e+001	1.021062e+002	-1.759608e+001	-1.367782e+002
2106900000.000	-2.971494e+001	6.525450e+001	-2.479568e+001	5.528915e+001	-2.485112e+001	5.632385e+001	-1.689884e+001	1.623076e+002
2111800000.000	-2.895083e+001	4.334483e+001	-2.470798e+001	9.248299e+000	-2.461990e+001	9.672555e+000	-1.689066e+001	9.956363e+001
2116700000.000	-2.898968e+001	1.803419e+001	-2.463905e+001	-3.688234e+001	-2.455817e+001	-3.717145e+001	-1.725398e+001	3.275457e+001
2121600000.000	-3.051809e+001	-4.015429e+000	-2.469277e+001	-8.278593e+001	-2.468153e+001	-8.345532e+001	-1.729637e+001	-3.409659e+001
2126500000.000	-2.908503e+001	-1.190220e+001	-2.482538e+001	-1.277445e+002	-2.496918e+001	-1.279772e+002	-1.684486e+001	-9.695557e+001
2131400000.000	-2.674347e+001	-4.047537e+001	-2.480762e+001	-1.719566e+002	-2.494319e+001	-1.706556e+002	-1.629176e+001	-1.565369e+002
2136300000.000	-2.499932e+001	-7.037640e+001	-2.477147e+001	1.431565e+002	-2.460503e+001	1.454814e+002	-1.591272e+001	1.441865e+002
2141200000.000	-2.326432e+001	-9.855378e+001	-2.481416e+001	9.868090e+001	-2.431015e+001	9.920016e+001	-1.595788e+001	8.210914e+001
2146100000.000	-2.170942e+001	-1.244560e+002	-2.476829e+001	5.498720e+001	-2.432997e+001	5.237102e+001	-1.630655e+001	1.625539e+001
2151000000.000	-2.038632e+001	-1.466679e+002	-2.451920e+001	1.120523e+001	-2.454854e+001	7.566879e+000	-1.633865e+001	-5.130151e+001
2155900000.000	-1.916919e+001	-1.678128e+002	-2.425146e+001	-3.454312e+001	-2.459366e+001	-3.616517e+001	-1.573379e+001	-1.160337e+002
2160800000.000	-1.838001e+001	1.716736e+002	-2.421550e+001	-7.992538e+001	-2.441185e+001	-7.946820e+001	-1.486707e+001	-1.766181e+002
2165700000.000	-1.798599e+001	1.518004e+002	-2.412330e+001	-1.244328e+002	-2.403844e+001	-1.240532e+002	-1.435490e+001	1.224854e+002
2170600000.000	-1.797422e+001	1.323495e+002	-2.382785e+001	-1.695691e+002	-2.370699e+001	-1.708964e+002	-1.436930e+001	5.713923e+001
2175500000.000	-1.826648e+001	1.138809e+002	-2.364095e+001	1.436635e+002	-2.374844e+001	1.416225e+002	-1.460306e+001	-1.223024e+001
2180400000.000	-1.872091e+001	9.599704e+001	-2.369941e+001	9.723998e+001	-2.400115e+001	9.622037e+001	-1.449855e+001	-7.958012e+001
2185300000.000	-1.932773e+001	7.856184e+001	-2.371400e+001	5.210412e+001	-2.402887e+001	5.267034e+001	-1.404636e+001	-1.427685e+002
2190200000.000	-1.993591e+001	6.235311e+001	-2.357696e+001	6.686449e+000	-2.372391e+001	8.349621e+000	-1.345005e+001	1.543708e+002
2195100000.000	-2.039327e+001	4.463682e+001	-2.352123e+001	-4.017796e+001	-2.336707e+001	-3.883858e+001	-1.303427e+001	8.833017e+001
2200000000.000	-2.124462e+001	2.436467e+001	-2.376085e+001	-8.600285e+001	-2.354826e+001	-8.642340e+001	-1.309967e+001	2.050492e+001
2204900000.000	-2.250667e+001	9.120410e-001	-2.364456e+001	-1.293099e+002	-2.367383e+001	-1.308201e+002	-1.362980e+001	-4.655884e+001
2209800000.000	-2.493322e+001	-2.716082e+001	-2.326200e+001	-1.763371e+002	-2.347024e+001	-1.764445e+002	-1.413321e+001	-1.129480e+002
2214700000.000	-2.823538e+001	-5.946040e+001	-2.330016e+001	1.354125e+002	-2.333626e+001	1.368731e+002	-1.422281e+001	-1.799734e+002
2219600000.000	-3.133949e+001	-1.045414e+002	-2.351797e+001	8.843693e+001	-2.325438e+001	8.898468e+001	-1.425897e+001	1.114354e+002
2224500000.000	-3.177480e+001	-1.590018e+002	-2.369755e+001	4.186531e+001	-2.347659e+001	4.011862e+001	-1.495556e+001	4.163856e+001
2229400000.000	-3.043930e+001	1.586044e+002	-2.392186e+001	-5.281212e+000	-2.401532e+001	-7.494631e+000	-1.627550e+001	-2.818267e+001
2234300000.000	-2.909535e+001	1.330904e+002	-2.437390e+001	-5.222716e+001	-2.467290e+001	-5.315684e+001	-1.763100e+001	-9.586389e+001
2239200000.000	-2.710283e+001	1.114398e+002	-2.489439e+001	-9.761779e+001	-2.511757e+001	-9.715276e+001	-1.906474e+001	-1.598416e+002
2244100000.000	-2.563886e+001	8.524541e+001	-2.534947e+001	-1.422851e+002	-2.541317e+001	-1.416010e+002	-2.154164e+001	1.394988e+002
2249000000.000	-2.488345e+001	5.842340e+001	-2.578091e+001	1.731038e+002	-2.581617e+001	1.732954e+002	-2.597040e+001	7.932608e+001
2253900000.000	-2.464959e+001	3.142385e+001	-2.628096e+001	1.289234e+002	-2.636178e+001	1.292802e+002	-3.363557e+001	1.810771e+001
2258800000.000	-2.469634e+001	4.900798e+000	-2.683974e+001	8.585027e+001	-2.687346e+001	8.665219e+001	-4.816692e+001	1.374324e+001
2263700000.000	-2.471067e+001	-2.185541e+001	-2.728705e+001	4.464485e+001	-2.724260e+001	4.539734e+001	-3.552698e+001	1.485769e+001
2268600000.000	-2.415719e+001	-5.137843e+001	-2.744022e+001	3.958895e+000	-2.734396e+001	4.159532e+000	-2.876934e+001	-5.243821e+001
2273500000.000	-2.307710e+001	-8.632222e+001	-2.743447e+001	-3.724332e+001	-2.733703e+001	-3.736100e+001	-2.476208e+001	-1.162452e+002
2278400000.000	-2.206197e+001	-1.221357e+002	-2.725800e+001	-7.926574e+001	-2.713539e+001	-7.941606e+001	-2.215783e+001	-1.769801e+002
2283300000.000	-2.109332e+001	-1.539899e+002	-2.710447e+001	-1.221324e+002	-2.692866e+001	-1.229963e+002	-2.045713e+001	1.223126e+002
2288200000.000	-2.026202e+001	1.780905e+002	-2.698549e+001	-1.650821e+002	-2.684869e+001	-1.667704e+002	-1.945042e+001	5.834585e+001
2293100000.000	-1.975225e+001	1.532982e+002	-2.674991e+001	1.519745e+002	-2.679700e+001	1.497825e+002	-1.885488e+001	-8.933633e+000
2298000000.000	-1.947349e+001	1.309335e+002	-2.644823e+001	1.081712e+002	-2.667760e+001	1.066201e+002	-1.815673e+001	-7.573320e+001
2302900000.000	-1.930128e+001	1.096593e+002	-2.619755e+001	6.374209e+001	-2.648366e+001	6.349940e+001	-1.730662e+001	-1.385730e+002
2307800000.000	-1.922000e+001	8.835723e+001	-2.595214e+001	1.881497e+001	-2.610891e+001	1.972487e+001	-1.652221e+001	1.598828e+002
2312700000.000	-1.931238e+001	6.653995e+001	-2.577619e+001	-2.677497e+001	-2.573997e+001	-2.607527e+001	-1.596594e+001	9.563485e+001
2317600000.000	-1.967485e+001	4.458787e+001	-2.571183e+001	-7.253186e+001	-2.565387e+001	-7.309329e+001	-1.559440e+001	2.830520e+001
2322500000.000	-2.036210e+001	2.277602e+001	-2.577485e+001	-1.179730e+002	-2.590539e+001	-1.189475e+002	-1.544434e+001	-3.798116e+001
2327400000.000	-2.146500e+001	4.099153e-001	-2.589050e+001	-1.627956e+002	-2.615547e+001	-1.623409e+002	-1.531595e+001	-1.012587e+002
2332300000.000	-2.299848e+001	-2.370070e+001	-2.600526e+001	1.531351e+002	-2.610402e+001	1.552361e+002	-1.495150e+001	-1.639259e+002
2337200000.000	-2.492456e+001	-5.254042e+001	-2.606322e+001	1.098884e+002	-2.579747e+001	1.119946e+002	-1.416105e+001	1.318347e+002
2342100000.000	-2.667237e+001	-9.176074e+001	-2.582305e+001	6.681211e+001	-2.534905e+001	6.647725e+001	-1.338851e+001	6.590008e+001
2347000000.000	-2.717853e+001	-1.402557e+002	-2.552061e+001	2.121558e+001	-2.525151e+001	1.832535e+001	-1.320272e+001	-7.783365e-001
2351900000.000	-2.633091e+001	1.767270e+002	-2.557547e+001	-2.534094e+001	-2.574766e+001	-2.834298e+001	-1.341101e+001	-6.667494e+001
2356800000.000	-2.524262e+001	1.467563e+002	-2.583139e+001	-6.969023e+001	-2.622382e+001	-7.057843e+001	-1.328450e+001	-1.308056e+002
2361700000.000	-2.407128e+001	1.244327e+002	-2.585523e+001	-1.129677e+002	-2.609767e+001	-1.115776e+002	-1.268802e+001	1.662331e+002
2366600000.000	-2.275587e+001	1.028848e+002	-2.579844e+001	-1.572777e+002	-2.564936e+001	-1.557985e+002	-1.222904e+001	1.015463e+002
2371500000.000	-2.154837e+001	7.791348e+001	-2.585726e+001	1.586554e+002	-2.560696e+001	1.572240e+002	-1.232131e+001	3.356765e+001
2376400000.000	-2.077915e+001	5.002917e+001	-2.587210e+001	1.150696e+002	-2.605447e+001	1.123154e+002	-1.265092e+001	-3.449566e+001
2381300000.000	-2.037279e+001	2.184645e+001	-2.579996e+001	7.189518e+001	-2.640523e+001	7.135105e+001	-1.269748e+001	-9.786153e+001
2386200000.000	-2.021871e+001	-5.586006e+000	-2.568712e+001	2.828705e+001	-2.617299e+001	3.180624e+001	-1.248720e+001	-1.576059e+002
2391100000.000	-2.021947e+001	-3.277775e+001	-2.562332e+001	-1.488028e+001	-2.543067e+001	-1.024711e+001	-1.228829e+001	1.402242e+002
2396000000.000	-2.039953e+001	-6.016842e+001	-2.537896e+001	-5.720994e+001	-2.477698e+001	-5.601133e+001	-1.230247e+001	7.174766e+001
2400900000.000	-2.062244e+001	-8.826103e+001	-2.489973e+001	-1.004691e+002	-2.452439e+001	-1.023735e+002	-1.262112e+001	1.565144e+000
2405800000.000	-2.064792e+001	-1.172238e+002	-2.442946e+001	-1.453947e+002	-2.444209e+001	-1.472317e+002	-1.313130e+001	-6.355226e+001
2410700000.000	-2.035144e+001	-1.461597e+002	-2.407518e+001	1.699611e+002	-2.418511e+001	1.695370e+002	-1.354141e+001	-1.249445e+002
2415600000.000	-1.974519e+001	-1.734320e+002	-2.355407e+001	1.255882e+002	-2.353222e+001	1.259452e+002	-1.365858e+001	1.719955e+002
2420500000.000	-1.901722e+001	1.611107e+002	-2.284965e+001	7.914920e+001	-2.266527e+001	7.900801e+001	-1.366869e+001	1.053247e+002
2425400000.000	-1.836189e+001	1.365718e+002	-2.240506e+001	3.042812e+001	-2.219356e+001	2.887766e+001	-1.412914e+001	3.763432e+001
2430300000.000	-1.796614e+001	1.123040e+002	-2.222524e+001	-1.783638e+001	-2.225228e+001	-2.054722e+001	-1.530533e+001	-2.886470e+001
2435200000.000	-1.778235e+001	8.803874e+001	-2.203950e+001	-6.563381e+001	-2.238709e+001	-6.762349e+001	-1.673145e+001	-9.459594e+001
