!Agilent Technologies,E5061B,MY49305579,A.02.22
!Date: Thu Aug 24 16:28:42 2017
!Data & Calibration Information:
!Freq	S11:SOLT2(ON)	S21:SOLT2(ON)	S12:SOLT2(ON)	S22:SOLT2(ON)
# Hz S dB R 50
1710000000.000	-1.823786e+001	1.676344e+002	-1.918142e+001	5.483615e+001	-1.905409e+001	5.128168e+001	-1.289085e+001	6.561192e+001
1714900000.000	-1.839160e+001	1.485325e+002	-1.886216e+001	5.410445e+000	-1.930328e+001	4.093997e+000	-1.324219e+001	-7.963148e+000
1719800000.000	-1.878646e+001	1.279276e+002	-1.945843e+001	-4.227018e+001	-1.966730e+001	-4.052710e+001	-1.324415e+001	-7.803091e+001
1724700000.000	-1.949979e+001	1.061994e+002	-1.982777e+001	-8.395305e+001	-1.972813e+001	-8.332849e+001	-1.308648e+001	-1.426184e+002
1729600000.000	-2.062628e+001	8.368912e+001	-1.934482e+001	-1.269118e+002	-1.938453e+001	-1.271309e+002	-1.316800e+001	1.562779e+002
1734500000.000	-2.215818e+001	5.915665e+001	-1.903437e+001	-1.746477e+002	-1.907998e+001	-1.735686e+002	-1.398744e+001	9.343999e+001
1739400000.000	-2.421033e+001	3.064656e+001	-1.928715e+001	1.391033e+002	-1.906958e+001	1.395797e+002	-1.568237e+001	2.668823e+001
1744300000.000	-2.651319e+001	-4.314041e+000	-1.925977e+001	9.542343e+001	-1.917032e+001	9.385854e+001	-1.703480e+001	-4.243170e+001
1749200000.000	-2.802553e+001	-4.618002e+001	-1.891388e+001	4.992143e+001	-1.918521e+001	4.903558e+001	-1.730503e+001	-1.056483e+002
1754100000.000	-2.798587e+001	-8.663495e+001	-1.882058e+001	2.387333e+000	-1.906580e+001	4.007923e+000	-1.716517e+001	-1.597344e+002
1759000000.000	-2.714776e+001	-1.187669e+002	-1.905374e+001	-4.395059e+001	-1.891345e+001	-4.163973e+001	-1.725598e+001	1.497403e+002
1763900000.000	-2.649073e+001	-1.444058e+002	-1.918926e+001	-8.801747e+001	-1.879720e+001	-8.794798e+001	-1.752685e+001	9.436530e+001
1768800000.000	-2.633335e+001	-1.683488e+002	-1.894270e+001	-1.322941e+002	-1.881826e+001	-1.346966e+002	-1.771306e+001	2.980131e+001
1773700000.000	-2.691919e+001	1.683719e+002	-1.870468e+001	-1.791747e+002	-1.899711e+001	1.795177e+002	-1.717820e+001	-3.763245e+001
1778600000.000	-2.827054e+001	1.440635e+002	-1.884840e+001	1.339010e+002	-1.908671e+001	1.352511e+002	-1.611556e+001	-1.007547e+002
1783500000.000	-3.069636e+001	1.171598e+002	-1.903036e+001	8.975881e+001	-1.893917e+001	9.116708e+001	-1.536657e+001	-1.608551e+002
1788400000.000	-3.471526e+001	8.240816e+001	-1.872979e+001	4.573120e+001	-1.860831e+001	4.585450e+001	-1.516383e+001	1.386940e+002
1793300000.000	-3.972301e+001	1.256264e+001	-1.839260e+001	-1.613799e+000	-1.835589e+001	-1.384124e+000	-1.539355e+001	7.374959e+001
1798200000.000	-3.531739e+001	-6.698250e+001	-1.853551e+001	-4.911757e+001	-1.838661e+001	-4.903157e+001	-1.589163e+001	4.062609e+000
1803100000.000	-3.030938e+001	-1.018224e+002	-1.865752e+001	-9.406857e+001	-1.856623e+001	-9.522911e+001	-1.620707e+001	-6.463681e+001
1808000000.000	-2.707655e+001	-1.248017e+002	-1.844214e+001	-1.396917e+002	-1.861107e+001	-1.403092e+002	-1.627112e+001	-1.276832e+002
1812900000.000	-2.497474e+001	-1.437836e+002	-1.838531e+001	1.723667e+002	-1.848084e+001	1.737235e+002	-1.667980e+001	1.735218e+002
1817800000.000	-2.389062e+001	-1.604773e+002	-1.869504e+001	1.256919e+002	-1.843328e+001	1.267924e+002	-1.788822e+001	1.155888e+002
1822700000.000	-2.295957e+001	-1.742913e+002	-1.885957e+001	8.043073e+001	-1.853591e+001	7.903192e+001	-1.944501e+001	5.536153e+001
1827600000.000	-2.239481e+001	1.700768e+002	-1.890413e+001	3.470674e+001	-1.892033e+001	3.210165e+001	-2.033008e+001	-7.114455e+000
1832500000.000	-2.221403e+001	1.529547e+002	-1.903428e+001	-1.193907e+001	-1.934779e+001	-1.315592e+001	-2.030002e+001	-6.580613e+001
1837400000.000	-2.241530e+001	1.337629e+002	-1.941324e+001	-5.785724e+001	-1.967495e+001	-5.689856e+001	-1.983898e+001	-1.179759e+002
1842300000.000	-2.294117e+001	1.124575e+002	-1.977291e+001	-1.017785e+002	-1.977964e+001	-1.003507e+002	-1.960694e+001	-1.688704e+002
1847200000.000	-2.371438e+001	8.882964e+001	-1.986779e+001	-1.447931e+002	-1.977142e+001	-1.443362e+002	-1.970593e+001	1.383410e+002
1852100000.000	-2.481733e+001	6.125187e+001	-1.974198e+001	1.711226e+002	-1.971466e+001	1.711815e+002	-1.988270e+001	8.006215e+001
1857000000.000	-2.620799e+001	2.938307e+001	-1.974340e+001	1.256741e+002	-1.971731e+001	1.260043e+002	-2.007508e+001	1.692236e+001
1861900000.000	-2.758712e+001	-9.213327e+000	-1.991708e+001	8.122293e+001	-1.982624e+001	8.133941e+001	-1.969094e+001	-4.796241e+001
1866800000.000	-2.820775e+001	-5.330908e+001	-1.990502e+001	3.828277e+001	-1.990908e+001	3.776455e+001	-1.864483e+001	-1.110074e+002
1871700000.000	-2.724100e+001	-9.225552e+001	-1.961077e+001	-5.967209e+000	-1.973371e+001	-5.473101e+000	-1.769905e+001	-1.693214e+002
1876600000.000	-2.544491e+001	-1.230291e+002	-1.947775e+001	-5.195187e+001	-1.939465e+001	-5.010746e+001	-1.720765e+001	1.348867e+002
1881500000.000	-2.380540e+001	-1.473549e+002	-1.956964e+001	-9.692171e+001	-1.913638e+001	-9.646357e+001	-1.730501e+001	7.552213e+001
1886400000.000	-2.265549e+001	-1.684271e+002	-1.946668e+001	-1.402321e+002	-1.914959e+001	-1.430971e+002	-1.758042e+001	1.035182e+001
1891300000.000	-2.206337e+001	1.722098e+002	-1.902165e+001	1.748755e+002	-1.926347e+001	1.715433e+002	-1.679132e+001	-5.600092e+001
1896200000.000	-2.208424e+001	1.530434e+002	-1.879520e+001	1.273702e+002	-1.929879e+001	1.273950e+002	-1.557809e+001	-1.177173e+002
1901100000.000	-2.268737e+001	1.358880e+002	-1.897379e+001	8.084156e+001	-1.908994e+001	8.320758e+001	-1.475973e+001	-1.751078e+002
1906000000.000	-2.326161e+001	1.162773e+002	-1.899299e+001	3.717844e+001	-1.874767e+001	3.789916e+001	-1.443619e+001	1.252044e+002
1910900000.000	-2.464714e+001	9.215263e+001	-1.855120e+001	-8.116096e+000	-1.847242e+001	-9.485864e+000	-1.442098e+001	5.895727e+001
1915800000.000	-2.691899e+001	6.365192e+001	-1.837188e+001	-5.661428e+001	-1.854863e+001	-5.725131e+001	-1.426042e+001	-1.013320e+001
1920700000.000	-3.030407e+001	2.726749e+001	-1.869926e+001	-1.037331e+002	-1.881989e+001	-1.031648e+002	-1.383569e+001	-7.622709e+001
1925600000.000	-3.313718e+001	-2.510101e+001	-1.883985e+001	-1.478507e+002	-1.888460e+001	-1.472393e+002	-1.339584e+001	-1.388191e+002
1930500000.000	-3.193198e+001	-8.566548e+001	-1.859403e+001	1.668622e+002	-1.863323e+001	1.680539e+002	-1.300818e+001	1.587312e+002
1935400000.000	-2.874107e+001	-1.273616e+002	-1.855133e+001	1.190530e+002	-1.831522e+001	1.207886e+002	-1.279852e+001	9.353945e+001
1940300000.000	-2.634567e+001	-1.556910e+002	-1.886981e+001	7.278458e+001	-1.839652e+001	7.194514e+001	-1.299649e+001	2.582905e+001
1945200000.000	-2.474314e+001	-1.773405e+002	-1.895085e+001	2.810054e+001	-1.884773e+001	2.471004e+001	-1.340709e+001	-4.132552e+001
1950100000.000	-2.364980e+001	1.642102e+002	-1.890718e+001	-1.806409e+001	-1.928859e+001	-1.982474e+001	-1.353876e+001	-1.056148e+002
1955000000.000	-2.300856e+001	1.464400e+002	-1.912619e+001	-6.505676e+001	-1.939795e+001	-6.346220e+001	-1.333642e+001	-1.671246e+002
1959900000.000	-2.286143e+001	1.290885e+002	-1.953087e+001	-1.101722e+002	-1.933729e+001	-1.086727e+002	-1.332326e+001	1.309432e+002
1964800000.000	-2.293921e+001	1.119633e+002	-1.966723e+001	-1.538270e+002	-1.945820e+001	-1.552304e+002	-1.399850e+001	6.559988e+001
1969700000.000	-2.329317e+001	9.331884e+001	-1.970391e+001	1.609197e+002	-1.986000e+001	1.592185e+002	-1.516316e+001	-3.242011e+000
1974600000.000	-2.383617e+001	7.379086e+001	-1.999474e+001	1.156628e+002	-2.024913e+001	1.159362e+002	-1.609849e+001	-7.147471e+001
1979500000.000	-2.449666e+001	5.144284e+001	-2.029775e+001	7.289898e+001	-2.038990e+001	7.385208e+001	-1.639209e+001	-1.351150e+002
1984400000.000	-2.585563e+001	2.601918e+001	-2.016913e+001	3.124675e+001	-2.018148e+001	3.201016e+001	-1.640194e+001	1.656793e+002
1989300000.000	-2.726967e+001	7.127843e+000	-1.971766e+001	-1.391851e+001	-1.968425e+001	-1.306289e+001	-1.661844e+001	1.028995e+002
1994200000.000	-2.742270e+001	-2.038339e+001	-1.975253e+001	-5.996530e+001	-1.960562e+001	-5.935042e+001	-1.804374e+001	3.707487e+001
1999100000.000	-2.740382e+001	-5.290000e+001	-1.980119e+001	-1.041079e+002	-1.964700e+001	-1.044567e+002	-1.980705e+001	-2.974177e+001
2004000000.000	-2.679457e+001	-8.440607e+001	-1.965421e+001	-1.484147e+002	-1.961630e+001	-1.489609e+002	-2.103865e+001	-9.401958e+001
2008900000.000	-2.549201e+001	-1.106316e+002	-1.949054e+001	1.670726e+002	-1.947259e+001	1.671068e+002	-2.181627e+001	-1.480786e+002
2013800000.000	-2.383964e+001	-1.336983e+002	-1.921410e+001	1.215979e+002	-1.910377e+001	1.217990e+002	-2.213406e+001	1.648126e+002
2018700000.000	-2.259264e+001	-1.543097e+002	-1.910483e+001	7.554348e+001	-1.890520e+001	7.492703e+001	-2.343086e+001	1.183143e+002
2023600000.000	-2.179511e+001	-1.728971e+002	-1.900597e+001	2.990406e+001	-1.887705e+001	2.817889e+001	-2.520608e+001	6.839705e+001
2028500000.000	-2.146588e+001	1.695110e+002	-1.885119e+001	-1.600775e+001	-1.891372e+001	-1.804027e+001	-2.626473e+001	6.311581e+000
2033400000.000	-2.174052e+001	1.526279e+002	-1.874454e+001	-6.262477e+001	-1.897170e+001	-6.379996e+001	-2.490640e+001	-5.827252e+001
2038300000.000	-2.249472e+001	1.371337e+002	-1.876308e+001	-1.094326e+002	-1.896978e+001	-1.093323e+002	-2.258049e+001	-1.158819e+002
2043200000.000	-2.356937e+001	1.232064e+002	-1.887702e+001	-1.554623e+002	-1.894217e+001	-1.548888e+002	-2.114709e+001	-1.691888e+002
2048100000.000	-2.494884e+001	1.107954e+002	-1.887258e+001	1.588774e+002	-1.884068e+001	1.591127e+002	-2.059396e+001	1.354021e+002
2053000000.000	-2.642894e+001	1.011834e+002	-1.885280e+001	1.123323e+002	-1.880139e+001	1.122720e+002	-2.083187e+001	7.382751e+001
2057900000.000	-2.782795e+001	9.504807e+001	-1.898717e+001	6.575047e+001	-1.892191e+001	6.533501e+001	-2.106586e+001	7.412645e+000
2062800000.000	-2.889146e+001	9.275667e+001	-1.917509e+001	2.006466e+001	-1.915295e+001	1.918904e+001	-2.096628e+001	-5.911524e+001
2067700000.000	-2.907198e+001	9.196029e+001	-1.923369e+001	-2.531320e+001	-1.931567e+001	-2.598243e+001	-2.031616e+001	-1.208134e+002
2072600000.000	-2.914432e+001	8.428906e+001	-1.929779e+001	-7.197236e+001	-1.938258e+001	-7.175869e+001	-1.954300e+001	-1.791428e+002
2077500000.000	-3.063911e+001	8.273298e+001	-1.960927e+001	-1.180815e+002	-1.952421e+001	-1.175355e+002	-1.915199e+001	1.240558e+002
2082400000.000	-3.094594e+001	8.764597e+001	-1.988647e+001	-1.629293e+002	-1.968758e+001	-1.635661e+002	-1.927863e+001	6.632705e+001
2087300000.000	-3.061264e+001	9.287914e+001	-2.004606e+001	1.530124e+002	-1.997129e+001	1.510176e+002	-1.952850e+001	6.020958e+000
2092200000.000	-2.918014e+001	8.791151e+001	-2.003624e+001	1.076042e+002	-2.021900e+001	1.058343e+002	-1.922467e+001	-5.790816e+001
2097100000.000	-2.876162e+001	7.768437e+001	-2.027010e+001	6.181401e+001	-2.053463e+001	6.163364e+001	-1.848565e+001	-1.179558e+002
2102000000.000	-2.857705e+001	6.913029e+001	-2.063201e+001	1.763289e+001	-2.075324e+001	1.853834e+001	-1.751935e+001	-1.737696e+002
2106900000.000	-2.736082e+001	5.378769e+001	-2.065313e+001	-2.458683e+001	-2.058996e+001	-2.380827e+001	-1.653399e+001	1.287469e+002
2111800000.000	-2.692107e+001	2.961673e+001	-2.030408e+001	-7.020051e+001	-2.020302e+001	-7.042130e+001	-1.604417e+001	6.047212e+001
2116700000.000	-2.718301e+001	3.211599e+000	-2.050820e+001	-1.169834e+002	-2.051285e+001	-1.176647e+002	-1.626697e+001	-1.039739e+001
2121600000.000	-2.872005e+001	-2.189202e+001	-2.085472e+001	-1.613017e+002	-2.098345e+001	-1.617033e+002	-1.611118e+001	-7.693298e+001
2126500000.000	-2.830064e+001	-2.985604e+001	-2.087857e+001	1.559655e+002	-2.105393e+001	1.568194e+002	-1.565324e+001	-1.390872e+002
2131400000.000	-2.612203e+001	-5.435143e+001	-2.070394e+001	1.114830e+002	-2.068753e+001	1.137919e+002	-1.527842e+001	1.592856e+002
2136300000.000	-2.441452e+001	-8.204864e+001	-2.068501e+001	6.632271e+001	-2.026302e+001	6.792962e+001	-1.532681e+001	9.436131e+001
2141200000.000	-2.281350e+001	-1.084497e+002	-2.064398e+001	2.189017e+001	-2.013721e+001	2.032913e+001	-1.581919e+001	2.529607e+001
2146100000.000	-2.141362e+001	-1.330649e+002	-2.047735e+001	-2.328976e+001	-2.037082e+001	-2.663446e+001	-1.633182e+001	-4.614279e+001
2151000000.000	-2.026201e+001	-1.543440e+002	-2.044226e+001	-6.948662e+001	-2.066937e+001	-7.136857e+001	-1.628244e+001	-1.137734e+002
2155900000.000	-1.921463e+001	-1.747041e+002	-2.054912e+001	-1.147373e+002	-2.068629e+001	-1.147650e+002	-1.592946e+001	-1.766363e+002
2160800000.000	-1.858684e+001	1.653996e+002	-2.052382e+001	-1.593825e+002	-2.043896e+001	-1.595849e+002	-1.599419e+001	1.217185e+002
2165700000.000	-1.834129e+001	1.460821e+002	-2.035338e+001	1.551121e+002	-2.029816e+001	1.535538e+002	-1.660869e+001	5.645141e+001
2170600000.000	-1.848218e+001	1.270503e+002	-2.028900e+001	1.080154e+002	-2.044634e+001	1.062583e+002	-1.745142e+001	-1.746414e+001
2175500000.000	-1.894242e+001	1.089949e+002	-2.052712e+001	6.131512e+001	-2.078024e+001	6.075431e+001	-1.821495e+001	-8.998536e+001
2180400000.000	-1.959122e+001	9.186044e+001	-2.073450e+001	1.607662e+001	-2.091828e+001	1.651991e+001	-1.869031e+001	-1.545624e+002
2185300000.000	-2.042150e+001	7.542639e+001	-2.079683e+001	-2.893956e+001	-2.087451e+001	-2.826292e+001	-1.954396e+001	1.446479e+002
2190200000.000	-2.123166e+001	6.130611e+001	-2.082122e+001	-7.502144e+001	-2.082473e+001	-7.465750e+001	-2.079336e+001	8.304106e+001
2195100000.000	-2.163099e+001	4.554133e+001	-2.109486e+001	-1.216635e+002	-2.109212e+001	-1.217641e+002	-2.247799e+001	1.842001e+001
2200000000.000	-2.254461e+001	2.567835e+001	-2.145487e+001	-1.663134e+002	-2.150523e+001	-1.663198e+002	-2.470719e+001	-4.668055e+001
2204900000.000	-2.421469e+001	3.547401e+000	-2.150937e+001	1.491806e+002	-2.153330e+001	1.496671e+002	-2.742468e+001	-1.185720e+002
2209800000.000	-2.717356e+001	-2.103096e+001	-2.175854e+001	1.028032e+002	-2.165780e+001	1.031152e+002	-3.168001e+001	1.592242e+002
2214700000.000	-3.132762e+001	-5.077030e+001	-2.220788e+001	5.809369e+001	-2.209680e+001	5.760413e+001	-3.957938e+001	7.345218e+001
2219600000.000	-3.603679e+001	-1.042116e+002	-2.254994e+001	1.465786e+001	-2.253938e+001	1.382050e+001	-4.106921e+001	-1.320072e+002
2224500000.000	-3.532973e+001	-1.768794e+002	-2.274392e+001	-2.828294e+001	-2.279675e+001	-2.888548e+001	-3.108319e+001	1.540254e+002
2229400000.000	-3.241783e+001	1.404881e+002	-2.283988e+001	-7.131359e+001	-2.286191e+001	-7.188622e+001	-2.694635e+001	8.935985e+001
2234300000.000	-3.080780e+001	1.184941e+002	-2.284719e+001	-1.151398e+002	-2.289042e+001	-1.159820e+002	-2.441396e+001	1.860402e+001
2239200000.000	-2.858562e+001	1.011912e+002	-2.294835e+001	-1.590053e+002	-2.310331e+001	-1.599962e+002	-2.211350e+001	-5.211126e+001
2244100000.000	-2.687099e+001	7.664480e+001	-2.303821e+001	1.574515e+002	-2.329134e+001	1.573024e+002	-1.997543e+001	-1.162587e+002
2249000000.000	-2.598666e+001	5.044553e+001	-2.306158e+001	1.142202e+002	-2.327567e+001	1.154706e+002	-1.853869e+001	-1.765875e+002
2253900000.000	-2.565785e+001	2.373604e+001	-2.300059e+001	7.097052e+001	-2.298217e+001	7.269299e+001	-1.775140e+001	1.210797e+002
2258800000.000	-2.567939e+001	-3.028444e+000	-2.285815e+001	2.710534e+001	-2.265925e+001	2.770616e+001	-1.738177e+001	5.313850e+001
2263700000.000	-2.562999e+001	-3.014244e+001	-2.280157e+001	-1.761271e+001	-2.269593e+001	-1.834881e+001	-1.703756e+001	-1.718533e+001
2268600000.000	-2.491442e+001	-5.956510e+001	-2.289753e+001	-6.185823e+001	-2.296190e+001	-6.222700e+001	-1.657931e+001	-8.508415e+001
2273500000.000	-2.350458e+001	-9.470592e+001	-2.306273e+001	-1.050617e+002	-2.306664e+001	-1.042114e+002	-1.596225e+001	-1.485816e+002
2278400000.000	-2.221792e+001	-1.307941e+002	-2.310603e+001	-1.464704e+002	-2.287833e+001	-1.456854e+002	-1.504581e+001	1.493142e+002
2283300000.000	-2.113856e+001	-1.627092e+002	-2.278541e+001	1.736051e+002	-2.242472e+001	1.724163e+002	-1.411294e+001	8.334670e+001
2288200000.000	-2.031083e+001	1.690341e+002	-2.182547e+001	1.321418e+002	-2.171049e+001	1.289438e+002	-1.374534e+001	1.177264e+001
2293100000.000	-1.994316e+001	1.436842e+002	-2.077711e+001	8.554906e+001	-2.105441e+001	8.285798e+001	-1.403804e+001	-6.027723e+001
2298000000.000	-1.992964e+001	1.210410e+002	-2.019697e+001	3.703696e+001	-2.057968e+001	3.669963e+001	-1.422089e+001	-1.274073e+002
2302900000.000	-2.011785e+001	1.000492e+002	-1.978411e+001	-1.149161e+001	-1.997908e+001	-1.023216e+001	-1.416350e+001	1.677668e+002
2307800000.000	-2.040314e+001	7.979384e+001	-1.954767e+001	-6.053851e+001	-1.946273e+001	-5.976319e+001	-1.434895e+001	1.008583e+002
2312700000.000	-2.082572e+001	5.952648e+001	-1.951286e+001	-1.096948e+002	-1.942427e+001	-1.105212e+002	-1.498486e+001	3.123189e+001
2317600000.000	-2.147158e+001	3.951098e+001	-1.963794e+001	-1.582204e+002	-1.979286e+001	-1.594752e+002	-1.582504e+001	-3.681037e+001
2322500000.000	-2.244485e+001	1.996256e+001	-1.986295e+001	1.539058e+002	-2.015706e+001	1.540601e+002	-1.651871e+001	-1.003965e+002
2327400000.000	-2.381505e+001	-4.369409e-003	-2.014152e+001	1.066875e+002	-2.029591e+001	1.085369e+002	-1.695890e+001	-1.629212e+002
2332300000.000	-2.579722e+001	-2.213941e+001	-2.044563e+001	6.014336e+001	-2.027417e+001	6.205022e+001	-1.717351e+001	1.329306e+002
2337200000.000	-2.846591e+001	-5.022504e+001	-2.070726e+001	1.402138e+001	-2.036632e+001	1.421561e+001	-1.738377e+001	6.859232e+001
2342100000.000	-3.120438e+001	-9.563245e+001	-2.095985e+001	-3.168429e+001	-2.071547e+001	-3.326735e+001	-1.798587e+001	6.327486e+000
2347000000.000	-3.130367e+001	-1.565284e+002	-2.118903e+001	-7.715402e+001	-2.120121e+001	-7.917231e+001	-1.871849e+001	-5.463265e+001
2351900000.000	-2.929949e+001	1.585523e+002	-2.136505e+001	-1.222021e+002	-2.154522e+001	-1.234186e+002	-1.892215e+001	-1.170490e+002
2356800000.000	-2.776591e+001	1.329304e+002	-2.134808e+001	-1.672847e+002	-2.152789e+001	-1.671887e+002	-1.831218e+001	1.799884e+002
2361700000.000	-2.647196e+001	1.158669e+002	-2.121010e+001	1.452821e+002	-2.119516e+001	1.456965e+002	-1.777597e+001	1.128221e+002
2366600000.000	-2.475770e+001	9.884755e+001	-2.156011e+001	9.566771e+001	-2.148783e+001	9.484102e+001	-1.915270e+001	3.896372e+001
2371500000.000	-2.312177e+001	7.555063e+001	-2.232344e+001	4.871896e+001	-2.247341e+001	4.740676e+001	-2.199366e+001	-3.404535e+001
2376400000.000	-2.208647e+001	4.783572e+001	-2.299252e+001	3.944458e+000	-2.327842e+001	3.627528e+000	-2.446050e+001	-9.713665e+001
2381300000.000	-2.150770e+001	1.958987e+001	-2.357932e+001	-4.011296e+001	-2.381519e+001	-3.911945e+001	-2.662601e+001	-1.416270e+002
2386200000.000	-2.123092e+001	-8.087278e+000	-2.409787e+001	-8.374317e+001	-2.423523e+001	-8.197365e+001	-2.819280e+001	-1.681748e+002
2391100000.000	-2.115474e+001	-3.555391e+001	-2.460144e+001	-1.266379e+002	-2.456211e+001	-1.245724e+002	-2.786447e+001	1.631329e+002
2396000000.000	-2.128031e+001	-6.358174e+001	-2.500831e+001	-1.684481e+002	-2.478916e+001	-1.669085e+002	-2.710055e+001	1.140508e+002
2400900000.000	-2.150312e+001	-9.270376e+001	-2.518692e+001	1.501230e+002	-2.487476e+001	1.502204e+002	-2.562608e+001	5.071529e+001
2405800000.000	-2.154689e+001	-1.224731e+002	-2.525587e+001	1.077723e+002	-2.503678e+001	1.066681e+002	-2.355816e+001	-1.250443e+001
2410700000.000	-2.123052e+001	-1.518909e+002	-2.532603e+001	6.545132e+001	-2.525975e+001	6.400636e+001	-2.204282e+001	-7.116448e+001
2415600000.000	-2.062939e+001	-1.793756e+002	-2.528343e+001	2.326822e+001	-2.531976e+001	2.227690e+001	-2.112963e+001	-1.297873e+002
2420500000.000	-1.994312e+001	1.553967e+002	-2.513377e+001	-1.941173e+001	-2.519111e+001	-1.989630e+001	-2.013885e+001	1.689014e+002
2425400000.000	-1.935572e+001	1.314310e+002	-2.498324e+001	-6.268830e+001	-2.494496e+001	-6.309867e+001	-1.896556e+001	1.062651e+002
2430300000.000	-1.905715e+001	1.077279e+002	-2.481190e+001	-1.065183e+002	-2.473280e+001	-1.075046e+002	-1.817782e+001	4.373203e+001
2435200000.000	-1.900821e+001	8.428710e+001	-2.469048e+001	-1.504389e+002	-2.473400e+001	-1.524689e+002	-1.797541e+001	-1.910842e+001
