!Agilent Technologies,E5061B,MY49305579,A.02.22
!Date: Thu Aug 24 16:27:26 2017
!Data & Calibration Information:
!Freq	S11:SOLT2(ON)	S21:SOLT2(ON)	S12:SOLT2(ON)	S22:SOLT2(ON)
# Hz S dB R 50
1710000000.000	-1.908592e+001	1.560168e+002	-1.829701e+001	1.489174e+002	-1.819040e+001	1.478284e+002	-1.812726e+001	1.093001e+002
1714900000.000	-1.962766e+001	1.372463e+002	-1.762318e+001	1.025621e+002	-1.779163e+001	1.011405e+002	-1.703296e+001	4.122249e+001
1719800000.000	-2.049326e+001	1.173283e+002	-1.736466e+001	5.378070e+001	-1.759015e+001	5.446908e+001	-1.591066e+001	-3.008347e+001
1724700000.000	-2.172671e+001	9.657149e+001	-1.748712e+001	7.717729e+000	-1.742185e+001	8.731429e+000	-1.432277e+001	-9.725362e+001
1729600000.000	-2.360589e+001	7.466960e+001	-1.712432e+001	-3.611298e+001	-1.709786e+001	-3.663363e+001	-1.279653e+001	-1.597839e+002
1734500000.000	-2.633794e+001	5.056768e+001	-1.640161e+001	-8.398922e+001	-1.659412e+001	-8.325191e+001	-1.170259e+001	1.376769e+002
1739400000.000	-3.038592e+001	2.015850e+001	-1.640219e+001	-1.347737e+002	-1.620055e+001	-1.324983e+002	-1.133290e+001	6.968082e+001
1744300000.000	-3.547399e+001	-2.898962e+001	-1.677716e+001	1.794348e+002	-1.628825e+001	1.777974e+002	-1.148156e+001	-3.651239e+000
1749200000.000	-3.604910e+001	-9.634785e+001	-1.639349e+001	1.346051e+002	-1.665255e+001	1.306714e+002	-1.131459e+001	-7.544825e+001
1754100000.000	-3.351861e+001	-1.365270e+002	-1.602801e+001	8.438954e+001	-1.674829e+001	8.571573e+001	-1.069969e+001	-1.417782e+002
1759000000.000	-3.189006e+001	-1.600093e+002	-1.659381e+001	3.455146e+001	-1.645740e+001	3.980311e+001	-1.020115e+001	1.524282e+002
1763900000.000	-3.163794e+001	-1.791119e+002	-1.702875e+001	-8.936561e+000	-1.625056e+001	-9.496609e+000	-1.034724e+001	8.130476e+001
1768800000.000	-3.221012e+001	1.626939e+002	-1.659042e+001	-5.471592e+001	-1.662687e+001	-5.936902e+001	-1.107647e+001	5.682563e+000
1773700000.000	-3.400454e+001	1.420270e+002	-1.670388e+001	-1.058137e+002	-1.730779e+001	-1.058885e+002	-1.170745e+001	-6.727992e+001
1778600000.000	-3.757407e+001	1.148511e+002	-1.764534e+001	-1.527266e+002	-1.772863e+001	-1.495978e+002	-1.209684e+001	-1.345967e+002
1783500000.000	-4.443614e+001	4.799170e+001	-1.801562e+001	1.654140e+002	-1.774256e+001	1.662953e+002	-1.271836e+001	1.594028e+002
1788400000.000	-3.894714e+001	-5.179401e+001	-1.784795e+001	1.205449e+002	-1.776402e+001	1.200309e+002	-1.406297e+001	8.992998e+001
1793300000.000	-3.244545e+001	-8.779209e+001	-1.810493e+001	7.375830e+001	-1.804391e+001	7.387215e+001	-1.610912e+001	1.608943e+001
1798200000.000	-2.854723e+001	-1.128661e+002	-1.848184e+001	2.988199e+001	-1.839436e+001	2.943291e+001	-1.810114e+001	-5.911994e+001
1803100000.000	-2.607690e+001	-1.338613e+002	-1.846317e+001	-1.358602e+001	-1.848681e+001	-1.401002e+001	-1.976924e+001	-1.298394e+002
1808000000.000	-2.449371e+001	-1.523407e+002	-1.845146e+001	-5.899904e+001	-1.843359e+001	-5.859371e+001	-2.251319e+001	1.636234e+002
1812900000.000	-2.352645e+001	-1.692776e+002	-1.858326e+001	-1.036628e+002	-1.843867e+001	-1.039502e+002	-2.954221e+001	9.143700e+001
1817800000.000	-2.339950e+001	1.745065e+002	-1.855009e+001	-1.480314e+002	-1.853011e+001	-1.490751e+002	-3.439100e+001	-8.916668e+001
1822700000.000	-2.358469e+001	1.617633e+002	-1.853642e+001	1.665741e+002	-1.860107e+001	1.663663e+002	-2.565313e+001	-1.746924e+002
1827600000.000	-2.402347e+001	1.487685e+002	-1.863932e+001	1.215794e+002	-1.853026e+001	1.214333e+002	-2.267641e+001	1.121032e+002
1832500000.000	-2.465090e+001	1.351746e+002	-1.857003e+001	7.730995e+001	-1.857082e+001	7.563697e+001	-2.044881e+001	3.485256e+001
1837400000.000	-2.548938e+001	1.195731e+002	-1.840800e+001	3.105706e+001	-1.872390e+001	3.023220e+001	-1.799154e+001	-3.909657e+001
1842300000.000	-2.654537e+001	1.010889e+002	-1.870318e+001	-1.579444e+001	-1.892989e+001	-1.399807e+001	-1.596153e+001	-1.055761e+002
1847200000.000	-2.788853e+001	7.923706e+001	-1.906685e+001	-5.880679e+001	-1.891424e+001	-5.719047e+001	-1.448344e+001	-1.687456e+002
1852100000.000	-2.957957e+001	5.107485e+001	-1.877421e+001	-1.014354e+002	-1.863394e+001	-1.015608e+002	-1.341332e+001	1.262081e+002
1857000000.000	-3.169491e+001	1.300555e+001	-1.847783e+001	-1.484910e+002	-1.847322e+001	-1.482208e+002	-1.281653e+001	5.680037e+001
1861900000.000	-3.290092e+001	-3.942211e+001	-1.887495e+001	1.655595e+002	-1.867575e+001	1.658130e+002	-1.265413e+001	-1.361279e+001
1866800000.000	-3.163054e+001	-9.261384e+001	-1.885059e+001	1.234169e+002	-1.874212e+001	1.216436e+002	-1.211324e+001	-8.063669e+001
1871700000.000	-2.934852e+001	-1.258352e+002	-1.833535e+001	7.883250e+001	-1.869678e+001	7.790750e+001	-1.113632e+001	-1.451960e+002
1876600000.000	-2.714083e+001	-1.481852e+002	-1.810800e+001	2.993121e+001	-1.830383e+001	3.346833e+001	-1.013025e+001	1.510551e+002
1881500000.000	-2.547979e+001	-1.665223e+002	-1.863241e+001	-1.672910e+001	-1.788232e+001	-1.430178e+001	-9.546178e+000	8.315543e+001
1886400000.000	-2.450752e+001	1.768669e+002	-1.866505e+001	-5.865411e+001	-1.804142e+001	-6.382674e+001	-9.597808e+000	1.099000e+001
1891300000.000	-2.415128e+001	1.605293e+002	-1.803363e+001	-1.046226e+002	-1.862819e+001	-1.101952e+002	-9.719543e+000	-5.942293e+001
1896200000.000	-2.455884e+001	1.443114e+002	-1.804357e+001	-1.553955e+002	-1.892893e+001	-1.533954e+002	-9.474551e+000	-1.238925e+002
1901100000.000	-2.559472e+001	1.304761e+002	-1.897110e+001	1.579185e+002	-1.886578e+001	1.629680e+002	-8.993068e+000	1.736513e+002
1906000000.000	-2.659445e+001	1.141378e+002	-1.909086e+001	1.176129e+002	-1.847455e+001	1.173372e+002	-8.762641e+000	1.063221e+002
1910900000.000	-2.870101e+001	9.229781e+001	-1.852998e+001	7.127711e+001	-1.850769e+001	6.794501e+001	-9.136263e+000	3.378234e+001
1915800000.000	-3.258030e+001	6.417199e+001	-1.885599e+001	2.138581e+001	-1.921162e+001	2.086192e+001	-9.814206e+000	-3.692587e+001
1920700000.000	-3.992737e+001	1.342714e+001	-1.964802e+001	-2.295459e+001	-1.978529e+001	-2.183076e+001	-1.023210e+001	-1.017187e+002
1925600000.000	-3.878521e+001	-9.125934e+001	-1.979327e+001	-6.448246e+001	-1.983195e+001	-6.356188e+001	-1.026277e+001	-1.637648e+002
1930500000.000	-3.232575e+001	-1.337536e+002	-1.954475e+001	-1.091142e+002	-1.950425e+001	-1.074164e+002	-1.011633e+001	1.312289e+002
1935400000.000	-2.862345e+001	-1.590980e+002	-1.968581e+001	-1.556623e+002	-1.928050e+001	-1.546078e+002	-1.039394e+001	6.192726e+001
1940300000.000	-2.665680e+001	-1.792792e+002	-2.008865e+001	1.598853e+002	-1.969636e+001	1.573687e+002	-1.133389e+001	-9.260154e+000
1945200000.000	-2.544405e+001	1.641004e+002	-2.014513e+001	1.168324e+002	-2.034132e+001	1.136637e+002	-1.244340e+001	-7.696154e+001
1950100000.000	-2.471168e+001	1.490992e+002	-2.017101e+001	7.187289e+001	-2.058523e+001	7.211478e+001	-1.312588e+001	-1.411007e+002
1955000000.000	-2.430625e+001	1.338963e+002	-2.047994e+001	2.817877e+001	-2.048865e+001	3.015984e+001	-1.381280e+001	1.564184e+002
1959900000.000	-2.442452e+001	1.180108e+002	-2.039318e+001	-1.327308e+001	-2.013726e+001	-1.328416e+001	-1.512221e+001	9.412934e+001
1964800000.000	-2.487850e+001	1.021800e+002	-1.988405e+001	-5.729954e+001	-1.984109e+001	-5.905284e+001	-1.687043e+001	2.899163e+001
1969700000.000	-2.563092e+001	8.525256e+001	-1.965817e+001	-1.047852e+002	-1.987525e+001	-1.054192e+002	-1.861873e+001	-4.273599e+001
1974600000.000	-2.654445e+001	6.795151e+001	-1.982127e+001	-1.509131e+002	-1.995483e+001	-1.501522e+002	-1.994901e+001	-1.136480e+002
1979500000.000	-2.755419e+001	4.758341e+001	-1.988532e+001	1.641783e+002	-1.989525e+001	1.648731e+002	-2.119781e+001	-1.782738e+002
1984400000.000	-2.952560e+001	2.272828e+001	-1.989180e+001	1.187437e+002	-1.986644e+001	1.191280e+002	-2.356623e+001	1.224151e+002
1989300000.000	-3.173993e+001	9.473013e+000	-2.000902e+001	7.288963e+001	-1.995762e+001	7.327143e+001	-2.845101e+001	6.781666e+001
1994200000.000	-3.199970e+001	-1.841165e+001	-2.016851e+001	2.775455e+001	-2.012679e+001	2.806568e+001	-3.966403e+001	4.088513e+001
1999100000.000	-3.216291e+001	-5.355865e+001	-2.036871e+001	-1.725408e+001	-2.027652e+001	-1.686164e+001	-3.559598e+001	8.286136e+001
2004000000.000	-3.093444e+001	-8.701627e+001	-2.059001e+001	-6.138333e+001	-2.041926e+001	-6.142080e+001	-2.973157e+001	1.954590e+001
2008900000.000	-2.890966e+001	-1.130677e+002	-2.068699e+001	-1.047317e+002	-2.055510e+001	-1.058491e+002	-2.504377e+001	-5.291309e+001
2013800000.000	-2.676184e+001	-1.346033e+002	-2.061571e+001	-1.488571e+002	-2.067718e+001	-1.498395e+002	-2.118163e+001	-1.166156e+002
2018700000.000	-2.513491e+001	-1.523118e+002	-2.064893e+001	1.662758e+002	-2.068476e+001	1.666330e+002	-1.879393e+001	-1.753139e+002
2023600000.000	-2.404740e+001	-1.682069e+002	-2.075863e+001	1.222412e+002	-2.054548e+001	1.222992e+002	-1.770485e+001	1.246776e+002
2028500000.000	-2.343973e+001	1.773914e+002	-2.069025e+001	7.887108e+001	-2.049474e+001	7.671776e+001	-1.739348e+001	5.686704e+001
2033400000.000	-2.338766e+001	1.636746e+002	-2.047621e+001	3.403690e+001	-2.066471e+001	3.151391e+001	-1.697279e+001	-1.671538e+001
2038300000.000	-2.371676e+001	1.519031e+002	-2.047894e+001	-1.179515e+001	-2.083050e+001	-1.206380e+001	-1.593954e+001	-8.594795e+001
2043200000.000	-2.408109e+001	1.413021e+002	-2.066171e+001	-5.609090e+001	-2.079135e+001	-5.481773e+001	-1.487695e+001	-1.487730e+002
2048100000.000	-2.450954e+001	1.308269e+002	-2.053006e+001	-9.912146e+001	-2.043115e+001	-9.833060e+001	-1.409174e+001	1.494548e+002
2053000000.000	-2.483102e+001	1.207807e+002	-2.019179e+001	-1.443870e+002	-2.004335e+001	-1.445142e+002	-1.375144e+001	8.332463e+001
2057900000.000	-2.504579e+001	1.105016e+002	-2.015395e+001	1.691044e+002	-2.000960e+001	1.681838e+002	-1.376037e+001	1.412672e+001
2062800000.000	-2.522655e+001	1.001435e+002	-2.025781e+001	1.240909e+002	-2.026004e+001	1.223473e+002	-1.381954e+001	-5.442284e+001
2067700000.000	-2.526911e+001	8.910969e+001	-2.012438e+001	7.966028e+001	-2.038717e+001	7.851402e+001	-1.353104e+001	-1.193285e+002
2072600000.000	-2.568182e+001	7.394259e+001	-1.996302e+001	3.356894e+001	-2.021046e+001	3.482138e+001	-1.287907e+001	1.775246e+002
2077500000.000	-2.737224e+001	6.202542e+001	-2.001947e+001	-1.262535e+001	-1.980668e+001	-1.065868e+001	-1.234885e+001	1.131254e+002
2082400000.000	-2.921576e+001	5.486921e+001	-2.004930e+001	-5.773191e+001	-1.962577e+001	-5.899830e+001	-1.238947e+001	4.583827e+001
2087300000.000	-3.193816e+001	5.367324e+001	-1.995238e+001	-1.035579e+002	-1.994262e+001	-1.070678e+002	-1.295971e+001	-2.245310e+001
2092200000.000	-3.318140e+001	6.018413e+001	-1.996541e+001	-1.504653e+002	-2.037083e+001	-1.520032e+002	-1.327020e+001	-8.858820e+001
2097100000.000	-3.401375e+001	6.383435e+001	-2.019142e+001	1.629764e+002	-2.048412e+001	1.643144e+002	-1.312347e+001	-1.514167e+002
2102000000.000	-3.387023e+001	7.318021e+001	-2.042936e+001	1.181103e+002	-2.033875e+001	1.196514e+002	-1.288591e+001	1.456261e+002
2106900000.000	-3.136423e+001	6.510338e+001	-2.033891e+001	7.248127e+001	-2.013861e+001	7.217187e+001	-1.316736e+001	7.803992e+001
2111800000.000	-3.016120e+001	4.457646e+001	-2.048272e+001	2.452281e+001	-2.046027e+001	2.313044e+001	-1.394057e+001	6.583718e+000
2116700000.000	-2.978367e+001	1.888289e+001	-2.115390e+001	-2.268509e+001	-2.131886e+001	-2.351654e+001	-1.457138e+001	-6.371328e+001
2121600000.000	-3.141764e+001	-6.326734e+000	-2.200295e+001	-6.388978e+001	-2.221661e+001	-6.339464e+001	-1.515071e+001	-1.300605e+002
2126500000.000	-3.040002e+001	-1.067457e+001	-2.139905e+001	-1.056587e+002	-2.147882e+001	-1.039588e+002	-1.582389e+001	1.674347e+002
2131400000.000	-2.765826e+001	-3.898546e+001	-2.141068e+001	-1.539390e+002	-2.119346e+001	-1.522226e+002	-1.698895e+001	1.018796e+002
2136300000.000	-2.566615e+001	-7.014868e+001	-2.184013e+001	1.597840e+002	-2.147388e+001	1.597810e+002	-1.886066e+001	3.340647e+001
2141200000.000	-2.377052e+001	-9.925466e+001	-2.227197e+001	1.147176e+002	-2.205623e+001	1.132616e+002	-2.063875e+001	-3.766096e+001
2146100000.000	-2.212943e+001	-1.255710e+002	-2.274746e+001	7.043794e+001	-2.270381e+001	6.896686e+001	-2.154764e+001	-1.067500e+002
2151000000.000	-2.072674e+001	-1.479264e+002	-2.322533e+001	2.701150e+001	-2.320473e+001	2.607955e+001	-2.195540e+001	-1.684876e+002
2155900000.000	-1.951705e+001	-1.689561e+002	-2.360860e+001	-1.521799e+001	-2.356860e+001	-1.632266e+001	-2.321851e+001	1.357697e+002
2160800000.000	-1.875864e+001	1.708640e+002	-2.384184e+001	-5.722914e+001	-2.387368e+001	-5.869564e+001	-2.629829e+001	8.245573e+001
2165700000.000	-1.841867e+001	1.514120e+002	-2.402239e+001	-9.912015e+001	-2.414542e+001	-1.002645e+002	-3.207301e+001	2.215623e+001
2170600000.000	-1.846279e+001	1.325629e+002	-2.402686e+001	-1.408918e+002	-2.417122e+001	-1.414631e+002	-3.868654e+001	-6.255772e+001
2175500000.000	-1.879116e+001	1.146530e+002	-2.397729e+001	1.763724e+002	-2.408209e+001	1.759953e+002	-4.084175e+001	-1.380168e+002
2180400000.000	-1.929904e+001	9.747052e+001	-2.397357e+001	1.335967e+002	-2.407541e+001	1.332588e+002	-4.252056e+001	-1.005013e+002
2185300000.000	-1.995585e+001	8.098665e+001	-2.402540e+001	9.123675e+001	-2.414872e+001	9.101049e+001	-3.201652e+001	-1.221372e+002
2190200000.000	-2.055596e+001	6.619671e+001	-2.388993e+001	5.015573e+001	-2.402170e+001	5.040470e+001	-2.679423e+001	-1.726628e+002
2195100000.000	-2.089151e+001	4.972695e+001	-2.337438e+001	7.551348e+000	-2.343984e+001	8.314775e+000	-2.386526e+001	1.277106e+002
2200000000.000	-2.165977e+001	3.039909e+001	-2.307574e+001	-3.700022e+001	-2.299740e+001	-3.638540e+001	-2.205007e+001	6.556830e+001
2204900000.000	-2.300896e+001	8.603956e+000	-2.283530e+001	-8.155677e+001	-2.271358e+001	-8.175998e+001	-2.102985e+001	2.381807e+000
2209800000.000	-2.559427e+001	-1.502004e+001	-2.271687e+001	-1.260785e+002	-2.270143e+001	-1.269100e+002	-2.055339e+001	-6.267023e+001
2214700000.000	-2.905926e+001	-3.948223e+001	-2.258978e+001	-1.700251e+002	-2.266340e+001	-1.702539e+002	-2.001372e+001	-1.289974e+002
2219600000.000	-3.331635e+001	-7.436211e+001	-2.243076e+001	1.461656e+002	-2.242906e+001	1.465849e+002	-1.908290e+001	1.657035e+002
2224500000.000	-3.663291e+001	-1.318302e+002	-2.221410e+001	1.026004e+002	-2.208702e+001	1.024284e+002	-1.822386e+001	1.008281e+002
2229400000.000	-3.586702e+001	1.750352e+002	-2.196754e+001	5.941917e+001	-2.187540e+001	5.804679e+001	-1.777442e+001	3.539879e+001
2234300000.000	-3.336106e+001	1.524918e+002	-2.130400e+001	1.635798e+001	-2.142751e+001	1.451715e+001	-1.725419e+001	-3.275154e+001
2239200000.000	-2.963838e+001	1.300238e+002	-2.058885e+001	-3.083827e+001	-2.088037e+001	-3.150395e+001	-1.693143e+001	-9.987142e+001
2244100000.000	-2.743593e+001	1.011549e+002	-2.028414e+001	-7.885376e+001	-2.052891e+001	-7.801045e+001	-1.680337e+001	-1.613115e+002
2249000000.000	-2.626310e+001	7.315362e+001	-2.012661e+001	-1.266100e+002	-2.017605e+001	-1.251739e+002	-1.702391e+001	1.379283e+002
2253900000.000	-2.574162e+001	4.585474e+001	-2.010013e+001	-1.739641e+002	-1.998947e+001	-1.733524e+002	-1.769751e+001	7.424554e+001
2258800000.000	-2.551857e+001	1.910888e+001	-2.013874e+001	1.389903e+002	-2.006757e+001	1.385005e+002	-1.832622e+001	7.518391e+000
2263700000.000	-2.528169e+001	-8.751077e+000	-2.024170e+001	9.231315e+001	-2.031512e+001	9.192091e+001	-1.853479e+001	-5.785813e+001
2268600000.000	-2.467923e+001	-4.014671e+001	-2.039171e+001	4.648584e+001	-2.048814e+001	4.714347e+001	-1.833139e+001	-1.193098e+002
2273500000.000	-2.368641e+001	-7.743184e+001	-2.044457e+001	1.094823e+000	-2.034135e+001	2.364358e+000	-1.791680e+001	-1.781513e+002
2278400000.000	-2.269425e+001	-1.150462e+002	-2.042400e+001	-4.448257e+001	-2.010005e+001	-4.423357e+001	-1.743887e+001	1.223221e+002
2283300000.000	-2.164345e+001	-1.481308e+002	-2.034057e+001	-9.068016e+001	-2.002968e+001	-9.243801e+001	-1.721723e+001	5.943238e+001
2288200000.000	-2.068906e+001	-1.770186e+002	-2.036997e+001	-1.382013e+002	-2.032470e+001	-1.410706e+002	-1.736133e+001	-7.029102e+000
2293100000.000	-2.009263e+001	1.573584e+002	-2.073938e+001	1.746747e+002	-2.097347e+001	1.726483e+002	-1.754902e+001	-7.362339e+001
2298000000.000	-1.979001e+001	1.345285e+002	-2.112096e+001	1.302299e+002	-2.140213e+001	1.298690e+002	-1.724999e+001	-1.366330e+002
2302900000.000	-1.959337e+001	1.131071e+002	-2.111361e+001	8.626549e+001	-2.124743e+001	8.696837e+001	-1.677240e+001	1.596798e+002
2307800000.000	-1.947505e+001	9.152409e+001	-2.102523e+001	3.993042e+001	-2.097967e+001	4.003958e+001	-1.713760e+001	9.212821e+001
2312700000.000	-1.956908e+001	6.937603e+001	-2.124664e+001	-7.054582e+000	-2.125265e+001	-7.995283e+000	-1.819695e+001	2.421025e+001
2317600000.000	-1.994633e+001	4.751620e+001	-2.159074e+001	-5.290406e+001	-2.176846e+001	-5.380960e+001	-1.906523e+001	-4.035222e+001
2322500000.000	-2.065638e+001	2.620640e+001	-2.192465e+001	-9.765790e+001	-2.219591e+001	-9.729888e+001	-1.951147e+001	-1.015935e+002
2327400000.000	-2.176226e+001	4.762769e+000	-2.213286e+001	-1.418665e+002	-2.227208e+001	-1.402376e+002	-1.971942e+001	-1.628020e+002
2332300000.000	-2.329677e+001	-1.813535e+001	-2.226946e+001	1.735056e+002	-2.213378e+001	1.752558e+002	-1.969091e+001	1.336908e+002
2337200000.000	-2.534783e+001	-4.544798e+001	-2.238025e+001	1.287302e+002	-2.206733e+001	1.290607e+002	-1.954868e+001	6.864947e+001
2342100000.000	-2.755364e+001	-8.371920e+001	-2.250519e+001	8.324536e+001	-2.227367e+001	8.189184e+001	-2.011632e+001	3.951217e+000
2347000000.000	-2.873010e+001	-1.345515e+002	-2.277237e+001	3.789970e+001	-2.274728e+001	3.615479e+001	-2.140872e+001	-5.955678e+001
2351900000.000	-2.797957e+001	1.792291e+002	-2.305153e+001	-6.988591e+000	-2.315666e+001	-8.070847e+000	-2.257763e+001	-1.231193e+002
2356800000.000	-2.671158e+001	1.487001e+002	-2.335324e+001	-5.150821e+001	-2.346369e+001	-5.199908e+001	-2.319304e+001	1.770121e+002
2361700000.000	-2.537374e+001	1.271642e+002	-2.367754e+001	-9.594114e+001	-2.372917e+001	-9.609003e+001	-2.381437e+001	1.222190e+002
2366600000.000	-2.386624e+001	1.059952e+002	-2.406254e+001	-1.394359e+002	-2.409587e+001	-1.399577e+002	-2.529255e+001	6.851890e+001
2371500000.000	-2.253060e+001	8.106213e+001	-2.434038e+001	1.783408e+002	-2.443757e+001	1.776175e+002	-2.701646e+001	1.205759e+001
2376400000.000	-2.166604e+001	5.285467e+001	-2.429486e+001	1.361079e+002	-2.448697e+001	1.355291e+002	-2.697539e+001	-4.521391e+001
2381300000.000	-2.120040e+001	2.431225e+001	-2.421437e+001	9.200420e+001	-2.447601e+001	9.224635e+001	-2.555357e+001	-9.608516e+001
2386200000.000	-2.098571e+001	-3.525895e+000	-2.426348e+001	4.725941e+001	-2.448269e+001	4.886419e+001	-2.413852e+001	-1.406014e+002
2391100000.000	-2.095237e+001	-3.078622e+001	-2.438870e+001	2.701054e+000	-2.438900e+001	5.092821e+000	-2.352001e+001	1.710197e+002
2396000000.000	-2.112664e+001	-5.829010e+001	-2.460346e+001	-4.168139e+001	-2.436758e+001	-3.994501e+001	-2.352529e+001	1.155897e+002
2400900000.000	-2.143553e+001	-8.665610e+001	-2.485678e+001	-8.522465e+001	-2.451539e+001	-8.501520e+001	-2.281470e+001	5.160016e+001
2405800000.000	-2.160065e+001	-1.160068e+002	-2.510877e+001	-1.282368e+002	-2.487683e+001	-1.293911e+002	-2.155547e+001	-1.201226e+001
2410700000.000	-2.145750e+001	-1.453346e+002	-2.526264e+001	-1.700423e+002	-2.521946e+001	-1.714757e+002	-2.041843e+001	-7.232875e+001
2415600000.000	-2.093209e+001	-1.727684e+002	-2.524011e+001	1.482743e+002	-2.528433e+001	1.473589e+002	-1.976390e+001	-1.331507e+002
2420500000.000	-2.024921e+001	1.621239e+002	-2.499810e+001	1.062077e+002	-2.503664e+001	1.058636e+002	-1.904547e+001	1.644756e+002
2425400000.000	-1.957588e+001	1.384565e+002	-2.469050e+001	6.246724e+001	-2.462384e+001	6.218219e+001	-1.813475e+001	1.014081e+002
2430300000.000	-1.913689e+001	1.150855e+002	-2.451683e+001	1.772932e+001	-2.441343e+001	1.662049e+001	-1.765117e+001	3.905147e+001
2435200000.000	-1.891728e+001	9.192855e+001	-2.450807e+001	-2.655083e+001	-2.455064e+001	-2.887402e+001	-1.777862e+001	-2.273571e+001
