!Agilent Technologies,E5061B,MY49305579,A.02.22
!Date: Thu Aug 24 16:27:44 2017
!Data & Calibration Information:
!Freq	S11:SOLT2(ON)	S21:SOLT2(ON)	S12:SOLT2(ON)	S22:SOLT2(ON)
# Hz S dB R 50
1710000000.000	-2.087432e+001	1.577120e+002	-1.558822e+001	1.178519e+002	-1.584316e+001	1.183478e+002	-1.994921e+001	-9.680155e+001
1714900000.000	-2.156596e+001	1.423146e+002	-1.575067e+001	7.400979e+001	-1.571701e+001	7.463011e+001	-2.061381e+001	1.777314e+002
1719800000.000	-2.242956e+001	1.265856e+002	-1.545791e+001	2.947288e+001	-1.547472e+001	2.925729e+001	-2.168925e+001	8.863194e+001
1724700000.000	-2.349598e+001	1.108685e+002	-1.538819e+001	-1.752122e+001	-1.540811e+001	-1.702566e+001	-2.117638e+001	-1.221266e+001
1729600000.000	-2.512400e+001	9.481166e+001	-1.556687e+001	-6.210302e+001	-1.548157e+001	-6.220804e+001	-1.814744e+001	-9.875283e+001
1734500000.000	-2.753076e+001	8.015238e+001	-1.524562e+001	-1.058298e+002	-1.535701e+001	-1.064651e+002	-1.556222e+001	-1.678404e+002
1739400000.000	-3.091603e+001	6.776579e+001	-1.488029e+001	-1.533803e+002	-1.501315e+001	-1.518660e+002	-1.405413e+001	1.262085e+002
1744300000.000	-3.539955e+001	6.009888e+001	-1.511361e+001	1.593452e+002	-1.475411e+001	1.605720e+002	-1.349836e+001	5.479647e+001
1749200000.000	-4.191229e+001	5.261199e+001	-1.514961e+001	1.160864e+002	-1.488151e+001	1.128749e+002	-1.304873e+001	-2.082230e+001
1754100000.000	-5.823712e+001	3.379515e+001	-1.454243e+001	7.008596e+001	-1.511437e+001	6.759047e+001	-1.203893e+001	-9.239913e+001
1759000000.000	-4.677931e+001	-1.154112e+002	-1.449547e+001	1.938320e+001	-1.503634e+001	2.331454e+001	-1.089571e+001	-1.581899e+002
1763900000.000	-4.034195e+001	-1.251032e+002	-1.519526e+001	-2.683762e+001	-1.466120e+001	-2.252327e+001	-9.996457e+000	1.355882e+002
1768800000.000	-3.703015e+001	-1.363009e+002	-1.511031e+001	-6.891092e+001	-1.444772e+001	-7.188126e+001	-9.594357e+000	6.285453e+001
1773700000.000	-3.620371e+001	-1.489558e+002	-1.454933e+001	-1.171219e+002	-1.492476e+001	-1.210625e+002	-9.616310e+000	-1.246547e+001
1778600000.000	-3.646139e+001	-1.562115e+002	-1.506580e+001	-1.679276e+002	-1.559480e+001	-1.660457e+002	-9.537400e+000	-8.292807e+001
1783500000.000	-3.794953e+001	-1.535026e+002	-1.596596e+001	1.487823e+002	-1.581872e+001	1.515615e+002	-9.174901e+000	-1.487745e+002
1788400000.000	-3.692396e+001	-1.351555e+002	-1.577565e+001	1.075659e+002	-1.553988e+001	1.075130e+002	-8.747180e+000	1.440239e+002
1793300000.000	-3.342018e+001	-1.293508e+002	-1.542309e+001	5.946595e+001	-1.537336e+001	5.965897e+001	-8.822976e+000	7.113721e+001
1798200000.000	-3.006408e+001	-1.361802e+002	-1.615585e+001	1.194345e+001	-1.588047e+001	1.185448e+001	-9.662143e+000	-4.115262e+000
1803100000.000	-2.769316e+001	-1.474279e+002	-1.663358e+001	-2.892618e+001	-1.656540e+001	-3.146043e+001	-1.055806e+001	-7.561623e+001
1808000000.000	-2.591068e+001	-1.601494e+002	-1.631814e+001	-7.147613e+001	-1.671900e+001	-7.211403e+001	-1.115829e+001	-1.427138e+002
1812900000.000	-2.476729e+001	-1.743233e+002	-1.626025e+001	-1.174135e+002	-1.633395e+001	-1.144955e+002	-1.194779e+001	1.506692e+002
1817800000.000	-2.455706e+001	1.708571e+002	-1.642828e+001	-1.608282e+002	-1.592870e+001	-1.602858e+002	-1.363492e+001	8.068331e+001
1822700000.000	-2.479811e+001	1.598022e+002	-1.615323e+001	1.563864e+002	-1.598182e+001	1.532195e+002	-1.621398e+001	6.623981e+000
1827600000.000	-2.520713e+001	1.480021e+002	-1.576173e+001	1.104406e+002	-1.607143e+001	1.088183e+002	-1.884129e+001	-6.580651e+001
1832500000.000	-2.602484e+001	1.349008e+002	-1.573813e+001	6.403329e+001	-1.595160e+001	6.466313e+001	-2.207201e+001	-1.308372e+002
1837400000.000	-2.714603e+001	1.206338e+002	-1.569946e+001	1.900829e+001	-1.574556e+001	1.958884e+001	-2.834599e+001	1.797662e+002
1842300000.000	-2.879836e+001	1.039981e+002	-1.555197e+001	-2.675799e+001	-1.559577e+001	-2.620668e+001	-3.437731e+001	-1.419741e+002
1847200000.000	-3.094386e+001	8.709905e+001	-1.556091e+001	-7.271480e+001	-1.552195e+001	-7.198782e+001	-2.539376e+001	-1.643888e+002
1852100000.000	-3.381226e+001	6.449315e+001	-1.549975e+001	-1.178802e+002	-1.542063e+001	-1.176499e+002	-2.149376e+001	1.377203e+002
1857000000.000	-3.838184e+001	3.076843e+001	-1.535311e+001	-1.643742e+002	-1.532564e+001	-1.641198e+002	-1.926170e+001	7.137264e+001
1861900000.000	-4.198090e+001	-5.022543e+001	-1.556834e+001	1.489466e+002	-1.543660e+001	1.492697e+002	-1.757522e+001	-7.903218e-002
1866800000.000	-3.653670e+001	-1.214653e+002	-1.568214e+001	1.054428e+002	-1.555715e+001	1.042528e+002	-1.573890e+001	-7.149952e+001
1871700000.000	-3.302447e+001	-1.456397e+002	-1.529611e+001	6.049039e+001	-1.552831e+001	5.953500e+001	-1.399054e+001	-1.386047e+002
1876600000.000	-3.033130e+001	-1.584130e+002	-1.510325e+001	1.188644e+001	-1.529224e+001	1.428562e+001	-1.257413e+001	1.572616e+002
1881500000.000	-2.833732e+001	-1.699127e+002	-1.554429e+001	-3.559770e+001	-1.501382e+001	-3.337681e+001	-1.173962e+001	9.003284e+001
1886400000.000	-2.702042e+001	1.790698e+002	-1.570827e+001	-7.890002e+001	-1.515737e+001	-8.273898e+001	-1.149020e+001	1.744619e+001
1891300000.000	-2.617961e+001	1.671590e+002	-1.533568e+001	-1.252370e+002	-1.577334e+001	-1.300899e+002	-1.130225e+001	-5.482225e+001
1896200000.000	-2.603086e+001	1.531573e+002	-1.558318e+001	-1.751530e+002	-1.634207e+001	-1.737303e+002	-1.081792e+001	-1.210384e+002
1901100000.000	-2.693094e+001	1.409444e+002	-1.638931e+001	1.400455e+002	-1.632472e+001	1.443730e+002	-1.036380e+001	1.759138e+002
1906000000.000	-2.759829e+001	1.292094e+002	-1.643310e+001	9.811491e+001	-1.589796e+001	9.799405e+001	-1.015259e+001	1.091122e+002
1910900000.000	-2.932302e+001	1.110799e+002	-1.607524e+001	5.179990e+001	-1.605771e+001	4.896949e+001	-1.054970e+001	3.641608e+001
1915800000.000	-3.312600e+001	9.240717e+001	-1.640352e+001	2.750959e+000	-1.669941e+001	2.199012e+000	-1.121836e+001	-3.466770e+001
1920700000.000	-4.162438e+001	8.221175e+001	-1.719149e+001	-4.216002e+001	-1.731493e+001	-4.122873e+001	-1.158739e+001	-9.962033e+001
1925600000.000	-4.434362e+001	-1.485161e+002	-1.745039e+001	-8.354221e+001	-1.748494e+001	-8.279752e+001	-1.164328e+001	-1.618685e+002
1930500000.000	-3.429412e+001	-1.551928e+002	-1.724462e+001	-1.280357e+002	-1.721941e+001	-1.267017e+002	-1.167343e+001	1.335927e+002
1935400000.000	-3.002547e+001	-1.707419e+002	-1.749568e+001	-1.746280e+002	-1.717459e+001	-1.736896e+002	-1.212522e+001	6.551341e+001
1940300000.000	-2.775611e+001	1.728402e+002	-1.795725e+001	1.419985e+002	-1.761173e+001	1.400196e+002	-1.313681e+001	-4.082360e+000
1945200000.000	-2.651897e+001	1.575475e+002	-1.797501e+001	9.936397e+001	-1.809900e+001	9.654023e+001	-1.424136e+001	-7.100979e+001
1950100000.000	-2.596867e+001	1.438807e+002	-1.794860e+001	5.469027e+001	-1.830027e+001	5.455847e+001	-1.492341e+001	-1.345925e+002
1955000000.000	-2.578222e+001	1.310081e+002	-1.817402e+001	1.021184e+001	-1.823835e+001	1.182394e+001	-1.561666e+001	1.644687e+002
1959900000.000	-2.598837e+001	1.175997e+002	-1.831387e+001	-3.222249e+001	-1.811509e+001	-3.201228e+001	-1.706811e+001	1.034285e+002
1964800000.000	-2.653754e+001	1.042408e+002	-1.808298e+001	-7.542672e+001	-1.804202e+001	-7.656230e+001	-1.973908e+001	4.099655e+001
1969700000.000	-2.738270e+001	9.083017e+001	-1.794804e+001	-1.206291e+002	-1.807065e+001	-1.212118e+002	-2.292987e+001	-2.433397e+001
1974600000.000	-2.824334e+001	7.695531e+001	-1.794844e+001	-1.652419e+002	-1.805409e+001	-1.650166e+002	-2.560524e+001	-8.688063e+001
1979500000.000	-2.922588e+001	5.997519e+001	-1.789200e+001	1.500831e+002	-1.793420e+001	1.505116e+002	-2.688219e+001	-1.352558e+002
1984400000.000	-3.134909e+001	3.943185e+001	-1.791408e+001	1.052849e+002	-1.791908e+001	1.056846e+002	-2.672639e+001	-1.667859e+002
1989300000.000	-3.304222e+001	3.495981e+001	-1.778601e+001	6.129692e+001	-1.778421e+001	6.170200e+001	-2.431236e+001	1.594220e+002
1994200000.000	-3.316578e+001	8.721476e+000	-1.763264e+001	1.574592e+001	-1.760156e+001	1.648704e+001	-2.203688e+001	1.119962e+002
1999100000.000	-3.373142e+001	-2.598314e+001	-1.761912e+001	-3.003359e+001	-1.744477e+001	-2.944789e+001	-2.035525e+001	5.317780e+001
2004000000.000	-3.266185e+001	-6.388333e+001	-1.765624e+001	-7.513458e+001	-1.743679e+001	-7.607299e+001	-1.904251e+001	-1.389711e+001
2008900000.000	-3.009003e+001	-9.515804e+001	-1.757380e+001	-1.202932e+002	-1.760036e+001	-1.219709e+002	-1.752156e+001	-8.083907e+001
2013800000.000	-2.733234e+001	-1.203779e+002	-1.752850e+001	-1.668844e+002	-1.773463e+001	-1.667553e+002	-1.598810e+001	-1.427962e+002
2018700000.000	-2.527389e+001	-1.406115e+002	-1.779518e+001	1.466524e+002	-1.769031e+001	1.483319e+002	-1.489089e+001	1.570110e+002
2023600000.000	-2.381019e+001	-1.579932e+002	-1.805761e+001	1.028191e+002	-1.760905e+001	1.022666e+002	-1.446256e+001	9.288514e+001
2028500000.000	-2.284775e+001	-1.741905e+002	-1.790953e+001	5.828833e+001	-1.776802e+001	5.465231e+001	-1.442410e+001	2.144068e+001
2033400000.000	-2.252259e+001	1.702840e+002	-1.792307e+001	1.133769e+001	-1.832278e+001	8.945998e+000	-1.421611e+001	-5.077231e+001
2038300000.000	-2.263936e+001	1.560788e+002	-1.835828e+001	-3.472591e+001	-1.871296e+001	-3.387333e+001	-1.362339e+001	-1.172658e+002
2043200000.000	-2.294266e+001	1.429550e+002	-1.871311e+001	-7.786238e+001	-1.869014e+001	-7.629684e+001	-1.308479e+001	1.797066e+002
2048100000.000	-2.336935e+001	1.302287e+002	-1.863479e+001	-1.209629e+002	-1.846156e+001	-1.207717e+002	-1.294846e+001	1.144289e+002
2053000000.000	-2.380570e+001	1.179925e+002	-1.853680e+001	-1.667596e+002	-1.841582e+001	-1.675134e+002	-1.337954e+001	4.488610e+001
2057900000.000	-2.424465e+001	1.056746e+002	-1.881518e+001	1.477107e+002	-1.876789e+001	1.464221e+002	-1.397545e+001	-2.478942e+001
2062800000.000	-2.477549e+001	9.446339e+001	-1.905895e+001	1.044624e+002	-1.918655e+001	1.030067e+002	-1.430416e+001	-9.239546e+001
2067700000.000	-2.510601e+001	8.362194e+001	-1.896618e+001	6.131420e+001	-1.920900e+001	6.133641e+001	-1.433500e+001	-1.562400e+002
2072600000.000	-2.562544e+001	6.869846e+001	-1.875459e+001	1.593357e+001	-1.878074e+001	1.749940e+001	-1.424975e+001	1.399311e+002
2077500000.000	-2.757937e+001	5.589560e+001	-1.889677e+001	-3.005658e+001	-1.859930e+001	-2.971600e+001	-1.481437e+001	7.422679e+001
2082400000.000	-2.983515e+001	4.978054e+001	-1.905008e+001	-7.459252e+001	-1.885496e+001	-7.664032e+001	-1.604994e+001	7.086303e+000
2087300000.000	-3.269913e+001	5.040335e+001	-1.909390e+001	-1.192710e+002	-1.924690e+001	-1.213580e+002	-1.735441e+001	-6.056152e+001
2092200000.000	-3.387875e+001	5.826710e+001	-1.918623e+001	-1.644184e+002	-1.943498e+001	-1.646712e+002	-1.808247e+001	-1.252245e+002
2097100000.000	-3.490539e+001	6.031453e+001	-1.935486e+001	1.508529e+002	-1.942524e+001	1.515199e+002	-1.880436e+001	1.733468e+002
2102000000.000	-3.545913e+001	7.172155e+001	-1.950831e+001	1.068127e+002	-1.945692e+001	1.068639e+002	-2.037226e+001	1.128749e+002
2106900000.000	-3.290018e+001	6.743600e+001	-1.948767e+001	6.227807e+001	-1.947536e+001	6.170653e+001	-2.325533e+001	4.759248e+001
2111800000.000	-3.179411e+001	4.830323e+001	-1.963336e+001	1.692964e+001	-1.970567e+001	1.660729e+001	-2.677102e+001	-2.397028e+001
2116700000.000	-3.161825e+001	2.365937e+001	-1.996213e+001	-2.754684e+001	-2.003777e+001	-2.744698e+001	-2.996098e+001	-9.022252e+001
2121600000.000	-3.410612e+001	3.483681e+000	-2.022816e+001	-6.881350e+001	-2.025778e+001	-6.846288e+001	-3.346830e+001	-1.178868e+002
2126500000.000	-3.138520e+001	6.061451e+000	-1.969529e+001	-1.120966e+002	-1.971399e+001	-1.117511e+002	-3.031881e+001	-1.327531e+002
2131400000.000	-2.824145e+001	-2.730103e+001	-1.964655e+001	-1.585368e+002	-1.962612e+001	-1.577231e+002	-2.750382e+001	-1.684858e+002
2136300000.000	-2.626476e+001	-6.082528e+001	-1.977309e+001	1.562466e+002	-1.962658e+001	1.572566e+002	-2.529703e+001	1.463609e+002
2141200000.000	-2.427237e+001	-9.120544e+001	-1.992524e+001	1.118452e+002	-1.959918e+001	1.120175e+002	-2.403374e+001	8.901862e+001
2146100000.000	-2.246757e+001	-1.184184e+002	-1.997652e+001	6.790305e+001	-1.967308e+001	6.623835e+001	-2.354864e+001	2.105432e+001
2151000000.000	-2.092174e+001	-1.416155e+002	-2.000406e+001	2.370601e+001	-1.996225e+001	2.108106e+001	-2.228398e+001	-5.254150e+001
2155900000.000	-1.957485e+001	-1.631308e+002	-2.001161e+001	-2.055551e+001	-2.019924e+001	-2.216362e+001	-2.019731e+001	-1.202152e+002
2160800000.000	-1.868023e+001	1.763970e+002	-2.005227e+001	-6.459525e+001	-2.019751e+001	-6.477207e+001	-1.840001e+001	1.792576e+002
2165700000.000	-1.815490e+001	1.566992e+002	-1.995423e+001	-1.082372e+002	-1.991781e+001	-1.083912e+002	-1.736151e+001	1.183327e+002
2170600000.000	-1.802171e+001	1.372134e+002	-1.968192e+001	-1.531754e+002	-1.964497e+001	-1.544319e+002	-1.708543e+001	5.074477e+001
2175500000.000	-1.819986e+001	1.184685e+002	-1.964016e+001	1.601195e+002	-1.977473e+001	1.585052e+002	-1.697504e+001	-2.275877e+001
2180400000.000	-1.857834e+001	1.003816e+002	-1.983492e+001	1.144026e+002	-2.010388e+001	1.137110e+002	-1.643529e+001	-9.284980e+001
2185300000.000	-1.908651e+001	8.286528e+001	-1.995792e+001	6.984740e+001	-2.021099e+001	7.037134e+001	-1.569387e+001	-1.585553e+002
2190200000.000	-1.957635e+001	6.651290e+001	-2.000713e+001	2.478403e+001	-2.008369e+001	2.604036e+001	-1.522897e+001	1.362886e+002
2195100000.000	-1.990238e+001	4.860052e+001	-2.015378e+001	-2.054350e+001	-2.004386e+001	-1.993325e+001	-1.517361e+001	6.854502e+001
2200000000.000	-2.061941e+001	2.785397e+001	-2.034413e+001	-6.550367e+001	-2.026782e+001	-6.611043e+001	-1.573648e+001	4.974078e-001
2204900000.000	-2.189524e+001	4.399399e+000	-2.057464e+001	-1.102129e+002	-2.067626e+001	-1.108814e+002	-1.667323e+001	-6.595787e+001
2209800000.000	-2.425162e+001	-2.117548e+001	-2.087294e+001	-1.541995e+002	-2.098786e+001	-1.536900e+002	-1.744623e+001	-1.323024e+002
2214700000.000	-2.728458e+001	-4.913026e+001	-2.111285e+001	1.627130e+002	-2.102908e+001	1.637410e+002	-1.780338e+001	1.615211e+002
2219600000.000	-3.049130e+001	-8.690948e+001	-2.124081e+001	1.200980e+002	-2.101154e+001	1.199548e+002	-1.809901e+001	9.591917e+001
2224500000.000	-3.234497e+001	-1.373762e+002	-2.126488e+001	7.773713e+001	-2.114469e+001	7.614315e+001	-1.898016e+001	3.065012e+001
2229400000.000	-3.182607e+001	1.789194e+002	-2.110462e+001	3.588120e+001	-2.120757e+001	3.408968e+001	-1.995201e+001	-3.468549e+001
2234300000.000	-2.998182e+001	1.527116e+002	-2.054910e+001	-7.597069e+000	-2.078045e+001	-8.230024e+000	-2.058539e+001	-1.020589e+002
2239200000.000	-2.731536e+001	1.267233e+002	-2.020448e+001	-5.473741e+001	-2.037666e+001	-5.441555e+001	-2.202132e+001	-1.669751e+002
2244100000.000	-2.576022e+001	9.731737e+001	-2.027604e+001	-1.015195e+002	-2.034313e+001	-1.011830e+002	-2.521255e+001	1.350640e+002
2249000000.000	-2.500431e+001	6.887933e+001	-2.045921e+001	-1.472109e+002	-2.053068e+001	-1.471682e+002	-3.112341e+001	8.294629e+001
2253900000.000	-2.478762e+001	4.128960e+001	-2.065662e+001	1.679748e+002	-2.073769e+001	1.683588e+002	-4.135853e+001	5.199476e+001
2258800000.000	-2.484642e+001	1.458595e+001	-2.081515e+001	1.237490e+002	-2.084920e+001	1.244340e+002	-4.118485e+001	6.666650e+001
2263700000.000	-2.487914e+001	-1.257807e+001	-2.088260e+001	7.984675e+001	-2.084140e+001	8.047813e+001	-3.405304e+001	2.859899e+000
2268600000.000	-2.438774e+001	-4.251721e+001	-2.085401e+001	3.576734e+001	-2.076307e+001	3.606319e+001	-2.887865e+001	-6.707914e+001
2273500000.000	-2.336772e+001	-7.897939e+001	-2.082843e+001	-9.670333e+000	-2.071167e+001	-9.597881e+000	-2.546814e+001	-1.281602e+002
2278400000.000	-2.247789e+001	-1.165438e+002	-2.105342e+001	-5.491748e+001	-2.089971e+001	-5.513520e+001	-2.285100e+001	1.737745e+002
2283300000.000	-2.160444e+001	-1.493572e+002	-2.127465e+001	-9.868031e+001	-2.108799e+001	-9.956354e+001	-2.102422e+001	1.127966e+002
2288200000.000	-2.080937e+001	-1.775894e+002	-2.136795e+001	-1.421912e+002	-2.125080e+001	-1.440813e+002	-2.002110e+001	4.746171e+001
2293100000.000	-2.026558e+001	1.578041e+002	-2.142989e+001	1.740314e+002	-2.150757e+001	1.717903e+002	-1.934623e+001	-2.124581e+001
2298000000.000	-1.991028e+001	1.355490e+002	-2.148814e+001	1.303863e+002	-2.174270e+001	1.290438e+002	-1.849605e+001	-8.912245e+001
2302900000.000	-1.969812e+001	1.142341e+002	-2.149322e+001	8.695016e+001	-2.175239e+001	8.703747e+001	-1.752706e+001	-1.532389e+002
2307800000.000	-1.959039e+001	9.282322e+001	-2.141976e+001	4.318691e+001	-2.151108e+001	4.401194e+001	-1.672817e+001	1.426211e+002
2312700000.000	-1.969509e+001	7.111027e+001	-2.136241e+001	-1.082028e+000	-2.129645e+001	-1.029937e+000	-1.629332e+001	7.483971e+001
2317600000.000	-2.006925e+001	4.964550e+001	-2.135228e+001	-4.537031e+001	-2.136870e+001	-4.644974e+001	-1.617922e+001	4.832699e+000
2322500000.000	-2.076140e+001	2.886611e+001	-2.137108e+001	-8.942667e+001	-2.161577e+001	-9.015084e+001	-1.620617e+001	-6.286874e+001
2327400000.000	-2.182957e+001	8.397511e+000	-2.136419e+001	-1.332271e+002	-2.164595e+001	-1.320482e+002	-1.618335e+001	-1.280721e+002
2332300000.000	-2.326170e+001	-1.283496e+001	-2.130080e+001	-1.766413e+002	-2.128869e+001	-1.742546e+002	-1.591661e+001	1.660182e+002
2337200000.000	-2.518255e+001	-3.770660e+001	-2.112982e+001	1.395802e+002	-2.078449e+001	1.409012e+002	-1.545262e+001	9.853284e+001
2342100000.000	-2.743806e+001	-7.188410e+001	-2.095899e+001	9.504961e+001	-2.058883e+001	9.384206e+001	-1.538742e+001	3.085684e+001
2347000000.000	-2.929447e+001	-1.192706e+002	-2.091898e+001	5.051886e+001	-2.084109e+001	4.806540e+001	-1.585521e+001	-3.552022e+001
2351900000.000	-2.927280e+001	-1.662694e+002	-2.081316e+001	7.422514e+000	-2.100546e+001	5.750070e+000	-1.625961e+001	-1.016584e+002
2356800000.000	-2.790702e+001	1.626492e+002	-2.044751e+001	-3.619320e+001	-2.066515e+001	-3.617792e+001	-1.614507e+001	-1.666274e+002
2361700000.000	-2.607039e+001	1.415016e+002	-1.996244e+001	-8.049085e+001	-1.998043e+001	-7.965080e+001	-1.567292e+001	1.281806e+002
2366600000.000	-2.386166e+001	1.202921e+002	-1.921932e+001	-1.267241e+002	-1.904426e+001	-1.273060e+002	-1.579896e+001	5.597313e+001
2371500000.000	-2.191268e+001	9.297990e+001	-1.867077e+001	-1.773114e+002	-1.875376e+001	-1.794710e+002	-1.730965e+001	-2.289182e+001
2376400000.000	-2.084644e+001	6.180435e+001	-1.882961e+001	1.311284e+002	-1.920581e+001	1.303039e+002	-1.955171e+001	-9.611741e+001
2381300000.000	-2.037951e+001	3.123639e+001	-1.943554e+001	8.196786e+001	-1.975500e+001	8.310142e+001	-2.228667e+001	-1.558251e+002
2386200000.000	-2.022821e+001	2.349619e+000	-2.010372e+001	3.523129e+001	-2.024293e+001	3.708846e+001	-2.633528e+001	1.597535e+002
2391100000.000	-2.023969e+001	-2.557690e+001	-2.071785e+001	-9.995199e+000	-2.069968e+001	-8.010082e+000	-3.074217e+001	1.345279e+002
2396000000.000	-2.043643e+001	-5.333947e+001	-2.121873e+001	-5.394677e+001	-2.103343e+001	-5.239021e+001	-3.101379e+001	1.066081e+002
2400900000.000	-2.073400e+001	-8.173034e+001	-2.156347e+001	-9.753082e+001	-2.127655e+001	-9.703844e+001	-2.880627e+001	5.342719e+001
2405800000.000	-2.084654e+001	-1.112154e+002	-2.178698e+001	-1.416525e+002	-2.152893e+001	-1.424186e+002	-2.581257e+001	-3.112154e+000
2410700000.000	-2.068238e+001	-1.411738e+002	-2.208670e+001	1.737575e+002	-2.195617e+001	1.722828e+002	-2.317327e+001	-5.861391e+001
2415600000.000	-2.020793e+001	-1.694911e+002	-2.248204e+001	1.297245e+002	-2.249955e+001	1.285870e+002	-2.138436e+001	-1.175336e+002
2420500000.000	-1.956967e+001	1.643377e+002	-2.283183e+001	8.662345e+001	-2.286873e+001	8.601131e+001	-1.986382e+001	1.799638e+002
2425400000.000	-1.897646e+001	1.396414e+002	-2.308036e+001	4.336460e+001	-2.305354e+001	4.315765e+001	-1.826133e+001	1.160952e+002
2430300000.000	-1.862215e+001	1.156858e+002	-2.341071e+001	8.547471e-002	-2.328568e+001	-8.590374e-001	-1.706895e+001	5.182416e+001
2435200000.000	-1.845589e+001	9.215757e+001	-2.379886e+001	-4.209721e+001	-2.381267e+001	-4.443390e+001	-1.664253e+001	-1.303036e+001
