!Agilent Technologies,E5061B,MY49305579,A.02.22
!Date: Thu Aug 24 16:27:52 2017
!Data & Calibration Information:
!Freq	S11:SOLT2(ON)	S21:SOLT2(ON)	S12:SOLT2(ON)	S22:SOLT2(ON)
# Hz S dB R 50
1710000000.000	-1.875236e+001	1.721659e+002	-1.693800e+001	6.858425e+001	-1.693558e+001	6.822978e+001	-2.466085e+001	1.707923e+002
1714900000.000	-1.883874e+001	1.530541e+002	-1.700348e+001	2.526501e+001	-1.707923e+001	2.455910e+001	-2.539024e+001	8.901374e+001
1719800000.000	-1.922402e+001	1.330714e+002	-1.695228e+001	-1.928286e+001	-1.710051e+001	-1.907962e+001	-2.447524e+001	-8.130779e+000
1724700000.000	-1.998122e+001	1.122732e+002	-1.714559e+001	-6.339829e+001	-1.713080e+001	-6.278332e+001	-2.112856e+001	-9.155076e+001
1729600000.000	-2.120742e+001	9.144509e+001	-1.707046e+001	-1.055018e+002	-1.703796e+001	-1.057357e+002	-1.841718e+001	-1.582162e+002
1734500000.000	-2.292469e+001	6.979890e+001	-1.664479e+001	-1.497329e+002	-1.674417e+001	-1.494632e+002	-1.711073e+001	1.393742e+002
1739400000.000	-2.526603e+001	4.613390e+001	-1.649688e+001	1.642011e+002	-1.641575e+001	1.653435e+002	-1.686355e+001	7.143290e+001
1744300000.000	-2.816041e+001	1.729960e+001	-1.648889e+001	1.202054e+002	-1.627031e+001	1.192240e+002	-1.686016e+001	-6.783728e+000
1749200000.000	-3.101237e+001	-2.017092e+001	-1.599105e+001	7.621991e+001	-1.622457e+001	7.425087e+001	-1.579688e+001	-8.425937e+001
1754100000.000	-3.202607e+001	-6.206055e+001	-1.553569e+001	2.805956e+001	-1.596060e+001	2.994186e+001	-1.442201e+001	-1.543469e+002
1759000000.000	-3.109814e+001	-9.660382e+001	-1.570827e+001	-1.973930e+001	-1.544146e+001	-1.634405e+001	-1.384619e+001	1.361572e+002
1763900000.000	-2.988879e+001	-1.208411e+002	-1.563104e+001	-6.430404e+001	-1.512513e+001	-6.580519e+001	-1.424639e+001	5.901636e+001
1768800000.000	-2.901385e+001	-1.421920e+002	-1.519648e+001	-1.125451e+002	-1.538952e+001	-1.153806e+002	-1.483445e+001	-2.360752e+001
1773700000.000	-2.879887e+001	-1.620659e+002	-1.552612e+001	-1.632586e+002	-1.586091e+001	-1.620803e+002	-1.494567e+001	-1.013730e+002
1778600000.000	-2.952499e+001	1.779420e+002	-1.623419e+001	1.509030e+002	-1.610755e+001	1.525480e+002	-1.536821e+001	-1.734595e+002
1783500000.000	-3.136830e+001	1.604792e+002	-1.641797e+001	1.064969e+002	-1.627553e+001	1.061497e+002	-1.694437e+001	1.130480e+002
1788400000.000	-3.460359e+001	1.486831e+002	-1.668284e+001	5.966674e+001	-1.669503e+001	5.949951e+001	-1.952297e+001	3.188280e+001
1793300000.000	-3.985114e+001	1.616383e+002	-1.725333e+001	1.483755e+001	-1.721902e+001	1.492310e+001	-2.154212e+001	-5.618312e+001
1798200000.000	-3.855048e+001	-1.490787e+002	-1.753406e+001	-2.814223e+001	-1.753815e+001	-2.837569e+001	-2.217363e+001	-1.383931e+002
1803100000.000	-3.315457e+001	-1.396731e+002	-1.763287e+001	-7.241919e+001	-1.763404e+001	-7.194124e+001	-2.322367e+001	1.447491e+002
1808000000.000	-2.959541e+001	-1.466991e+002	-1.790842e+001	-1.170287e+002	-1.775468e+001	-1.169137e+002	-2.534199e+001	5.597227e+001
1812900000.000	-2.734718e+001	-1.577552e+002	-1.817934e+001	-1.607726e+002	-1.809306e+001	-1.619482e+002	-2.447251e+001	-4.348580e+001
1817800000.000	-2.634284e+001	-1.699057e+002	-1.832095e+001	1.567050e+002	-1.847623e+001	1.561237e+002	-2.110438e+001	-1.228479e+002
1822700000.000	-2.561299e+001	-1.781360e+002	-1.841377e+001	1.125147e+002	-1.840633e+001	1.135453e+002	-1.942147e+001	1.678401e+002
1827600000.000	-2.499261e+001	1.712368e+002	-1.860372e+001	6.988621e+001	-1.832895e+001	6.958838e+001	-1.884444e+001	9.685242e+001
1832500000.000	-2.467586e+001	1.581734e+002	-1.841868e+001	2.757644e+001	-1.841215e+001	2.511838e+001	-1.807322e+001	2.060696e+001
1837400000.000	-2.467834e+001	1.422636e+002	-1.823054e+001	-1.766598e+001	-1.860747e+001	-1.840823e+001	-1.680830e+001	-5.315421e+001
1842300000.000	-2.514199e+001	1.229757e+002	-1.851604e+001	-6.202271e+001	-1.870095e+001	-6.009193e+001	-1.558795e+001	-1.199151e+002
1847200000.000	-2.599024e+001	1.018458e+002	-1.852716e+001	-1.029030e+002	-1.836144e+001	-1.016672e+002	-1.466820e+001	1.750232e+002
1852100000.000	-2.736387e+001	7.621096e+001	-1.794032e+001	-1.456604e+002	-1.784428e+001	-1.459483e+002	-1.414704e+001	1.063244e+002
1857000000.000	-2.955918e+001	4.554612e+001	-1.759895e+001	1.674940e+002	-1.758493e+001	1.678699e+002	-1.401821e+001	3.252868e+001
1861900000.000	-3.255219e+001	4.000739e+000	-1.777367e+001	1.229791e+002	-1.762398e+001	1.228189e+002	-1.402809e+001	-4.276652e+001
1866800000.000	-3.474063e+001	-5.598673e+001	-1.739122e+001	8.096315e+001	-1.745886e+001	7.967568e+001	-1.368248e+001	-1.151148e+002
1871700000.000	-3.270538e+001	-1.037835e+002	-1.666285e+001	3.439219e+001	-1.692501e+001	3.542030e+001	-1.320366e+001	1.758337e+002
1876600000.000	-2.965309e+001	-1.325331e+002	-1.658247e+001	-1.473682e+001	-1.633884e+001	-1.198119e+001	-1.329930e+001	1.049959e+002
1881500000.000	-2.737533e+001	-1.520703e+002	-1.672915e+001	-6.016866e+001	-1.618487e+001	-6.157939e+001	-1.439333e+001	2.841871e+001
1886400000.000	-2.580085e+001	-1.684847e+002	-1.640434e+001	-1.063605e+002	-1.648884e+001	-1.099407e+002	-1.557916e+001	-5.171752e+001
1891300000.000	-2.496122e+001	1.761078e+002	-1.639907e+001	-1.556962e+002	-1.679517e+001	-1.558621e+002	-1.622590e+001	-1.264751e+002
1896200000.000	-2.484679e+001	1.609497e+002	-1.689346e+001	1.570450e+002	-1.689100e+001	1.584217e+002	-1.748556e+001	1.641304e+002
1901100000.000	-2.524315e+001	1.492467e+002	-1.712169e+001	1.117774e+002	-1.699639e+001	1.110828e+002	-2.065492e+001	9.007884e+001
1906000000.000	-2.544249e+001	1.332859e+002	-1.737013e+001	6.454723e+001	-1.752000e+001	6.370610e+001	-2.496341e+001	-6.336239e+000
1910900000.000	-2.684205e+001	1.132695e+002	-1.799657e+001	1.856615e+001	-1.811810e+001	1.914518e+001	-2.553664e+001	-1.116749e+002
1915800000.000	-2.965385e+001	9.165350e+001	-1.852588e+001	-2.496054e+001	-1.850541e+001	-2.448807e+001	-2.531405e+001	1.589502e+002
1920700000.000	-3.504443e+001	7.182812e+001	-1.883016e+001	-6.832435e+001	-1.881328e+001	-6.831665e+001	-2.508939e+001	6.199723e+001
1925600000.000	-4.871419e+001	5.109464e+001	-1.920320e+001	-1.120329e+002	-1.918261e+001	-1.119764e+002	-2.263354e+001	-3.168213e+001
1930500000.000	-3.965652e+001	-1.420858e+002	-1.954399e+001	-1.542410e+002	-1.954530e+001	-1.542984e+002	-1.995402e+001	-1.080747e+002
1935400000.000	-3.247091e+001	-1.620505e+002	-1.962416e+001	1.637283e+002	-1.966687e+001	1.642211e+002	-1.796336e+001	-1.769351e+002
1940300000.000	-2.942224e+001	1.797692e+002	-1.969714e+001	1.207078e+002	-1.954643e+001	1.218838e+002	-1.659520e+001	1.144534e+002
1945200000.000	-2.782951e+001	1.649124e+002	-1.984224e+001	7.852500e+001	-1.946764e+001	7.768579e+001	-1.582276e+001	4.312741e+001
1950100000.000	-2.692704e+001	1.521556e+002	-1.971334e+001	3.709381e+001	-1.968427e+001	3.396969e+001	-1.529534e+001	-2.952488e+001
1955000000.000	-2.654316e+001	1.399816e+002	-1.939290e+001	-6.352738e+000	-1.982020e+001	-7.584829e+000	-1.444835e+001	-9.858988e+001
1959900000.000	-2.652555e+001	1.284511e+002	-1.941092e+001	-5.092942e+001	-1.964838e+001	-4.872550e+001	-1.337324e+001	-1.635422e+002
1964800000.000	-2.659570e+001	1.170006e+002	-1.944355e+001	-9.242196e+001	-1.918035e+001	-9.097582e+001	-1.259886e+001	1.318123e+002
1969700000.000	-2.688352e+001	1.037858e+002	-1.893105e+001	-1.342851e+002	-1.871377e+001	-1.358730e+002	-1.245214e+001	6.293100e+001
1974600000.000	-2.719121e+001	8.986886e+001	-1.842147e+001	-1.799596e+002	-1.859538e+001	1.785167e+002	-1.284984e+001	-9.735011e+000
1979500000.000	-2.768339e+001	7.077765e+001	-1.845247e+001	1.348926e+002	-1.866671e+001	1.351814e+002	-1.307086e+001	-8.078944e+001
1984400000.000	-2.969139e+001	5.067334e+001	-1.820871e+001	9.404959e+001	-1.828430e+001	9.483637e+001	-1.260508e+001	-1.483281e+002
1989300000.000	-3.038325e+001	4.715176e+001	-1.698966e+001	4.835718e+001	-1.702154e+001	4.947482e+001	-1.206824e+001	1.417890e+002
1994200000.000	-2.998994e+001	2.088068e+001	-1.666475e+001	-2.500480e+000	-1.648462e+001	-1.194428e+000	-1.245178e+001	6.879406e+001
1999100000.000	-3.043956e+001	-1.102100e+001	-1.685555e+001	-5.015434e+001	-1.657926e+001	-5.096510e+001	-1.366805e+001	-6.514061e+000
2004000000.000	-2.987775e+001	-4.609984e+001	-1.676996e+001	-9.640202e+001	-1.682804e+001	-9.804968e+001	-1.494303e+001	-8.082200e+001
2008900000.000	-2.796005e+001	-7.968949e+001	-1.670684e+001	-1.449836e+002	-1.688649e+001	-1.443162e+002	-1.600533e+001	-1.517555e+002
2013800000.000	-2.562284e+001	-1.094992e+002	-1.712809e+001	1.667036e+002	-1.692639e+001	1.680518e+002	-1.790908e+001	1.393409e+002
2018700000.000	-2.368607e+001	-1.332113e+002	-1.758230e+001	1.208761e+002	-1.726157e+001	1.197481e+002	-2.212851e+001	6.574990e+001
2023600000.000	-2.229833e+001	-1.541669e+002	-1.792157e+001	7.520364e+001	-1.789975e+001	7.315912e+001	-2.860735e+001	-3.405467e+001
2028500000.000	-2.150712e+001	-1.729825e+002	-1.840238e+001	2.981360e+001	-1.848778e+001	2.884895e+001	-2.907380e+001	-1.539520e+002
2033400000.000	-2.130734e+001	1.698426e+002	-1.883958e+001	-1.392350e+001	-1.885676e+001	-1.482512e+001	-2.864091e+001	1.079507e+002
2038300000.000	-2.149230e+001	1.542677e+002	-1.911215e+001	-5.787205e+001	-1.922591e+001	-5.890265e+001	-2.664051e+001	-8.831970e-001
2043200000.000	-2.187620e+001	1.396007e+002	-1.952206e+001	-1.020018e+002	-1.969996e+001	-1.020966e+002	-2.209133e+001	-8.597121e+001
2048100000.000	-2.245426e+001	1.253234e+002	-1.995595e+001	-1.442004e+002	-2.001272e+001	-1.436917e+002	-1.907161e+001	-1.534883e+002
2053000000.000	-2.310555e+001	1.117326e+002	-2.009678e+001	1.742439e+002	-2.006385e+001	1.744622e+002	-1.741351e+001	1.411677e+002
2057900000.000	-2.381752e+001	9.878935e+001	-2.014367e+001	1.315595e+002	-2.003607e+001	1.314543e+002	-1.649641e+001	7.195375e+001
2062800000.000	-2.455796e+001	8.673429e+001	-2.032283e+001	8.904758e+001	-2.020863e+001	8.802848e+001	-1.596785e+001	-3.262649e-001
2067700000.000	-2.520188e+001	7.547022e+001	-2.037776e+001	4.830329e+001	-2.046949e+001	4.652355e+001	-1.533626e+001	-7.109936e+001
2072600000.000	-2.590819e+001	6.089706e+001	-2.005143e+001	7.299434e+000	-2.035933e+001	7.114460e+000	-1.440810e+001	-1.381937e+002
2077500000.000	-2.804947e+001	4.590328e+001	-1.966068e+001	-3.635005e+001	-1.973475e+001	-3.427285e+001	-1.340898e+001	1.565249e+002
2082400000.000	-3.099220e+001	3.666991e+001	-1.953106e+001	-7.991084e+001	-1.914212e+001	-7.899826e+001	-1.275622e+001	9.003259e+001
2087300000.000	-3.548635e+001	3.519548e+001	-1.935839e+001	-1.222473e+002	-1.903819e+001	-1.249434e+002	-1.269418e+001	2.061904e+001
2092200000.000	-3.922257e+001	5.383534e+001	-1.885390e+001	-1.650716e+002	-1.908024e+001	-1.681671e+002	-1.286416e+001	-4.898748e+001
2097100000.000	-4.088752e+001	8.640914e+001	-1.847647e+001	1.506039e+002	-1.891228e+001	1.505285e+002	-1.261631e+001	-1.150326e+002
2102000000.000	-3.674010e+001	1.169472e+002	-1.803565e+001	1.074092e+002	-1.815431e+001	1.093650e+002	-1.198261e+001	-1.792037e+002
2106900000.000	-3.209714e+001	1.020158e+002	-1.724984e+001	6.293305e+001	-1.703490e+001	6.382259e+001	-1.152260e+001	1.123040e+002
2111800000.000	-3.026535e+001	8.013912e+001	-1.648619e+001	1.506910e+001	-1.631847e+001	1.388461e+001	-1.184165e+001	3.643733e+001
2116700000.000	-2.933367e+001	5.749862e+001	-1.613899e+001	-3.404846e+001	-1.624799e+001	-3.559499e+001	-1.279267e+001	-4.090248e+001
2121600000.000	-2.898409e+001	4.011639e+001	-1.591086e+001	-8.271198e+001	-1.618637e+001	-8.282993e+001	-1.377878e+001	-1.138915e+002
2126500000.000	-2.625872e+001	1.745297e+001	-1.587805e+001	-1.324634e+002	-1.604113e+001	-1.307470e+002	-1.498235e+001	1.754122e+002
2131400000.000	-2.457251e+001	-1.810250e+001	-1.617215e+001	1.782595e+002	-1.600296e+001	-1.798745e+002	-1.733233e+001	1.018878e+002
2136300000.000	-2.325247e+001	-5.255683e+001	-1.664255e+001	1.305402e+002	-1.635935e+001	1.307521e+002	-2.149429e+001	2.263490e+001
2141200000.000	-2.184892e+001	-8.505977e+001	-1.713566e+001	8.398659e+001	-1.693210e+001	8.345122e+001	-2.640298e+001	-6.994441e+001
2146100000.000	-2.054971e+001	-1.143633e+002	-1.764955e+001	3.823472e+001	-1.744157e+001	3.755600e+001	-2.891238e+001	-1.735084e+002
2151000000.000	-1.934368e+001	-1.391509e+002	-1.814618e+001	-6.329203e+000	-1.793991e+001	-8.191294e+000	-3.066677e+001	7.937085e+001
2155900000.000	-1.823048e+001	-1.621890e+002	-1.856801e+001	-5.049218e+001	-1.860284e+001	-5.306842e+001	-2.787114e+001	-4.120214e+001
2160800000.000	-1.752183e+001	1.761492e+002	-1.899361e+001	-9.433318e+001	-1.923238e+001	-9.571227e+001	-2.261861e+001	-1.236247e+002
2165700000.000	-1.714667e+001	1.554648e+002	-1.939524e+001	-1.370810e+002	-1.954734e+001	-1.369735e+002	-1.948882e+001	1.713317e+002
2170600000.000	-1.712643e+001	1.351408e+002	-1.960368e+001	-1.793509e+002	-1.956601e+001	-1.794419e+002	-1.801471e+001	1.061101e+002
2175500000.000	-1.744733e+001	1.157645e+002	-1.971342e+001	1.378071e+002	-1.968590e+001	1.365344e+002	-1.738538e+001	3.455122e+001
2180400000.000	-1.793178e+001	9.731678e+001	-1.990810e+001	9.473059e+001	-2.007487e+001	9.320047e+001	-1.668514e+001	-3.920214e+001
2185300000.000	-1.855367e+001	7.948029e+001	-2.011499e+001	5.289881e+001	-2.043709e+001	5.242071e+001	-1.567307e+001	-1.081471e+002
2190200000.000	-1.911974e+001	6.324889e+001	-2.012874e+001	1.205561e+001	-2.040747e+001	1.329603e+001	-1.456666e+001	-1.732180e+002
2195100000.000	-1.940786e+001	4.549132e+001	-1.980787e+001	-2.903718e+001	-1.981279e+001	-2.703180e+001	-1.349613e+001	1.204330e+002
2200000000.000	-2.003154e+001	2.441522e+001	-1.944383e+001	-7.209059e+001	-1.918514e+001	-7.147683e+001	-1.284943e+001	5.124335e+001
2204900000.000	-2.109397e+001	7.752447e-001	-1.909841e+001	-1.149420e+002	-1.896664e+001	-1.164038e+002	-1.290046e+001	-1.782958e+001
2209800000.000	-2.290621e+001	-2.618641e+001	-1.859071e+001	-1.587272e+002	-1.876450e+001	-1.598113e+002	-1.322662e+001	-8.532989e+001
2214700000.000	-2.507741e+001	-5.667990e+001	-1.815775e+001	1.560735e+002	-1.832573e+001	1.571069e+002	-1.321113e+001	-1.521649e+002
2219600000.000	-2.683631e+001	-9.447019e+001	-1.780129e+001	1.109023e+002	-1.762681e+001	1.124095e+002	-1.278071e+001	1.399794e+002
2224500000.000	-2.732441e+001	-1.379331e+002	-1.737071e+001	6.527103e+001	-1.702197e+001	6.436148e+001	-1.266456e+001	6.937427e+001
2229400000.000	-2.670030e+001	-1.768149e+002	-1.698705e+001	1.843635e+001	-1.693679e+001	1.558508e+001	-1.335612e+001	-2.516911e+000
2234300000.000	-2.539502e+001	1.538353e+002	-1.672156e+001	-2.905546e+001	-1.702975e+001	-3.098972e+001	-1.434786e+001	-7.246091e+001
2239200000.000	-2.367587e+001	1.251808e+002	-1.659160e+001	-7.703716e+001	-1.693282e+001	-7.675206e+001	-1.525515e+001	-1.388896e+002
2244100000.000	-2.262610e+001	9.532083e+001	-1.659028e+001	-1.250901e+002	-1.671834e+001	-1.239643e+002	-1.661192e+001	1.560291e+002
2249000000.000	-2.205330e+001	6.623911e+001	-1.672701e+001	-1.732879e+002	-1.671483e+001	-1.728872e+002	-1.931950e+001	8.939349e+001
2253900000.000	-2.190633e+001	3.738235e+001	-1.704757e+001	1.387255e+002	-1.710988e+001	1.386830e+002	-2.362913e+001	2.157205e+001
2258800000.000	-2.205518e+001	9.350373e+000	-1.752676e+001	9.162344e+001	-1.761334e+001	9.216731e+001	-2.924150e+001	-4.143055e+001
2263700000.000	-2.220388e+001	-1.861296e+001	-1.810369e+001	4.565473e+001	-1.809214e+001	4.659028e+001	-3.444572e+001	-6.060754e+001
2268600000.000	-2.194786e+001	-4.802902e+001	-1.868689e+001	1.246749e+000	-1.858569e+001	1.819303e+000	-2.883862e+001	-7.560983e+001
2273500000.000	-2.122862e+001	-8.186166e+001	-1.913272e+001	-4.217820e+001	-1.899489e+001	-4.193875e+001	-2.383614e+001	-1.273962e+002
2278400000.000	-2.050432e+001	-1.169526e+002	-1.949446e+001	-8.547208e+001	-1.930974e+001	-8.555975e+001	-2.079063e+001	1.743314e+002
2283300000.000	-1.980220e+001	-1.489259e+002	-1.980190e+001	-1.283487e+002	-1.956324e+001	-1.292214e+002	-1.879815e+001	1.132314e+002
2288200000.000	-1.916765e+001	-1.774424e+002	-1.999709e+001	-1.711666e+002	-1.982526e+001	-1.732974e+002	-1.758910e+001	4.771376e+001
2293100000.000	-1.878907e+001	1.570940e+002	-2.018458e+001	1.455062e+002	-2.026525e+001	1.428764e+002	-1.688558e+001	-2.066613e+001
2298000000.000	-1.861183e+001	1.341144e+002	-2.044884e+001	1.028983e+002	-2.075940e+001	1.012690e+002	-1.615451e+001	-8.737384e+001
2302900000.000	-1.852758e+001	1.122554e+002	-2.061127e+001	6.120731e+001	-2.093628e+001	6.143061e+001	-1.525711e+001	-1.509210e+002
2307800000.000	-1.855256e+001	9.058660e+001	-2.060186e+001	1.961468e+001	-2.070670e+001	2.081044e+001	-1.440302e+001	1.454311e+002
2312700000.000	-1.870520e+001	6.895165e+001	-2.047829e+001	-2.250015e+001	-2.036093e+001	-2.222858e+001	-1.381661e+001	7.783306e+001
2317600000.000	-1.904044e+001	4.731868e+001	-2.033389e+001	-6.503381e+001	-2.030462e+001	-6.643587e+001	-1.362459e+001	7.901970e+000
2322500000.000	-1.964171e+001	2.609150e+001	-2.015282e+001	-1.075959e+002	-2.043630e+001	-1.087204e+002	-1.367393e+001	-5.959298e+001
2327400000.000	-2.055219e+001	4.772661e+000	-1.989220e+001	-1.501922e+002	-2.026755e+001	-1.489024e+002	-1.362065e+001	-1.243518e+002
2332300000.000	-2.175384e+001	-1.790936e+001	-1.956357e+001	1.668207e+002	-1.959088e+001	1.699802e+002	-1.323420e+001	1.701139e+002
2337200000.000	-2.324110e+001	-4.436573e+001	-1.913131e+001	1.233069e+002	-1.869603e+001	1.251779e+002	-1.262165e+001	1.018446e+002
2342100000.000	-2.480100e+001	-7.801356e+001	-1.871112e+001	7.865610e+001	-1.822536e+001	7.718357e+001	-1.247961e+001	3.177700e+001
2347000000.000	-2.576604e+001	-1.185214e+002	-1.838602e+001	3.385345e+001	-1.829676e+001	3.070332e+001	-1.308551e+001	-3.740429e+001
2351900000.000	-2.550312e+001	-1.576504e+002	-1.795317e+001	-1.071218e+001	-1.821467e+001	-1.260354e+001	-1.382836e+001	-1.048820e+002
2356800000.000	-2.422233e+001	1.716133e+002	-1.741292e+001	-5.669385e+001	-1.766168e+001	-5.644194e+001	-1.410216e+001	-1.713296e+002
2361700000.000	-2.262686e+001	1.458237e+002	-1.698271e+001	-1.043322e+002	-1.696170e+001	-1.034892e+002	-1.444244e+001	1.213223e+002
2366600000.000	-2.101995e+001	1.202718e+002	-1.679450e+001	-1.525691e+002	-1.663969e+001	-1.534208e+002	-1.586662e+001	5.189621e+001
2371500000.000	-1.968438e+001	9.206385e+001	-1.671461e+001	1.593216e+002	-1.680261e+001	1.572168e+002	-1.825372e+001	-1.733180e+001
2376400000.000	-1.886543e+001	6.159037e+001	-1.677751e+001	1.106933e+002	-1.713441e+001	1.096132e+002	-2.047488e+001	-8.031557e+001
2381300000.000	-1.845916e+001	3.127771e+001	-1.708641e+001	6.235266e+001	-1.747577e+001	6.314603e+001	-2.241826e+001	-1.300638e+002
2386200000.000	-1.831047e+001	2.063324e+000	-1.754950e+001	1.509557e+001	-1.779498e+001	1.723645e+001	-2.382088e+001	-1.649452e+002
2391100000.000	-1.833554e+001	-2.640292e+001	-1.809151e+001	-3.097851e+001	-1.810400e+001	-2.821569e+001	-2.363461e+001	1.611154e+002
2396000000.000	-1.857956e+001	-5.466159e+001	-1.863723e+001	-7.579828e+001	-1.836507e+001	-7.354903e+001	-2.244399e+001	1.123547e+002
2400900000.000	-1.892797e+001	-8.317355e+001	-1.909622e+001	-1.196758e+002	-1.868184e+001	-1.192750e+002	-2.067070e+001	5.063060e+001
2405800000.000	-1.916997e+001	-1.122673e+002	-1.946917e+001	-1.631461e+002	-1.918774e+001	-1.646429e+002	-1.892970e+001	-1.362000e+001
2410700000.000	-1.915250e+001	-1.413892e+002	-1.984720e+001	1.535333e+002	-1.979844e+001	1.517828e+002	-1.772642e+001	-7.489951e+001
2415600000.000	-1.882430e+001	-1.690773e+002	-2.019827e+001	1.112045e+002	-2.026396e+001	1.102365e+002	-1.688235e+001	-1.360346e+002
2420500000.000	-1.830036e+001	1.651185e+002	-2.035972e+001	6.941267e+001	-2.038213e+001	6.926810e+001	-1.591680e+001	1.610693e+002
2425400000.000	-1.777996e+001	1.406081e+002	-2.042719e+001	2.698303e+001	-2.030100e+001	2.673063e+001	-1.481781e+001	9.642608e+001
2430300000.000	-1.743849e+001	1.166573e+002	-2.056309e+001	-1.546800e+001	-2.038738e+001	-1.720781e+001	-1.422804e+001	3.076371e+001
2435200000.000	-1.726814e+001	9.307217e+001	-2.067251e+001	-5.657741e+001	-2.076032e+001	-5.970982e+001	-1.431119e+001	-3.455619e+001
