!Agilent Technologies,E5061B,MY49305579,A.02.22
!Date: Thu Aug 24 16:28:02 2017
!Data & Calibration Information:
!Freq	S11:SOLT2(ON)	S21:SOLT2(ON)	S12:SOLT2(ON)	S22:SOLT2(ON)
# Hz S dB R 50
1710000000.000	-1.926216e+001	1.758628e+002	-1.521974e+001	8.623928e+001	-1.487859e+001	8.298982e+001	-1.142961e+001	8.506434e+001
1714900000.000	-1.913766e+001	1.579873e+002	-1.453613e+001	3.633889e+001	-1.494161e+001	3.391583e+001	-1.120825e+001	8.156626e+000
1719800000.000	-1.921951e+001	1.385796e+002	-1.503350e+001	-1.449050e+001	-1.531166e+001	-1.281757e+001	-1.105831e+001	-6.606782e+001
1724700000.000	-1.969739e+001	1.177583e+002	-1.553285e+001	-5.790370e+001	-1.540795e+001	-5.721097e+001	-1.063797e+001	-1.345325e+002
1729600000.000	-2.060572e+001	9.673638e+001	-1.505773e+001	-1.023111e+002	-1.513334e+001	-1.027377e+002	-1.025280e+001	1.585373e+002
1734500000.000	-2.195012e+001	7.445282e+001	-1.486937e+001	-1.530699e+002	-1.490507e+001	-1.514539e+002	-1.066225e+001	8.764212e+001
1739400000.000	-2.378219e+001	4.959115e+001	-1.562679e+001	1.589843e+002	-1.527193e+001	1.590092e+002	-1.213066e+001	1.169695e+001
1744300000.000	-2.610932e+001	1.938681e+001	-1.591468e+001	1.158132e+002	-1.594690e+001	1.129456e+002	-1.349140e+001	-6.491061e+001
1749200000.000	-2.829559e+001	-1.798323e+001	-1.582027e+001	6.931113e+001	-1.630862e+001	6.936322e+001	-1.420869e+001	-1.362910e+002
1754100000.000	-2.919926e+001	-5.920031e+001	-1.630533e+001	2.202993e+001	-1.635802e+001	2.522678e+001	-1.544336e+001	1.563174e+002
1759000000.000	-2.863540e+001	-9.483346e+001	-1.683041e+001	-2.113581e+001	-1.645893e+001	-2.041002e+001	-1.842181e+001	8.610270e+001
1763900000.000	-2.782256e+001	-1.227778e+002	-1.688335e+001	-6.407627e+001	-1.679551e+001	-6.550104e+001	-2.324474e+001	2.407645e+000
1768800000.000	-2.744787e+001	-1.466142e+002	-1.698897e+001	-1.084685e+002	-1.706254e+001	-1.085520e+002	-2.685783e+001	-9.922505e+001
1773700000.000	-2.769655e+001	-1.677687e+002	-1.706248e+001	-1.514411e+002	-1.702500e+001	-1.513432e+002	-2.947588e+001	1.560137e+002
1778600000.000	-2.866185e+001	1.719341e+002	-1.685563e+001	1.650669e+002	-1.689088e+001	1.645648e+002	-2.865347e+001	2.218617e+001
1783500000.000	-3.066984e+001	1.533583e+002	-1.675560e+001	1.199293e+002	-1.684377e+001	1.203015e+002	-2.215321e+001	-7.037369e+001
1788400000.000	-3.399588e+001	1.403107e+002	-1.677459e+001	7.616855e+001	-1.672971e+001	7.675342e+001	-1.821086e+001	-1.388903e+002
1793300000.000	-3.953630e+001	1.447116e+002	-1.641838e+001	3.291699e+001	-1.639028e+001	3.300995e+001	-1.595000e+001	1.560754e+002
1798200000.000	-4.133630e+001	-1.570221e+002	-1.597471e+001	-1.376361e+001	-1.592310e+001	-1.291783e+001	-1.455797e+001	8.705379e+001
1803100000.000	-3.496693e+001	-1.372103e+002	-1.607676e+001	-6.040025e+001	-1.576539e+001	-6.042538e+001	-1.364916e+001	1.382296e+001
1808000000.000	-3.071172e+001	-1.423837e+002	-1.599147e+001	-1.039421e+002	-1.590268e+001	-1.067379e+002	-1.273322e+001	-5.774557e+001
1812900000.000	-2.818066e+001	-1.523866e+002	-1.545343e+001	-1.496744e+002	-1.593578e+001	-1.508389e+002	-1.168234e+001	-1.233329e+002
1817800000.000	-2.693314e+001	-1.625408e+002	-1.529608e+001	1.612380e+002	-1.554628e+001	1.651924e+002	-1.044782e+001	1.733698e+002
1822700000.000	-2.564924e+001	-1.695588e+002	-1.572663e+001	1.149616e+002	-1.497368e+001	1.172892e+002	-9.572934e+000	1.044183e+002
1827600000.000	-2.448183e+001	1.789902e+002	-1.548574e+001	7.207103e+001	-1.496622e+001	6.683654e+001	-9.323242e+000	3.065767e+001
1832500000.000	-2.386693e+001	1.641305e+002	-1.490637e+001	2.333494e+001	-1.556007e+001	1.896359e+001	-9.413048e+000	-4.114321e+001
1837400000.000	-2.367547e+001	1.468495e+002	-1.531773e+001	-2.730010e+001	-1.599756e+001	-2.451114e+001	-9.333673e+000	-1.073191e+002
1842300000.000	-2.394039e+001	1.268166e+002	-1.605190e+001	-7.116301e+001	-1.582520e+001	-6.746091e+001	-9.008357e+000	-1.720478e+002
1847200000.000	-2.453666e+001	1.044802e+002	-1.569102e+001	-1.132176e+002	-1.532885e+001	-1.139656e+002	-8.751433e+000	1.186926e+002
1852100000.000	-2.562986e+001	7.861321e+001	-1.518979e+001	-1.631040e+002	-1.527088e+001	-1.640154e+002	-9.212277e+000	4.450498e+001
1857000000.000	-2.723159e+001	4.897752e+001	-1.590596e+001	1.469841e+002	-1.587333e+001	1.475114e+002	-1.023355e+001	-2.909273e+001
1861900000.000	-2.938289e+001	1.113351e+001	-1.652958e+001	1.039556e+002	-1.647584e+001	1.029820e+002	-1.108470e+001	-9.863497e+001
1866800000.000	-3.115693e+001	-3.633793e+001	-1.639824e+001	5.977543e+001	-1.667207e+001	5.963147e+001	-1.152219e+001	-1.654282e+002
1871700000.000	-3.025149e+001	-8.353778e+001	-1.654042e+001	1.168224e+001	-1.659193e+001	1.450194e+001	-1.223420e+001	1.269832e+002
1876600000.000	-2.789502e+001	-1.181368e+002	-1.726210e+001	-3.381404e+001	-1.676016e+001	-3.274882e+001	-1.403641e+001	5.636134e+001
1881500000.000	-2.575810e+001	-1.432592e+002	-1.759522e+001	-7.606725e+001	-1.730557e+001	-7.872361e+001	-1.662275e+001	-1.796095e+001
1886400000.000	-2.434319e+001	-1.637624e+002	-1.763491e+001	-1.202038e+002	-1.781364e+001	-1.221546e+002	-1.877868e+001	-9.220696e+001
1891300000.000	-2.360420e+001	1.779017e+002	-1.793307e+001	-1.648635e+002	-1.808073e+001	-1.648595e+002	-2.107449e+001	-1.594233e+002
1896200000.000	-2.359216e+001	1.603234e+002	-1.824404e+001	1.523006e+002	-1.825076e+001	1.519362e+002	-2.688226e+001	1.410586e+002
1901100000.000	-2.426435e+001	1.462591e+002	-1.832666e+001	1.105665e+002	-1.845973e+001	1.100972e+002	-3.882925e+001	-1.170252e+002
1906000000.000	-2.466781e+001	1.308931e+002	-1.813387e+001	6.748497e+001	-1.821901e+001	6.814391e+001	-2.464104e+001	-1.689720e+002
1910900000.000	-2.597278e+001	1.111539e+002	-1.799286e+001	2.441300e+001	-1.792794e+001	2.469617e+001	-2.108294e+001	1.260566e+002
1915800000.000	-2.842392e+001	9.057848e+001	-1.761646e+001	-1.958077e+001	-1.761048e+001	-2.007685e+001	-1.886208e+001	5.185465e+001
1920700000.000	-3.224766e+001	7.126147e+001	-1.739987e+001	-6.562974e+001	-1.746990e+001	-6.572285e+001	-1.666178e+001	-2.257511e+001
1925600000.000	-3.841039e+001	4.444973e+001	-1.745671e+001	-1.104251e+002	-1.749909e+001	-1.103515e+002	-1.472058e+001	-9.131156e+001
1930500000.000	-4.754559e+001	-7.159253e+001	-1.719933e+001	-1.538997e+002	-1.731739e+001	-1.535031e+002	-1.311420e+001	-1.570007e+002
1935400000.000	-3.624138e+001	-1.374802e+002	-1.676540e+001	1.599067e+002	-1.675854e+001	1.619715e+002	-1.174338e+001	1.362965e+002
1940300000.000	-3.152740e+001	-1.576992e+002	-1.674874e+001	1.125690e+002	-1.624768e+001	1.136788e+002	-1.077958e+001	6.529800e+001
1945200000.000	-2.858309e+001	-1.734937e+002	-1.677306e+001	6.786390e+001	-1.637528e+001	6.434685e+001	-1.055073e+001	-7.732428e+000
1950100000.000	-2.663429e+001	1.721293e+002	-1.641697e+001	2.192287e+001	-1.681767e+001	1.831426e+001	-1.052676e+001	-7.742109e+001
1955000000.000	-2.528813e+001	1.573636e+002	-1.635246e+001	-2.675120e+001	-1.691817e+001	-2.508028e+001	-1.014220e+001	-1.428449e+002
1959900000.000	-2.453631e+001	1.421679e+002	-1.674760e+001	-7.357775e+001	-1.656563e+001	-7.005051e+001	-9.550545e+000	1.524754e+002
1964800000.000	-2.398976e+001	1.261669e+002	-1.678467e+001	-1.175735e+002	-1.627191e+001	-1.186846e+002	-9.293073e+000	8.342440e+001
1969700000.000	-2.383212e+001	1.077864e+002	-1.654944e+001	-1.652145e+002	-1.664186e+001	-1.685849e+002	-9.945467e+000	9.680187e+000
1974600000.000	-2.392219e+001	8.768601e+001	-1.702581e+001	1.456796e+002	-1.743748e+001	1.453697e+002	-1.091771e+001	-6.193448e+001
1979500000.000	-2.445065e+001	6.426951e+001	-1.779911e+001	1.013064e+002	-1.795738e+001	1.027380e+002	-1.136796e+001	-1.290798e+002
1984400000.000	-2.598380e+001	3.971128e+001	-1.806804e+001	5.989438e+001	-1.807274e+001	6.098313e+001	-1.144666e+001	1.662062e+002
1989300000.000	-2.695975e+001	2.453420e+001	-1.757423e+001	1.579673e+001	-1.750642e+001	1.693766e+001	-1.151756e+001	9.825728e+001
1994200000.000	-2.705494e+001	-4.241509e+000	-1.781607e+001	-3.240831e+001	-1.757796e+001	-3.197004e+001	-1.270238e+001	2.595040e+001
1999100000.000	-2.744764e+001	-3.750661e+001	-1.824565e+001	-7.667976e+001	-1.810411e+001	-7.790147e+001	-1.436954e+001	-4.516320e+001
2004000000.000	-2.712883e+001	-7.066382e+001	-1.834611e+001	-1.205466e+002	-1.848479e+001	-1.211901e+002	-1.567063e+001	-1.135149e+002
2008900000.000	-2.592819e+001	-9.995392e+001	-1.846983e+001	-1.655330e+002	-1.850519e+001	-1.643016e+002	-1.688215e+001	-1.779548e+002
2013800000.000	-2.436237e+001	-1.250066e+002	-1.872913e+001	1.498005e+002	-1.842938e+001	1.505104e+002	-1.908551e+001	1.182439e+002
2018700000.000	-2.303086e+001	-1.460808e+002	-1.893722e+001	1.062151e+002	-1.867192e+001	1.045988e+002	-2.345213e+001	4.923721e+001
2023600000.000	-2.213042e+001	-1.647297e+002	-1.903574e+001	6.270103e+001	-1.904093e+001	6.063156e+001	-2.944050e+001	-4.197163e+001
2028500000.000	-2.163866e+001	1.786016e+002	-1.911153e+001	1.897287e+001	-1.920630e+001	1.794289e+001	-3.187236e+001	-1.513990e+002
2033400000.000	-2.160890e+001	1.627799e+002	-1.913598e+001	-2.435992e+001	-1.920928e+001	-2.531130e+001	-3.438333e+001	8.718254e+001
2038300000.000	-2.196309e+001	1.486159e+002	-1.903580e+001	-6.808738e+001	-1.918541e+001	-6.888160e+001	-2.764728e+001	-4.219007e+001
2043200000.000	-2.240571e+001	1.352124e+002	-1.902322e+001	-1.124708e+002	-1.917445e+001	-1.122464e+002	-2.178965e+001	-1.149417e+002
2048100000.000	-2.300121e+001	1.215161e+002	-1.897558e+001	-1.557874e+002	-1.898729e+001	-1.552754e+002	-1.860998e+001	-1.784908e+002
2053000000.000	-2.365639e+001	1.081731e+002	-1.868885e+001	1.600899e+002	-1.862033e+001	1.602958e+002	-1.685909e+001	1.149420e+002
2057900000.000	-2.440990e+001	9.475313e+001	-1.847747e+001	1.141795e+002	-1.836339e+001	1.137655e+002	-1.582247e+001	4.333689e+001
2062800000.000	-2.538059e+001	8.236540e+001	-1.857951e+001	6.873503e+001	-1.851127e+001	6.724272e+001	-1.508330e+001	-2.961646e+001
2067700000.000	-2.633040e+001	7.104775e+001	-1.856001e+001	2.486248e+001	-1.875469e+001	2.343820e+001	-1.426842e+001	-9.899728e+001
2072600000.000	-2.755898e+001	5.608608e+001	-1.826800e+001	-1.954290e+001	-1.855565e+001	-1.866315e+001	-1.311616e+001	-1.648450e+002
2077500000.000	-3.086258e+001	4.296794e+001	-1.812195e+001	-6.637080e+001	-1.797282e+001	-6.395500e+001	-1.211762e+001	1.282025e+002
2082400000.000	-3.581096e+001	4.368104e+001	-1.827630e+001	-1.112399e+002	-1.776181e+001	-1.118831e+002	-1.178015e+001	5.943208e+001
2087300000.000	-4.155437e+001	9.701540e+001	-1.781133e+001	-1.545216e+002	-1.768230e+001	-1.585259e+002	-1.159025e+001	-1.063276e+001
2092200000.000	-3.365966e+001	1.177543e+002	-1.747124e+001	1.550742e+002	-1.794342e+001	1.528794e+002	-1.175267e+001	-8.394975e+001
2097100000.000	-3.088989e+001	1.059173e+002	-1.793758e+001	1.070804e+002	-1.828985e+001	1.085531e+002	-1.189929e+001	-1.506301e+002
2102000000.000	-2.913991e+001	9.473601e+001	-1.827860e+001	6.235880e+001	-1.818256e+001	6.405307e+001	-1.184677e+001	1.435848e+002
2106900000.000	-2.747247e+001	7.422523e+001	-1.831592e+001	1.703889e+001	-1.809240e+001	1.652992e+001	-1.224678e+001	7.311318e+001
2111800000.000	-2.693176e+001	5.008481e+001	-1.845562e+001	-2.955167e+001	-1.845864e+001	-3.116401e+001	-1.330048e+001	-2.118384e+000
2116700000.000	-2.700909e+001	2.357522e+001	-1.882036e+001	-7.589096e+001	-1.903295e+001	-7.656627e+001	-1.441936e+001	-7.421271e+001
2121600000.000	-2.852128e+001	1.299115e+000	-1.934070e+001	-1.206186e+002	-1.955587e+001	-1.198375e+002	-1.529861e+001	-1.414650e+002
2126500000.000	-2.725765e+001	-7.937179e+000	-1.951242e+001	-1.628894e+002	-1.955389e+001	-1.610189e+002	-1.645080e+001	1.528076e+002
2131400000.000	-2.511121e+001	-3.665301e+001	-1.950449e+001	1.522152e+002	-1.925800e+001	1.536556e+002	-1.843834e+001	8.368835e+001
2136300000.000	-2.358401e+001	-6.747644e+001	-1.967279e+001	1.073408e+002	-1.937953e+001	1.071483e+002	-2.138837e+001	9.032702e+000
2141200000.000	-2.205704e+001	-9.652622e+001	-1.978619e+001	6.286666e+001	-1.958964e+001	6.193485e+001	-2.405577e+001	-6.984083e+001
2146100000.000	-2.069924e+001	-1.234407e+002	-1.996851e+001	1.733000e+001	-1.982688e+001	1.635830e+001	-2.543403e+001	-1.465927e+002
2151000000.000	-1.955561e+001	-1.465101e+002	-2.035535e+001	-2.712461e+001	-2.021023e+001	-2.862844e+001	-2.815182e+001	1.450493e+002
2155900000.000	-1.848844e+001	-1.678056e+002	-2.062806e+001	-6.999365e+001	-2.062351e+001	-7.215274e+001	-3.740456e+001	6.849190e+001
2160800000.000	-1.776613e+001	1.715870e+002	-2.075689e+001	-1.128915e+002	-2.092500e+001	-1.143992e+002	-3.285826e+001	-1.252380e+002
2165700000.000	-1.739500e+001	1.513864e+002	-2.077696e+001	-1.556513e+002	-2.093852e+001	-1.561069e+002	-2.593800e+001	1.703768e+002
2170600000.000	-1.740481e+001	1.313854e+002	-2.064607e+001	1.609706e+002	-2.069530e+001	1.606463e+002	-2.364281e+001	1.058664e+002
2175500000.000	-1.773363e+001	1.119750e+002	-2.053626e+001	1.161698e+002	-2.057574e+001	1.153002e+002	-2.280885e+001	3.153397e+001
2180400000.000	-1.827076e+001	9.338412e+001	-2.065455e+001	7.120333e+001	-2.081447e+001	7.020921e+001	-2.127017e+001	-4.520124e+001
2185300000.000	-1.893849e+001	7.526939e+001	-2.083306e+001	2.748836e+001	-2.108645e+001	2.727095e+001	-1.922690e+001	-1.148449e+002
2190200000.000	-1.961540e+001	5.832237e+001	-2.093013e+001	-1.478687e+001	-2.114591e+001	-1.384257e+001	-1.748589e+001	1.799831e+002
2195100000.000	-2.013169e+001	3.968744e+001	-2.060038e+001	-5.692970e+001	-2.058945e+001	-5.525503e+001	-1.604820e+001	1.129510e+002
2200000000.000	-2.108673e+001	1.806137e+001	-2.020476e+001	-1.020131e+002	-1.999420e+001	-1.015709e+002	-1.530710e+001	4.300929e+001
2204900000.000	-2.256587e+001	-6.652021e+000	-2.003037e+001	-1.475656e+002	-1.993870e+001	-1.486651e+002	-1.534022e+001	-2.575716e+001
2209800000.000	-2.510061e+001	-3.591105e+001	-1.991610e+001	1.668379e+002	-2.003612e+001	1.660719e+002	-1.553622e+001	-9.331194e+001
2214700000.000	-2.822595e+001	-7.101901e+001	-1.986514e+001	1.213493e+002	-1.995687e+001	1.221279e+002	-1.536187e+001	-1.607017e+002
2219600000.000	-3.038231e+001	-1.187945e+002	-1.978534e+001	7.611509e+001	-1.962647e+001	7.687147e+001	-1.491744e+001	1.316196e+002
2224500000.000	-2.999179e+001	-1.694975e+002	-1.966377e+001	3.059454e+001	-1.941804e+001	2.950284e+001	-1.482463e+001	6.317970e+001
2229400000.000	-2.865804e+001	1.518904e+002	-1.948045e+001	-1.602737e+001	-1.948790e+001	-1.853983e+001	-1.513122e+001	-6.609395e+000
2234300000.000	-2.778898e+001	1.265951e+002	-1.964207e+001	-6.464809e+001	-1.994323e+001	-6.624568e+001	-1.570652e+001	-7.658766e+001
2239200000.000	-2.618446e+001	1.066927e+002	-2.024347e+001	-1.103150e+002	-2.055676e+001	-1.099662e+002	-1.638683e+001	-1.413261e+002
2244100000.000	-2.482851e+001	8.165463e+001	-2.053568e+001	-1.536241e+002	-2.065426e+001	-1.523820e+002	-1.714717e+001	1.571050e+002
2249000000.000	-2.406575e+001	5.493510e+001	-2.060177e+001	1.623071e+002	-2.056225e+001	1.630122e+002	-1.853389e+001	9.293186e+001
2253900000.000	-2.382977e+001	2.786965e+001	-2.071388e+001	1.175821e+002	-2.069885e+001	1.175508e+002	-2.038935e+001	2.468319e+001
2258800000.000	-2.388495e+001	1.197374e+000	-2.086893e+001	7.327697e+001	-2.094887e+001	7.328924e+001	-2.172903e+001	-4.440095e+001
2263700000.000	-2.383469e+001	-2.579137e+001	-2.100450e+001	2.968845e+001	-2.109080e+001	3.048019e+001	-2.235017e+001	-1.097961e+002
2268600000.000	-2.324135e+001	-5.502927e+001	-2.091802e+001	-1.330593e+001	-2.082986e+001	-1.201116e+001	-2.298252e+001	-1.725139e+002
2273500000.000	-2.211601e+001	-8.951292e+001	-2.059075e+001	-5.856407e+001	-2.030735e+001	-5.819483e+001	-2.498588e+001	1.220327e+002
2278400000.000	-2.117388e+001	-1.251529e+002	-2.063903e+001	-1.055863e+002	-2.039188e+001	-1.067687e+002	-3.099410e+001	6.108042e+001
2283300000.000	-2.035651e+001	-1.564095e+002	-2.088371e+001	-1.508490e+002	-2.078116e+001	-1.525758e+002	-4.199893e+001	7.526759e+001
2288200000.000	-1.964971e+001	1.759616e+002	-2.100462e+001	1.645194e+002	-2.100622e+001	1.629344e+002	-3.292539e+001	6.684696e+001
2293100000.000	-1.922673e+001	1.511700e+002	-2.109138e+001	1.194624e+002	-2.115648e+001	1.179825e+002	-2.858341e+001	2.289165e-001
2298000000.000	-1.904189e+001	1.285920e+002	-2.121420e+001	7.446211e+001	-2.137215e+001	7.317227e+001	-2.521097e+001	-6.965289e+001
2302900000.000	-1.896551e+001	1.070458e+002	-2.138149e+001	2.958119e+001	-2.159834e+001	2.912200e+001	-2.255758e+001	-1.342048e+002
2307800000.000	-1.899229e+001	8.542822e+001	-2.151286e+001	-1.493969e+001	-2.167237e+001	-1.464357e+001	-2.091174e+001	1.632804e+002
2312700000.000	-1.917724e+001	6.345524e+001	-2.163509e+001	-5.987505e+001	-2.167910e+001	-5.945127e+001	-1.998141e+001	9.831722e+001
2317600000.000	-1.960983e+001	4.139036e+001	-2.182660e+001	-1.046787e+002	-2.183379e+001	-1.048760e+002	-1.921825e+001	3.019358e+001
2322500000.000	-2.034216e+001	1.953681e+001	-2.203912e+001	-1.491270e+002	-2.216527e+001	-1.495026e+002	-1.852406e+001	-3.761393e+001
2327400000.000	-2.147515e+001	-2.844459e+000	-2.227627e+001	1.667082e+002	-2.247594e+001	1.673852e+002	-1.805436e+001	-1.028745e+002
2332300000.000	-2.298652e+001	-2.724466e+001	-2.252525e+001	1.232881e+002	-2.255817e+001	1.251198e+002	-1.743832e+001	-1.674397e+002
2337200000.000	-2.483263e+001	-5.656541e+001	-2.269770e+001	8.060554e+001	-2.241853e+001	8.206853e+001	-1.643272e+001	1.268226e+002
2342100000.000	-2.636013e+001	-9.586519e+001	-2.273807e+001	3.827893e+001	-2.231379e+001	3.770695e+001	-1.535563e+001	6.030079e+001
2347000000.000	-2.658434e+001	-1.433178e+002	-2.250390e+001	-3.371292e+000	-2.230621e+001	-6.153895e+000	-1.470044e+001	-8.603310e+000
2351900000.000	-2.573595e+001	1.745421e+002	-2.192702e+001	-4.836008e+001	-2.212865e+001	-5.090088e+001	-1.468380e+001	-8.093747e+001
2356800000.000	-2.478602e+001	1.451603e+002	-2.190227e+001	-9.570595e+001	-2.221854e+001	-9.608495e+001	-1.498260e+001	-1.504271e+002
2361700000.000	-2.375070e+001	1.232284e+002	-2.212758e+001	-1.410301e+002	-2.223803e+001	-1.400698e+002	-1.501270e+001	1.442934e+002
2366600000.000	-2.252939e+001	1.020592e+002	-2.230167e+001	1.751751e+002	-2.216926e+001	1.753933e+002	-1.538091e+001	7.848877e+001
2371500000.000	-2.131476e+001	7.766190e+001	-2.225879e+001	1.318691e+002	-2.221383e+001	1.302028e+002	-1.625719e+001	9.855923e+000
2376400000.000	-2.045916e+001	5.009052e+001	-2.206883e+001	8.770300e+001	-2.238380e+001	8.604678e+001	-1.695300e+001	-5.765758e+001
2381300000.000	-1.996187e+001	2.178256e+001	-2.193369e+001	4.232096e+001	-2.240244e+001	4.297065e+001	-1.732450e+001	-1.194803e+002
2386200000.000	-1.971311e+001	-5.810924e+000	-2.194042e+001	-3.239717e+000	-2.218190e+001	-3.200511e-001	-1.786121e+001	-1.764884e+002
2391100000.000	-1.960592e+001	-3.311256e+001	-2.195787e+001	-4.788508e+001	-2.181029e+001	-4.500532e+001	-1.885215e+001	1.239727e+002
2396000000.000	-1.971740e+001	-6.102779e+001	-2.183591e+001	-9.287173e+001	-2.148454e+001	-9.176953e+001	-2.003627e+001	5.801658e+001
2400900000.000	-1.994986e+001	-8.975772e+001	-2.173844e+001	-1.390720e+002	-2.146118e+001	-1.395243e+002	-2.092256e+001	-9.594823e+000
2405800000.000	-2.008892e+001	-1.191462e+002	-2.186481e+001	1.743152e+002	-2.171857e+001	1.734414e+002	-2.213723e+001	-6.989258e+001
2410700000.000	-1.992881e+001	-1.481259e+002	-2.210680e+001	1.289777e+002	-2.202262e+001	1.279809e+002	-2.377455e+001	-1.200686e+002
2415600000.000	-1.942204e+001	-1.755382e+002	-2.226479e+001	8.428668e+001	-2.223049e+001	8.332223e+001	-2.477248e+001	-1.665665e+002
2420500000.000	-1.876627e+001	1.586982e+002	-2.234152e+001	3.957868e+001	-2.233856e+001	3.867664e+001	-2.450126e+001	1.458372e+002
2425400000.000	-1.818680e+001	1.339539e+002	-2.237328e+001	-5.819086e+000	-2.237038e+001	-6.643000e+000	-2.313030e+001	9.636166e+001
2430300000.000	-1.786263e+001	1.096505e+002	-2.251480e+001	-5.190908e+001	-2.250065e+001	-5.301619e+001	-2.159575e+001	4.368719e+001
2435200000.000	-1.776128e+001	8.563270e+001	-2.281691e+001	-9.785150e+001	-2.290910e+001	-9.965708e+001	-2.060509e+001	-1.427471e+001
