!Agilent Technologies,E5061B,MY49305579,A.02.22
!Date: Thu Aug 24 16:28:10 2017
!Data & Calibration Information:
!Freq	S11:SOLT2(ON)	S21:SOLT2(ON)	S12:SOLT2(ON)	S22:SOLT2(ON)
# Hz S dB R 50
1710000000.000	-1.851872e+001	1.672581e+002	-2.034068e+001	6.737811e+001	-2.045969e+001	6.706072e+001	-2.782665e+001	-1.397161e+002
1714900000.000	-1.872582e+001	1.480442e+002	-2.045270e+001	2.314166e+001	-2.053919e+001	2.298089e+001	-3.005103e+001	1.492521e+002
1719800000.000	-1.921217e+001	1.278213e+002	-2.053083e+001	-2.140931e+001	-2.061998e+001	-2.113263e+001	-3.641606e+001	4.437677e+001
1724700000.000	-2.001037e+001	1.066229e+002	-2.066865e+001	-6.621170e+001	-2.065448e+001	-6.564517e+001	-2.887951e+001	-9.020257e+001
1729600000.000	-2.131702e+001	8.461686e+001	-2.086924e+001	-1.096883e+002	-2.083656e+001	-1.097091e+002	-2.503908e+001	-1.573656e+002
1734500000.000	-2.317626e+001	6.108106e+001	-2.075582e+001	-1.526593e+002	-2.080602e+001	-1.527033e+002	-2.313391e+001	1.542604e+002
1739400000.000	-2.572442e+001	3.403116e+001	-2.063719e+001	1.627899e+002	-2.064346e+001	1.633598e+002	-2.307988e+001	9.691724e+001
1744300000.000	-2.871032e+001	-3.802735e-002	-2.060518e+001	1.186912e+002	-2.050442e+001	1.187441e+002	-2.420941e+001	2.374371e+001
1749200000.000	-3.088129e+001	-4.462932e+001	-2.040452e+001	7.504637e+001	-2.040578e+001	7.408762e+001	-2.323705e+001	-5.875371e+001
1754100000.000	-3.089483e+001	-8.843329e+001	-2.006480e+001	2.963108e+001	-2.025836e+001	2.981473e+001	-2.087169e+001	-1.266565e+002
1759000000.000	-2.979702e+001	-1.200331e+002	-1.995535e+001	-1.687654e+001	-1.997803e+001	-1.502648e+001	-1.968603e+001	1.748504e+002
1763900000.000	-2.896571e+001	-1.434953e+002	-1.995493e+001	-6.202569e+001	-1.968367e+001	-6.135326e+001	-1.984470e+001	1.144622e+002
1768800000.000	-2.871343e+001	-1.650885e+002	-1.973529e+001	-1.070967e+002	-1.958644e+001	-1.086313e+002	-2.048501e+001	4.441206e+001
1773700000.000	-2.930693e+001	1.744318e+002	-1.950714e+001	-1.541610e+002	-1.970209e+001	-1.551864e+002	-2.004090e+001	-3.040557e+001
1778600000.000	-3.075540e+001	1.532281e+002	-1.963366e+001	1.583792e+002	-1.981173e+001	1.593528e+002	-1.870485e+001	-9.813793e+001
1783500000.000	-3.389370e+001	1.303561e+002	-1.984838e+001	1.131199e+002	-1.977609e+001	1.142531e+002	-1.765872e+001	-1.596154e+002
1788400000.000	-4.077628e+001	1.043769e+002	-1.975316e+001	6.810614e+001	-1.964989e+001	6.817171e+001	-1.730196e+001	1.378490e+002
1793300000.000	-4.716836e+001	-7.022388e+001	-1.968104e+001	2.081649e+001	-1.964206e+001	2.096722e+001	-1.768699e+001	6.934652e+001
1798200000.000	-3.492332e+001	-1.036398e+002	-1.996676e+001	-2.605426e+001	-1.984098e+001	-2.604934e+001	-1.811956e+001	-4.003583e+000
1803100000.000	-3.006116e+001	-1.224871e+002	-2.018491e+001	-7.094759e+001	-2.012450e+001	-7.195154e+001	-1.787918e+001	-7.641888e+001
1808000000.000	-2.713768e+001	-1.392631e+002	-2.014341e+001	-1.169999e+002	-2.030121e+001	-1.172272e+002	-1.743719e+001	-1.433445e+002
1812900000.000	-2.531981e+001	-1.550093e+002	-2.041335e+001	-1.649628e+002	-2.040902e+001	-1.635399e+002	-1.772394e+001	1.510802e+002
1817800000.000	-2.450858e+001	-1.698038e+002	-2.105980e+001	1.503505e+002	-2.074758e+001	1.504696e+002	-1.951050e+001	8.029947e+001
1822700000.000	-2.390290e+001	1.786286e+002	-2.124527e+001	1.061642e+002	-2.112537e+001	1.039890e+002	-2.164863e+001	2.385680e+000
1827600000.000	-2.353794e+001	1.651491e+002	-2.151648e+001	6.040452e+001	-2.172791e+001	5.919087e+001	-2.273744e+001	-7.690307e+001
1832500000.000	-2.349226e+001	1.496890e+002	-2.214226e+001	1.597504e+001	-2.228530e+001	1.634093e+001	-2.412054e+001	-1.483893e+002
1837400000.000	-2.384209e+001	1.317732e+002	-2.254142e+001	-2.577984e+001	-2.257127e+001	-2.563461e+001	-2.832073e+001	1.393721e+002
1842300000.000	-2.456773e+001	1.110199e+002	-2.267557e+001	-6.811906e+001	-2.276184e+001	-6.794596e+001	-3.548535e+001	1.997088e+001
1847200000.000	-2.568000e+001	8.785301e+001	-2.275468e+001	-1.105201e+002	-2.278828e+001	-1.097994e+002	-2.966833e+001	-1.036884e+002
1852100000.000	-2.720147e+001	6.002586e+001	-2.285375e+001	-1.529192e+002	-2.279348e+001	-1.523938e+002	-2.587216e+001	-1.738306e+002
1857000000.000	-2.922677e+001	2.611129e+001	-2.271490e+001	1.652023e+002	-2.268443e+001	1.653930e+002	-2.442951e+001	1.183833e+002
1861900000.000	-3.115331e+001	-1.882881e+001	-2.247101e+001	1.217854e+002	-2.240403e+001	1.223284e+002	-2.382546e+001	4.285934e+001
1866800000.000	-3.130965e+001	-7.171733e+001	-2.234095e+001	7.806614e+001	-2.221970e+001	7.797614e+001	-2.286246e+001	-3.918485e+001
1871700000.000	-2.947514e+001	-1.115733e+002	-2.210969e+001	3.504472e+001	-2.211664e+001	3.440276e+001	-2.081521e+001	-1.131663e+002
1876600000.000	-2.729377e+001	-1.384422e+002	-2.171177e+001	-9.621597e+000	-2.179902e+001	-9.040187e+000	-1.907791e+001	-1.771133e+002
1881500000.000	-2.562024e+001	-1.589958e+002	-2.160075e+001	-5.543089e+001	-2.141515e+001	-5.416845e+001	-1.845777e+001	1.207640e+002
1886400000.000	-2.457022e+001	-1.762219e+002	-2.154887e+001	-9.958798e+001	-2.118390e+001	-1.008372e+002	-1.876385e+001	5.238855e+001
1891300000.000	-2.410243e+001	1.672384e+002	-2.121068e+001	-1.444392e+002	-2.124071e+001	-1.474820e+002	-1.869867e+001	-2.243591e+001
1896200000.000	-2.437398e+001	1.509549e+002	-2.115475e+001	1.683885e+002	-2.157581e+001	1.674325e+002	-1.779326e+001	-9.238069e+001
1901100000.000	-2.544823e+001	1.376230e+002	-2.132470e+001	1.251058e+002	-2.156009e+001	1.267311e+002	-1.693199e+001	-1.492522e+002
1906000000.000	-2.622295e+001	1.236500e+002	-2.099449e+001	8.026538e+001	-2.085279e+001	8.165005e+001	-1.602663e+001	1.512825e+002
1910900000.000	-2.795682e+001	1.046981e+002	-2.069997e+001	3.426443e+001	-2.055142e+001	3.360065e+001	-1.599245e+001	8.431162e+001
1915800000.000	-3.115331e+001	8.276239e+001	-2.069186e+001	-1.426290e+001	-2.077157e+001	-1.507680e+001	-1.610594e+001	1.137172e+001
1920700000.000	-3.793293e+001	5.750153e+001	-2.131561e+001	-5.941668e+001	-2.140617e+001	-5.919859e+001	-1.600502e+001	-5.671459e+001
1925600000.000	-5.435826e+001	-7.943041e+001	-2.137689e+001	-1.014540e+002	-2.140652e+001	-1.010752e+002	-1.522154e+001	-1.206849e+002
1930500000.000	-3.719908e+001	-1.419198e+002	-2.106088e+001	-1.450021e+002	-2.109522e+001	-1.442039e+002	-1.468480e+001	1.747465e+002
1935400000.000	-3.180115e+001	-1.616300e+002	-2.082932e+001	1.692457e+002	-2.069372e+001	1.705892e+002	-1.453703e+001	1.084273e+002
1940300000.000	-2.924940e+001	-1.786734e+002	-2.077314e+001	1.237366e+002	-2.038703e+001	1.234361e+002	-1.464782e+001	3.950709e+001
1945200000.000	-2.782992e+001	1.680894e+002	-2.058882e+001	7.853412e+001	-2.045678e+001	7.580437e+001	-1.497429e+001	-3.166151e+001
1950100000.000	-2.675305e+001	1.573700e+002	-2.036320e+001	3.168179e+001	-2.067550e+001	3.015318e+001	-1.510447e+001	-1.011242e+002
1955000000.000	-2.594257e+001	1.456722e+002	-2.048149e+001	-1.614922e+001	-2.069246e+001	-1.481377e+001	-1.509084e+001	-1.676287e+002
1959900000.000	-2.555581e+001	1.331794e+002	-2.076488e+001	-6.163482e+001	-2.058705e+001	-6.072679e+001	-1.566881e+001	1.259273e+002
1964800000.000	-2.521043e+001	1.202162e+002	-2.076053e+001	-1.070297e+002	-2.064110e+001	-1.082981e+002	-1.748829e+001	5.552359e+001
1969700000.000	-2.510942e+001	1.041772e+002	-2.084748e+001	-1.543893e+002	-2.100823e+001	-1.552933e+002	-2.019466e+001	-2.150159e+001
1974600000.000	-2.517135e+001	8.576342e+001	-2.132117e+001	1.585757e+002	-2.145497e+001	1.590972e+002	-2.233871e+001	-1.017566e+002
1979500000.000	-2.558360e+001	6.326799e+001	-2.186409e+001	1.136342e+002	-2.188587e+001	1.141568e+002	-2.400804e+001	-1.765209e+002
1984400000.000	-2.704238e+001	3.731861e+001	-2.262067e+001	6.941583e+001	-2.261928e+001	6.984376e+001	-2.785149e+001	1.095294e+002
1989300000.000	-2.875964e+001	2.152179e+001	-2.288571e+001	3.122119e+001	-2.286765e+001	3.157815e+001	-4.114264e+001	-1.186372e+001
1994200000.000	-2.902319e+001	-5.042036e+000	-2.262660e+001	-1.166972e+001	-2.262540e+001	-1.129057e+001	-3.076166e+001	-1.659730e+002
1999100000.000	-2.949413e+001	-3.818028e+001	-2.254915e+001	-5.539784e+001	-2.250465e+001	-5.450086e+001	-2.587968e+001	1.254289e+002
2004000000.000	-2.894965e+001	-7.098490e+001	-2.253493e+001	-9.864701e+001	-2.232124e+001	-9.832548e+001	-2.398751e+001	5.304739e+001
2008900000.000	-2.731150e+001	-9.956486e+001	-2.236560e+001	-1.420240e+002	-2.214919e+001	-1.431198e+002	-2.247498e+001	-2.508631e+001
2013800000.000	-2.534673e+001	-1.245321e+002	-2.226933e+001	1.734086e+002	-2.230087e+001	1.719530e+002	-2.028525e+001	-9.489966e+001
2018700000.000	-2.384983e+001	-1.449078e+002	-2.222938e+001	1.294920e+002	-2.232288e+001	1.295263e+002	-1.823163e+001	-1.557425e+002
2023600000.000	-2.268262e+001	-1.626698e+002	-2.218707e+001	8.572322e+001	-2.203022e+001	8.619085e+001	-1.705777e+001	1.442437e+002
2028500000.000	-2.201310e+001	-1.794583e+002	-2.197409e+001	4.279619e+001	-2.173161e+001	4.122236e+001	-1.685203e+001	7.809004e+001
2033400000.000	-2.188025e+001	1.647898e+002	-2.154330e+001	-2.111274e+000	-2.163542e+001	-4.836936e+000	-1.683816e+001	5.612881e+000
2038300000.000	-2.214433e+001	1.501518e+002	-2.146704e+001	-4.867950e+001	-2.182626e+001	-4.960701e+001	-1.617112e+001	-6.521465e+001
2043200000.000	-2.265053e+001	1.366488e+002	-2.156889e+001	-9.307689e+001	-2.177965e+001	-9.200318e+001	-1.504025e+001	-1.300529e+002
2048100000.000	-2.325775e+001	1.234498e+002	-2.140296e+001	-1.363075e+002	-2.136815e+001	-1.352884e+002	-1.415227e+001	1.668921e+002
2053000000.000	-2.396368e+001	1.105063e+002	-2.097650e+001	1.788100e+002	-2.084417e+001	1.789362e+002	-1.368327e+001	1.003096e+002
2057900000.000	-2.475520e+001	9.830382e+001	-2.080113e+001	1.317234e+002	-2.064732e+001	1.311205e+002	-1.366729e+001	2.907319e+001
2062800000.000	-2.562492e+001	8.741421e+001	-2.087986e+001	8.608367e+001	-2.085161e+001	8.436304e+001	-1.385101e+001	-4.227733e+001
2067700000.000	-2.638494e+001	7.777747e+001	-2.086459e+001	4.151176e+001	-2.108723e+001	4.025079e+001	-1.381365e+001	-1.105483e+002
2072600000.000	-2.713402e+001	6.508802e+001	-2.075666e+001	-2.408915e+000	-2.100595e+001	-1.273103e+000	-1.348185e+001	-1.749061e+002
2077500000.000	-2.951637e+001	5.220900e+001	-2.028702e+001	-4.734213e+001	-2.009404e+001	-4.531264e+001	-1.283107e+001	1.193446e+002
2082400000.000	-3.308025e+001	4.994090e+001	-1.995356e+001	-9.410804e+001	-1.952037e+001	-9.529518e+001	-1.294895e+001	4.771816e+001
2087300000.000	-3.688565e+001	7.277697e+001	-1.964848e+001	-1.421114e+002	-1.964722e+001	-1.453995e+002	-1.396320e+001	-2.621095e+001
2092200000.000	-3.449584e+001	9.334093e+001	-1.968691e+001	1.684868e+002	-2.004722e+001	1.673218e+002	-1.504238e+001	-9.847640e+001
2097100000.000	-3.271120e+001	9.199896e+001	-2.021599e+001	1.203854e+002	-2.038726e+001	1.212860e+002	-1.630251e+001	-1.665156e+002
2102000000.000	-3.147630e+001	9.069332e+001	-2.055037e+001	7.771653e+001	-2.051928e+001	7.819404e+001	-1.818063e+001	1.345498e+002
2106900000.000	-2.897492e+001	7.567153e+001	-2.032863e+001	3.132678e+001	-2.027473e+001	3.092969e+001	-2.006378e+001	7.089349e+001
2111800000.000	-2.790622e+001	5.148034e+001	-2.038995e+001	-1.618638e+001	-2.043814e+001	-1.676102e+001	-2.242676e+001	2.483429e+000
2116700000.000	-2.778174e+001	2.422335e+001	-2.067859e+001	-6.362892e+001	-2.080108e+001	-6.371017e+001	-2.357477e+001	-7.184780e+001
2121600000.000	-2.930053e+001	9.203416e-001	-2.113559e+001	-1.097581e+002	-2.122237e+001	-1.091149e+002	-2.509011e+001	-1.433032e+002
2126500000.000	-2.799489e+001	-8.573902e+000	-2.140372e+001	-1.549328e+002	-2.140138e+001	-1.540264e+002	-2.932905e+001	1.486431e+002
2131400000.000	-2.584800e+001	-3.776604e+001	-2.172965e+001	1.589687e+002	-2.163291e+001	1.596666e+002	-4.518431e+001	3.090122e+001
2136300000.000	-2.425075e+001	-6.857623e+001	-2.216790e+001	1.133718e+002	-2.204556e+001	1.139129e+002	-3.028858e+001	-1.355342e+002
2141200000.000	-2.269950e+001	-9.760860e+001	-2.265566e+001	6.816254e+001	-2.242901e+001	6.856508e+001	-2.516423e+001	1.599172e+002
2146100000.000	-2.131258e+001	-1.237723e+002	-2.332229e+001	2.373611e+001	-2.297451e+001	2.306192e+001	-2.315904e+001	9.397084e+001
2151000000.000	-2.005858e+001	-1.459673e+002	-2.392194e+001	-1.781087e+001	-2.370630e+001	-2.041589e+001	-2.220145e+001	1.881502e+001
2155900000.000	-1.885651e+001	-1.671304e+002	-2.408944e+001	-5.936019e+001	-2.421973e+001	-6.221887e+001	-2.078228e+001	-5.991299e+001
2160800000.000	-1.808944e+001	1.721451e+002	-2.427086e+001	-1.018231e+002	-2.457822e+001	-1.028578e+002	-1.875859e+001	-1.293324e+002
2165700000.000	-1.770479e+001	1.520693e+002	-2.438110e+001	-1.437828e+002	-2.452041e+001	-1.432433e+002	-1.715664e+001	1.682600e+002
2170600000.000	-1.771100e+001	1.321761e+002	-2.435975e+001	1.737423e+002	-2.428020e+001	1.737555e+002	-1.626897e+001	1.048189e+002
2175500000.000	-1.808399e+001	1.131689e+002	-2.433617e+001	1.305372e+002	-2.429304e+001	1.291809e+002	-1.597569e+001	3.468160e+001
2180400000.000	-1.864871e+001	9.516130e+001	-2.440358e+001	8.712015e+001	-2.455651e+001	8.554693e+001	-1.572571e+001	-3.751695e+001
2185300000.000	-1.933440e+001	7.787033e+001	-2.447505e+001	4.438846e+001	-2.479291e+001	4.390285e+001	-1.513003e+001	-1.051835e+002
2190200000.000	-2.000389e+001	6.211533e+001	-2.447636e+001	2.284618e+000	-2.476515e+001	3.492246e+000	-1.430314e+001	-1.693730e+002
2195100000.000	-2.039785e+001	4.490046e+001	-2.430431e+001	-3.999254e+001	-2.430484e+001	-3.795028e+001	-1.345963e+001	1.255730e+002
2200000000.000	-2.118925e+001	2.450274e+001	-2.421130e+001	-8.330874e+001	-2.393377e+001	-8.257148e+001	-1.286741e+001	5.815399e+001
2204900000.000	-2.244484e+001	1.276835e+000	-2.413026e+001	-1.244191e+002	-2.394525e+001	-1.259049e+002	-1.283223e+001	-9.372130e+000
2209800000.000	-2.466577e+001	-2.585609e+001	-2.347060e+001	-1.662238e+002	-2.361434e+001	-1.677258e+002	-1.303982e+001	-7.615812e+001
2214700000.000	-2.758561e+001	-5.808049e+001	-2.283601e+001	1.487219e+002	-2.305353e+001	1.492737e+002	-1.302451e+001	-1.425166e+002
2219600000.000	-3.026474e+001	-1.018710e+002	-2.245345e+001	1.028835e+002	-2.237341e+001	1.045077e+002	-1.263020e+001	1.506902e+002
2224500000.000	-3.074818e+001	-1.535055e+002	-2.209231e+001	5.734295e+001	-2.175605e+001	5.705924e+001	-1.239083e+001	8.198386e+001
2229400000.000	-2.960493e+001	1.646986e+002	-2.170782e+001	1.090450e+001	-2.158349e+001	8.340947e+000	-1.278236e+001	1.202172e+001
2234300000.000	-2.819016e+001	1.382815e+002	-2.145741e+001	-3.635727e+001	-2.172339e+001	-3.863339e+001	-1.332290e+001	-5.667914e+001
2239200000.000	-2.620512e+001	1.142880e+002	-2.135834e+001	-8.366329e+001	-2.177051e+001	-8.367531e+001	-1.370930e+001	-1.231153e+002
2244100000.000	-2.489440e+001	8.688649e+001	-2.134531e+001	-1.308987e+002	-2.155349e+001	-1.291703e+002	-1.422814e+001	1.720748e+002
2249000000.000	-2.424122e+001	5.954634e+001	-2.141730e+001	-1.780613e+002	-2.134165e+001	-1.768016e+002	-1.545390e+001	1.049065e+002
2253900000.000	-2.401637e+001	3.239956e+001	-2.161540e+001	1.349681e+002	-2.152870e+001	1.348368e+002	-1.764213e+001	3.453788e+001
2258800000.000	-2.405692e+001	5.595923e+000	-2.192273e+001	8.866860e+001	-2.198397e+001	8.837029e+001	-2.008421e+001	-3.482827e+001
2263700000.000	-2.403513e+001	-2.150895e+001	-2.226817e+001	4.365578e+001	-2.235519e+001	4.432661e+001	-2.215475e+001	-9.814478e+001
2268600000.000	-2.351372e+001	-5.087509e+001	-2.250950e+001	-3.048910e-001	-2.244413e+001	7.505252e-001	-2.417029e+001	-1.551752e+002
2273500000.000	-2.246473e+001	-8.533343e+001	-2.251368e+001	-4.403653e+001	-2.229558e+001	-4.361124e+001	-2.713971e+001	1.600405e+002
2278400000.000	-2.146655e+001	-1.208139e+002	-2.243030e+001	-8.921749e+001	-2.220362e+001	-8.990204e+001	-2.858346e+001	1.369886e+002
2283300000.000	-2.053131e+001	-1.525718e+002	-2.242911e+001	-1.349247e+002	-2.227309e+001	-1.362704e+002	-2.639443e+001	1.054680e+002
2288200000.000	-1.973809e+001	1.792016e+002	-2.246082e+001	1.790568e+002	-2.240971e+001	1.773025e+002	-2.408310e+001	5.387680e+001
2293100000.000	-1.923531e+001	1.538814e+002	-2.261396e+001	1.324932e+002	-2.267177e+001	1.305210e+002	-2.234813e+001	-8.809954e+000
2298000000.000	-1.899134e+001	1.307658e+002	-2.291483e+001	8.650280e+001	-2.312624e+001	8.506703e+001	-2.064642e+001	-7.349438e+001
2302900000.000	-1.889830e+001	1.087347e+002	-2.322658e+001	4.120084e+001	-2.349273e+001	4.087271e+001	-1.903688e+001	-1.354280e+002
2307800000.000	-1.890784e+001	8.673616e+001	-2.350477e+001	-3.993766e+000	-2.367715e+001	-3.244699e+000	-1.778247e+001	1.633113e+002
2312700000.000	-1.911023e+001	6.431096e+001	-2.384831e+001	-4.915362e+001	-2.383385e+001	-4.846231e+001	-1.692088e+001	9.873644e+001
2317600000.000	-1.959009e+001	4.204427e+001	-2.423244e+001	-9.393690e+001	-2.419234e+001	-9.431128e+001	-1.637998e+001	3.083428e+001
2322500000.000	-2.041680e+001	2.011251e+001	-2.463338e+001	-1.383968e+002	-2.477151e+001	-1.391500e+002	-1.607326e+001	-3.605642e+001
2327400000.000	-2.161113e+001	-1.947853e+000	-2.513169e+001	1.773404e+002	-2.537308e+001	1.779165e+002	-1.588162e+001	-1.000334e+002
2332300000.000	-2.325848e+001	-2.569248e+001	-2.577457e+001	1.340675e+002	-2.584568e+001	1.361363e+002	-1.556654e+001	-1.630684e+002
2337200000.000	-2.526501e+001	-5.394796e+001	-2.650947e+001	9.361371e+001	-2.625267e+001	9.545111e+001	-1.484111e+001	1.334876e+002
2342100000.000	-2.707054e+001	-9.264167e+001	-2.664557e+001	5.670730e+001	-2.620537e+001	5.645710e+001	-1.388846e+001	6.888387e+001
2347000000.000	-2.756857e+001	-1.406008e+002	-2.605925e+001	1.600699e+001	-2.578221e+001	1.321481e+001	-1.343839e+001	1.545359e+000
2351900000.000	-2.671560e+001	1.769040e+002	-2.584919e+001	-2.833677e+001	-2.599731e+001	-3.123027e+001	-1.362329e+001	-6.537915e+001
2356800000.000	-2.560003e+001	1.476623e+002	-2.598467e+001	-7.139948e+001	-2.637373e+001	-7.230527e+001	-1.353248e+001	-1.299450e+002
2361700000.000	-2.444058e+001	1.259978e+002	-2.606808e+001	-1.122606e+002	-2.632067e+001	-1.109402e+002	-1.290815e+001	1.671787e+002
2366600000.000	-2.306607e+001	1.054250e+002	-2.580188e+001	-1.524937e+002	-2.565354e+001	-1.510150e+002	-1.231382e+001	1.020784e+002
2371500000.000	-2.172091e+001	8.092055e+001	-2.525994e+001	1.664594e+002	-2.500255e+001	1.650079e+002	-1.233425e+001	3.261861e+001
2376400000.000	-2.082047e+001	5.299175e+001	-2.458970e+001	1.236543e+002	-2.478956e+001	1.206134e+002	-1.272950e+001	-3.707659e+001
2381300000.000	-2.029372e+001	2.475772e+001	-2.390130e+001	7.914249e+001	-2.452566e+001	7.874159e+001	-1.291131e+001	-1.015197e+002
2386200000.000	-1.999328e+001	-2.832201e+000	-2.338328e+001	3.338090e+001	-2.381841e+001	3.688634e+001	-1.289318e+001	-1.622739e+002
2391100000.000	-1.990063e+001	-3.009039e+001	-2.300848e+001	-1.211790e+001	-2.280594e+001	-7.789428e+000	-1.295912e+001	1.344536e+002
2396000000.000	-2.000504e+001	-5.722449e+001	-2.253051e+001	-5.745553e+001	-2.197784e+001	-5.647689e+001	-1.330346e+001	6.405182e+001
2400900000.000	-2.015321e+001	-8.523131e+001	-2.202617e+001	-1.042918e+002	-2.170543e+001	-1.058742e+002	-1.413593e+001	-7.506534e+000
2405800000.000	-2.013688e+001	-1.144875e+002	-2.170499e+001	-1.520332e+002	-2.167827e+001	-1.533564e+002	-1.519575e+001	-7.250049e+001
2410700000.000	-1.986950e+001	-1.442215e+002	-2.150919e+001	1.606126e+002	-2.151193e+001	1.602430e+002	-1.628831e+001	-1.334943e+002
2415600000.000	-1.932201e+001	-1.725949e+002	-2.130427e+001	1.131439e+002	-2.122815e+001	1.129144e+002	-1.742975e+001	1.642662e+002
2420500000.000	-1.867342e+001	1.609154e+002	-2.114857e+001	6.468102e+001	-2.103956e+001	6.393648e+001	-1.874815e+001	1.015931e+002
2425400000.000	-1.810575e+001	1.358237e+002	-2.126780e+001	1.574792e+001	-2.119521e+001	1.439767e+001	-2.054662e+001	4.385469e+001
2430300000.000	-1.776710e+001	1.112780e+002	-2.155141e+001	-3.240528e+001	-2.159599e+001	-3.411980e+001	-2.276643e+001	-5.262434e+000
2435200000.000	-1.765412e+001	8.695168e+001	-2.200027e+001	-7.975610e+001	-2.217863e+001	-8.131752e+001	-2.421269e+001	-4.693761e+001
