!Agilent Technologies,E5061B,MY49305579,A.02.22
!Date: Thu Aug 24 16:28:22 2017
!Data & Calibration Information:
!Freq	S11:SOLT2(ON)	S21:SOLT2(ON)	S12:SOLT2(ON)	S22:SOLT2(ON)
# Hz S dB R 50
1710000000.000	-1.899232e+001	1.695349e+002	-1.805077e+001	8.772870e+001	-1.785051e+001	8.513511e+001	-1.415430e+001	8.324470e+001
1714900000.000	-1.909219e+001	1.511868e+002	-1.754089e+001	3.935459e+001	-1.789135e+001	3.756150e+001	-1.344498e+001	8.074956e+000
1719800000.000	-1.943274e+001	1.313411e+002	-1.803046e+001	-9.924241e+000	-1.827600e+001	-8.371968e+000	-1.294039e+001	-6.552608e+001
1724700000.000	-2.016905e+001	1.103181e+002	-1.856666e+001	-5.275246e+001	-1.845797e+001	-5.195780e+001	-1.223831e+001	-1.332091e+002
1729600000.000	-2.139683e+001	8.886905e+001	-1.821695e+001	-9.577955e+001	-1.826972e+001	-9.615354e+001	-1.174144e+001	1.615569e+002
1734500000.000	-2.316979e+001	6.580921e+001	-1.802210e+001	-1.442663e+002	-1.807389e+001	-1.428664e+002	-1.202921e+001	9.324526e+001
1739400000.000	-2.569218e+001	3.997675e+001	-1.858873e+001	1.693476e+002	-1.826972e+001	1.696354e+002	-1.328526e+001	1.909491e+001
1744300000.000	-2.885327e+001	7.393624e+000	-1.875347e+001	1.269893e+002	-1.871508e+001	1.244834e+002	-1.449433e+001	-5.711855e+001
1749200000.000	-3.158658e+001	-3.601997e+001	-1.850259e+001	8.235586e+001	-1.893387e+001	8.180857e+001	-1.501902e+001	-1.271215e+002
1754100000.000	-3.213693e+001	-8.183996e+001	-1.861181e+001	3.576683e+001	-1.875269e+001	3.851364e+001	-1.578739e+001	1.691808e+002
1759000000.000	-3.116665e+001	-1.154234e+002	-1.886306e+001	-7.875685e+000	-1.853877e+001	-6.570764e+000	-1.783028e+001	1.054274e+002
1763900000.000	-3.032913e+001	-1.382390e+002	-1.868890e+001	-5.097786e+001	-1.851256e+001	-5.234638e+001	-2.126863e+001	3.468484e+001
1768800000.000	-3.005199e+001	-1.579543e+002	-1.844638e+001	-9.630235e+001	-1.855647e+001	-9.713371e+001	-2.454814e+001	-4.336972e+001
1773700000.000	-3.063587e+001	-1.753944e+002	-1.842493e+001	-1.415089e+002	-1.851560e+001	-1.411927e+002	-2.686729e+001	-1.117716e+002
1778600000.000	-3.209823e+001	1.688156e+002	-1.829462e+001	1.739405e+002	-1.830267e+001	1.742709e+002	-3.130296e+001	-1.537799e+002
1783500000.000	-3.486796e+001	1.585613e+002	-1.811526e+001	1.286054e+002	-1.811290e+001	1.289647e+002	-3.283266e+001	-1.315595e+002
1788400000.000	-3.877593e+001	1.650959e+002	-1.800090e+001	8.333536e+001	-1.795950e+001	8.366434e+001	-2.609775e+001	-1.547955e+002
1793300000.000	-3.951509e+001	-1.597993e+002	-1.777945e+001	3.827460e+001	-1.774823e+001	3.839613e+001	-2.258060e+001	1.547081e+002
1798200000.000	-3.527539e+001	-1.434874e+002	-1.750554e+001	-8.265674e+000	-1.746598e+001	-7.843406e+000	-2.079246e+001	9.318719e+001
1803100000.000	-3.184308e+001	-1.448868e+002	-1.752437e+001	-5.522015e+001	-1.733255e+001	-5.509684e+001	-1.939846e+001	2.343277e+001
1808000000.000	-2.935895e+001	-1.513957e+002	-1.754650e+001	-1.003700e+002	-1.742437e+001	-1.020031e+002	-1.762744e+001	-4.711195e+001
1812900000.000	-2.759570e+001	-1.597643e+002	-1.728117e+001	-1.461727e+002	-1.753346e+001	-1.475116e+002	-1.570926e+001	-1.119219e+002
1817800000.000	-2.664397e+001	-1.680547e+002	-1.724416e+001	1.654641e+002	-1.748992e+001	1.673951e+002	-1.422929e+001	-1.733218e+002
1822700000.000	-2.557397e+001	-1.750203e+002	-1.766397e+001	1.192831e+002	-1.727598e+001	1.215119e+002	-1.325785e+001	1.226585e+002
1827600000.000	-2.467942e+001	1.742985e+002	-1.770134e+001	7.626141e+001	-1.720364e+001	7.355073e+001	-1.271522e+001	5.309685e+001
1832500000.000	-2.418200e+001	1.604256e+002	-1.728236e+001	3.021293e+001	-1.757867e+001	2.606485e+001	-1.229287e+001	-1.738132e+001
1837400000.000	-2.407486e+001	1.437431e+002	-1.739631e+001	-1.885607e+001	-1.802575e+001	-1.820286e+001	-1.176536e+001	-8.335487e+001
1842300000.000	-2.438934e+001	1.239860e+002	-1.804367e+001	-6.375241e+001	-1.810093e+001	-6.038101e+001	-1.117204e+001	-1.455787e+002
1847200000.000	-2.507945e+001	1.022177e+002	-1.794485e+001	-1.046897e+002	-1.761686e+001	-1.039767e+002	-1.043411e+001	1.503289e+002
1852100000.000	-2.621762e+001	7.636748e+001	-1.724176e+001	-1.507213e+002	-1.719329e+001	-1.515980e+002	-1.017821e+001	8.071339e+001
1857000000.000	-2.789883e+001	4.650835e+001	-1.729204e+001	1.590962e+002	-1.727775e+001	1.595447e+002	-1.049754e+001	8.835611e+000
1861900000.000	-2.994998e+001	8.060697e+000	-1.791778e+001	1.140200e+002	-1.774934e+001	1.134010e+002	-1.095314e+001	-6.049010e+001
1866800000.000	-3.156949e+001	-4.098863e+001	-1.778094e+001	7.189106e+001	-1.795735e+001	7.034961e+001	-1.096480e+001	-1.258630e+002
1871700000.000	-3.031537e+001	-8.556731e+001	-1.726579e+001	2.487823e+001	-1.762060e+001	2.672810e+001	-1.067833e+001	1.707971e+002
1876600000.000	-2.773330e+001	-1.185125e+002	-1.749329e+001	-2.431552e+001	-1.718631e+001	-2.049171e+001	-1.065485e+001	1.056208e+002
1881500000.000	-2.547663e+001	-1.426232e+002	-1.794668e+001	-6.876029e+001	-1.717438e+001	-6.998756e+001	-1.131486e+001	3.623720e+001
1886400000.000	-2.388077e+001	-1.632761e+002	-1.775193e+001	-1.128697e+002	-1.768308e+001	-1.180432e+002	-1.220008e+001	-3.423917e+001
1891300000.000	-2.304701e+001	1.775713e+002	-1.758641e+001	-1.609109e+002	-1.820706e+001	-1.627539e+002	-1.255194e+001	-1.002258e+002
1896200000.000	-2.296071e+001	1.590415e+002	-1.800380e+001	1.510623e+002	-1.831756e+001	1.537071e+002	-1.266805e+001	-1.615628e+002
1901100000.000	-2.340627e+001	1.425930e+002	-1.855454e+001	1.063114e+002	-1.828269e+001	1.079079e+002	-1.322740e+001	1.375416e+002
1906000000.000	-2.398056e+001	1.235749e+002	-1.864485e+001	6.321079e+001	-1.845659e+001	6.161721e+001	-1.431153e+001	7.179345e+001
1910900000.000	-2.548074e+001	1.004863e+002	-1.861593e+001	1.689528e+001	-1.880466e+001	1.555015e+001	-1.556661e+001	1.975566e+000
1915800000.000	-2.808121e+001	7.394178e+001	-1.903913e+001	-2.931317e+001	-1.923120e+001	-2.885608e+001	-1.640380e+001	-6.476551e+001
1920700000.000	-3.244102e+001	4.023090e+001	-1.951997e+001	-7.265700e+001	-1.955610e+001	-7.188491e+001	-1.704088e+001	-1.258445e+002
1925600000.000	-3.773226e+001	-1.987766e+001	-1.961401e+001	-1.149507e+002	-1.960485e+001	-1.143315e+002	-1.801081e+001	1.761698e+002
1930500000.000	-3.523432e+001	-1.014219e+002	-1.955827e+001	-1.587112e+002	-1.950191e+001	-1.579100e+002	-1.938206e+001	1.182832e+002
1935400000.000	-3.064636e+001	-1.417614e+002	-1.957779e+001	1.573965e+002	-1.940099e+001	1.578217e+002	-2.124825e+001	6.090489e+001
1940300000.000	-2.802670e+001	-1.661645e+002	-1.951658e+001	1.136580e+002	-1.931807e+001	1.129682e+002	-2.311433e+001	4.586614e+000
1945200000.000	-2.640129e+001	1.752299e+002	-1.939327e+001	6.939504e+001	-1.932687e+001	6.797905e+001	-2.428602e+001	-4.868452e+001
1950100000.000	-2.536765e+001	1.596757e+002	-1.928977e+001	2.460993e+001	-1.937520e+001	2.340926e+001	-2.390685e+001	-9.798565e+001
1955000000.000	-2.476851e+001	1.446058e+002	-1.922785e+001	-2.048606e+001	-1.938324e+001	-2.072611e+001	-2.248805e+001	-1.441310e+002
1959900000.000	-2.468530e+001	1.297593e+002	-1.925529e+001	-6.525174e+001	-1.932322e+001	-6.463314e+001	-2.095650e+001	1.699463e+002
1964800000.000	-2.476291e+001	1.156934e+002	-1.919690e+001	-1.092030e+002	-1.912512e+001	-1.089700e+002	-1.992907e+001	1.190464e+002
1969700000.000	-2.497827e+001	9.990030e+001	-1.897544e+001	-1.537714e+002	-1.893064e+001	-1.544456e+002	-1.967579e+001	6.065964e+001
1974600000.000	-2.530847e+001	8.260477e+001	-1.880034e+001	1.603027e+002	-1.890588e+001	1.596572e+002	-1.955076e+001	-4.602861e+000
1979500000.000	-2.588938e+001	6.162088e+001	-1.884607e+001	1.143917e+002	-1.896570e+001	1.145885e+002	-1.883883e+001	-7.132461e+001
1984400000.000	-2.734196e+001	3.857936e+001	-1.889152e+001	6.965025e+001	-1.895712e+001	7.017842e+001	-1.753574e+001	-1.337642e+002
1989300000.000	-2.847545e+001	2.394214e+001	-1.876058e+001	2.596505e+001	-1.881656e+001	2.669399e+001	-1.626886e+001	1.654663e+002
1994200000.000	-2.860786e+001	-4.007243e+000	-1.842864e+001	-2.015444e+001	-1.837520e+001	-1.877696e+001	-1.558628e+001	1.034253e+002
1999100000.000	-2.898607e+001	-3.709960e+001	-1.847118e+001	-6.691978e+001	-1.818167e+001	-6.623871e+001	-1.544956e+001	3.809411e+001
2004000000.000	-2.849741e+001	-6.989692e+001	-1.854407e+001	-1.116978e+002	-1.830170e+001	-1.132543e+002	-1.543890e+001	-2.913180e+001
2008900000.000	-2.698633e+001	-9.778398e+001	-1.837143e+001	-1.560433e+002	-1.848882e+001	-1.577979e+002	-1.504122e+001	-9.354009e+001
2013800000.000	-2.494680e+001	-1.226701e+002	-1.803541e+001	1.572235e+002	-1.825207e+001	1.579858e+002	-1.418597e+001	-1.535341e+002
2018700000.000	-2.342077e+001	-1.437511e+002	-1.811604e+001	1.099654e+002	-1.790593e+001	1.119264e+002	-1.350821e+001	1.463203e+002
2023600000.000	-2.223709e+001	-1.623002e+002	-1.813229e+001	6.491954e+001	-1.761590e+001	6.361002e+001	-1.339098e+001	8.135550e+001
2028500000.000	-2.158715e+001	1.799684e+002	-1.784662e+001	1.843194e+001	-1.778526e+001	1.430310e+001	-1.373780e+001	1.091974e+001
2033400000.000	-2.149569e+001	1.635116e+002	-1.781297e+001	-3.048544e+001	-1.827008e+001	-3.274565e+001	-1.374963e+001	-5.835575e+001
2038300000.000	-2.183336e+001	1.483224e+002	-1.826311e+001	-7.845711e+001	-1.862903e+001	-7.728233e+001	-1.328431e+001	-1.222976e+002
2043200000.000	-2.236799e+001	1.342281e+002	-1.864190e+001	-1.230615e+002	-1.861542e+001	-1.214439e+002	-1.277049e+001	1.762321e+002
2048100000.000	-2.304990e+001	1.203041e+002	-1.861032e+001	-1.681129e+002	-1.843253e+001	-1.679814e+002	-1.257797e+001	1.121284e+002
2053000000.000	-2.382104e+001	1.067442e+002	-1.867658e+001	1.445037e+002	-1.856004e+001	1.437188e+002	-1.279955e+001	4.355559e+001
2057900000.000	-2.474691e+001	9.340609e+001	-1.908243e+001	9.811069e+001	-1.904543e+001	9.683697e+001	-1.308232e+001	-2.578178e+001
2062800000.000	-2.591701e+001	8.137959e+001	-1.931894e+001	5.341274e+001	-1.947661e+001	5.208611e+001	-1.319833e+001	-9.429076e+001
2067700000.000	-2.713656e+001	7.155670e+001	-1.936083e+001	7.979433e+000	-1.962125e+001	8.329907e+000	-1.319677e+001	-1.590894e+002
2072600000.000	-2.864639e+001	6.081653e+001	-1.948788e+001	-3.979305e+001	-1.945561e+001	-3.783850e+001	-1.304036e+001	1.357277e+002
2077500000.000	-3.159601e+001	5.479657e+001	-2.016475e+001	-8.621904e+001	-1.977804e+001	-8.608641e+001	-1.359173e+001	6.729712e+001
2082400000.000	-3.477705e+001	6.378048e+001	-2.064085e+001	-1.301553e+002	-2.045089e+001	-1.327981e+002	-1.488918e+001	-2.062915e+000
2087300000.000	-3.602852e+001	9.194392e+001	-2.100561e+001	-1.742231e+002	-2.122025e+001	-1.763764e+002	-1.615726e+001	-7.130962e+001
2092200000.000	-3.294196e+001	1.011224e+002	-2.135845e+001	1.418030e+002	-2.161311e+001	1.419739e+002	-1.694574e+001	-1.374606e+002
2097100000.000	-3.127597e+001	9.593231e+001	-2.169795e+001	9.870583e+001	-2.171821e+001	9.951008e+001	-1.776116e+001	1.586446e+002
2102000000.000	-2.990592e+001	9.042314e+001	-2.187034e+001	5.681740e+001	-2.179404e+001	5.662498e+001	-1.954369e+001	9.287825e+001
2106900000.000	-2.785476e+001	7.343466e+001	-2.166031e+001	1.305559e+001	-2.168466e+001	1.224818e+001	-2.226634e+001	1.923330e+001
2111800000.000	-2.696949e+001	4.922486e+001	-2.175720e+001	-3.266510e+001	-2.187397e+001	-3.301513e+001	-2.448653e+001	-6.351739e+001
2116700000.000	-2.680856e+001	2.269685e+001	-2.199192e+001	-7.742585e+001	-2.210454e+001	-7.702998e+001	-2.600276e+001	-1.446625e+002
2121600000.000	-2.784755e+001	-2.665319e+000	-2.231761e+001	-1.220824e+002	-2.234324e+001	-1.212642e+002	-2.950671e+001	1.306668e+002
2126500000.000	-2.726046e+001	-1.604177e+001	-2.275549e+001	-1.645884e+002	-2.272362e+001	-1.640886e+002	-3.244116e+001	3.773656e-001
2131400000.000	-2.542188e+001	-4.263329e+001	-2.288421e+001	1.539738e+002	-2.285558e+001	1.544650e+002	-2.664845e+001	-1.027006e+002
2136300000.000	-2.389830e+001	-7.186614e+001	-2.284783e+001	1.120086e+002	-2.274139e+001	1.131138e+002	-2.299641e+001	-1.723810e+002
2141200000.000	-2.235811e+001	-9.978831e+001	-2.267966e+001	6.993440e+001	-2.235956e+001	7.058297e+001	-2.119240e+001	1.215435e+002
2146100000.000	-2.094335e+001	-1.256965e+002	-2.236582e+001	2.674156e+001	-2.196454e+001	2.519775e+001	-2.058243e+001	4.986183e+001
2151000000.000	-1.976764e+001	-1.481692e+002	-2.209692e+001	-1.722845e+001	-2.199867e+001	-2.046591e+001	-2.001440e+001	-2.648592e+001
2155900000.000	-1.867529e+001	-1.692439e+002	-2.184951e+001	-6.198135e+001	-2.209503e+001	-6.421648e+001	-1.852970e+001	-9.950780e+001
2160800000.000	-1.796132e+001	1.703151e+002	-2.172047e+001	-1.067176e+002	-2.196878e+001	-1.067539e+002	-1.688562e+001	-1.642218e+002
2165700000.000	-1.761661e+001	1.503408e+002	-2.153745e+001	-1.503807e+002	-2.152150e+001	-1.500381e+002	-1.562331e+001	1.329450e+002
2170600000.000	-1.763488e+001	1.305267e+002	-2.106229e+001	1.646426e+002	-2.095923e+001	1.635783e+002	-1.508343e+001	6.310600e+001
2175500000.000	-1.798604e+001	1.112781e+002	-2.078278e+001	1.173486e+002	-2.087717e+001	1.154166e+002	-1.525859e+001	-1.111413e+001
2180400000.000	-1.856802e+001	9.266749e+001	-2.078763e+001	7.055131e+001	-2.107678e+001	6.957186e+001	-1.505022e+001	-8.138749e+001
2185300000.000	-1.933715e+001	7.476832e+001	-2.076905e+001	2.481171e+001	-2.106843e+001	2.537483e+001	-1.446108e+001	-1.467373e+002
2190200000.000	-2.013275e+001	5.864083e+001	-2.066985e+001	-2.171867e+001	-2.077979e+001	-1.996091e+001	-1.387074e+001	1.483068e+002
2195100000.000	-2.066914e+001	4.120568e+001	-2.079311e+001	-6.884427e+001	-2.063780e+001	-6.762601e+001	-1.360552e+001	8.134425e+001
2200000000.000	-2.159835e+001	2.050759e+001	-2.110885e+001	-1.138954e+002	-2.091249e+001	-1.144932e+002	-1.369502e+001	1.389792e+001
2204900000.000	-2.310044e+001	-4.076184e+000	-2.093648e+001	-1.575755e+002	-2.098355e+001	-1.589507e+002	-1.402471e+001	-5.344272e+001
2209800000.000	-2.594447e+001	-3.263436e+001	-2.072000e+001	1.545125e+002	-2.091073e+001	1.545844e+002	-1.442564e+001	-1.216715e+002
2214700000.000	-2.955763e+001	-6.592905e+001	-2.101174e+001	1.068092e+002	-2.099572e+001	1.082088e+002	-1.459001e+001	1.707416e+002
2219600000.000	-3.247928e+001	-1.149745e+002	-2.137041e+001	6.108006e+001	-2.110449e+001	6.129524e+001	-1.466608e+001	1.028144e+002
2224500000.000	-3.206142e+001	-1.697963e+002	-2.159975e+001	1.578136e+001	-2.140135e+001	1.389268e+001	-1.533669e+001	3.429598e+001
2229400000.000	-3.038568e+001	1.513248e+002	-2.179196e+001	-2.995813e+001	-2.191784e+001	-3.225935e+001	-1.641911e+001	-3.344781e+001
2234300000.000	-2.914274e+001	1.284843e+002	-2.219037e+001	-7.647333e+001	-2.249179e+001	-7.735726e+001	-1.731040e+001	-9.916781e+001
2239200000.000	-2.702466e+001	1.089899e+002	-2.277825e+001	-1.206091e+002	-2.300573e+001	-1.199884e+002	-1.813470e+001	-1.612483e+002
2244100000.000	-2.544871e+001	8.324001e+001	-2.312333e+001	-1.635937e+002	-2.319396e+001	-1.626882e+002	-1.950100e+001	1.386407e+002
2249000000.000	-2.463966e+001	5.655498e+001	-2.336548e+001	1.534984e+002	-2.335301e+001	1.538575e+002	-2.155130e+001	7.707392e+001
2253900000.000	-2.428936e+001	2.977219e+001	-2.348146e+001	1.104881e+002	-2.351531e+001	1.104199e+002	-2.350268e+001	9.107754e+000
2258800000.000	-2.423115e+001	2.734589e+000	-2.356763e+001	6.772337e+001	-2.366546e+001	6.798789e+001	-2.446286e+001	-6.170978e+001
2263700000.000	-2.412891e+001	-2.475122e+001	-2.343881e+001	2.425113e+001	-2.348102e+001	2.535827e+001	-2.496185e+001	-1.316777e+002
2268600000.000	-2.354801e+001	-5.463137e+001	-2.344569e+001	-2.050262e+001	-2.331218e+001	-1.939650e+001	-2.746164e+001	1.611069e+002
2273500000.000	-2.244933e+001	-8.919055e+001	-2.355098e+001	-6.441967e+001	-2.329283e+001	-6.444287e+001	-3.414573e+001	1.066420e+002
2278400000.000	-2.144823e+001	-1.245938e+002	-2.355313e+001	-1.080104e+002	-2.336655e+001	-1.091205e+002	-4.204069e+001	1.429070e+002
2283300000.000	-2.054107e+001	-1.559307e+002	-2.350712e+001	-1.518620e+002	-2.340122e+001	-1.532855e+002	-3.307153e+001	1.279714e+002
2288200000.000	-1.978937e+001	1.763904e+002	-2.338668e+001	1.638616e+002	-2.336361e+001	1.622763e+002	-2.945718e+001	7.049664e+001
2293100000.000	-1.930075e+001	1.517939e+002	-2.334636e+001	1.185660e+002	-2.341253e+001	1.169881e+002	-2.747017e+001	1.908609e+000
2298000000.000	-1.902992e+001	1.290186e+002	-2.342101e+001	7.381828e+001	-2.358883e+001	7.258375e+001	-2.513282e+001	-6.704818e+001
2302900000.000	-1.893050e+001	1.069890e+002	-2.345540e+001	2.943800e+001	-2.367549e+001	2.885022e+001	-2.285808e+001	-1.309392e+002
2307800000.000	-1.896761e+001	8.502860e+001	-2.348101e+001	-1.525220e+001	-2.364732e+001	-1.498737e+001	-2.129806e+001	1.675709e+002
2312700000.000	-1.915944e+001	6.260863e+001	-2.351512e+001	-5.994718e+001	-2.358388e+001	-5.951846e+001	-2.041874e+001	1.031943e+002
2317600000.000	-1.960858e+001	4.002884e+001	-2.356451e+001	-1.045956e+002	-2.358547e+001	-1.046713e+002	-1.967621e+001	3.561054e+001
2322500000.000	-2.044453e+001	1.757583e+001	-2.365617e+001	-1.493660e+002	-2.376319e+001	-1.496702e+002	-1.899707e+001	-3.182244e+001
2327400000.000	-2.168499e+001	-5.211587e+000	-2.379898e+001	1.662460e+002	-2.397765e+001	1.668153e+002	-1.842125e+001	-9.657206e+001
2332300000.000	-2.331604e+001	-2.989203e+001	-2.391980e+001	1.225295e+002	-2.397331e+001	1.242717e+002	-1.780232e+001	-1.614442e+002
2337200000.000	-2.530027e+001	-6.012137e+001	-2.400106e+001	7.894641e+001	-2.375803e+001	8.048301e+001	-1.685632e+001	1.332908e+002
2342100000.000	-2.688164e+001	-1.010113e+002	-2.403345e+001	3.654364e+001	-2.362578e+001	3.603728e+001	-1.570983e+001	6.754582e+001
2347000000.000	-2.693797e+001	-1.498448e+002	-2.364632e+001	-6.163873e+000	-2.342599e+001	-8.822912e+000	-1.502008e+001	-1.164749e+000
2351900000.000	-2.595588e+001	1.685541e+002	-2.326962e+001	-5.261565e+001	-2.342591e+001	-5.520310e+001	-1.511747e+001	-7.158189e+001
2356800000.000	-2.498062e+001	1.398796e+002	-2.336830e+001	-9.929656e+001	-2.369032e+001	-9.995609e+001	-1.517190e+001	-1.390420e+002
2361700000.000	-2.401309e+001	1.186790e+002	-2.356057e+001	-1.438428e+002	-2.373638e+001	-1.428078e+002	-1.482121e+001	1.565460e+002
2366600000.000	-2.282528e+001	9.829268e+001	-2.357094e+001	1.721041e+002	-2.345976e+001	1.727621e+002	-1.474079e+001	9.098347e+001
2371500000.000	-2.164517e+001	7.404831e+001	-2.360494e+001	1.274481e+002	-2.351261e+001	1.259855e+002	-1.532188e+001	2.261296e+001
2376400000.000	-2.082828e+001	4.655385e+001	-2.364734e+001	8.347530e+001	-2.389400e+001	8.155850e+001	-1.582224e+001	-4.521964e+001
2381300000.000	-2.039500e+001	1.859316e+001	-2.361272e+001	3.921690e+001	-2.410152e+001	3.949596e+001	-1.595615e+001	-1.077568e+002
2386200000.000	-2.019247e+001	-8.635211e+000	-2.365869e+001	-5.048374e+000	-2.396528e+001	-2.079476e+000	-1.606189e+001	-1.656602e+002
2391100000.000	-2.014344e+001	-3.545310e+001	-2.368780e+001	-4.820449e+001	-2.352256e+001	-4.483487e+001	-1.639252e+001	1.343763e+002
2396000000.000	-2.026605e+001	-6.262066e+001	-2.345977e+001	-9.083023e+001	-2.303142e+001	-8.966666e+001	-1.692219e+001	6.879908e+001
2400900000.000	-2.045754e+001	-9.095790e+001	-2.301215e+001	-1.348721e+002	-2.268752e+001	-1.359203e+002	-1.707966e+001	2.034018e+000
2405800000.000	-2.052161e+001	-1.203007e+002	-2.266949e+001	1.791975e+002	-2.258065e+001	1.777802e+002	-1.709661e+001	-6.149420e+001
2410700000.000	-2.029746e+001	-1.496805e+002	-2.245302e+001	1.337401e+002	-2.247022e+001	1.329543e+002	-1.732719e+001	-1.222709e+002
2415600000.000	-1.979629e+001	-1.773786e+002	-2.212903e+001	8.800336e+001	-2.210763e+001	8.772981e+001	-1.743093e+001	1.748241e+002
2420500000.000	-1.917405e+001	1.571313e+002	-2.179673e+001	4.081574e+001	-2.168671e+001	4.026202e+001	-1.752781e+001	1.064096e+002
2425400000.000	-1.860598e+001	1.329836e+002	-2.174106e+001	-7.639465e+000	-2.164603e+001	-8.963737e+000	-1.874823e+001	3.794852e+001
2430300000.000	-1.826315e+001	1.092040e+002	-2.186078e+001	-5.488865e+001	-2.191674e+001	-5.682075e+001	-2.107353e+001	-2.345169e+001
2435200000.000	-1.812712e+001	8.555904e+001	-2.201519e+001	-1.019869e+002	-2.224527e+001	-1.034811e+002	-2.350009e+001	-8.054952e+001
