!Agilent Technologies,E5061B,MY49305579,A.02.22
!Date: Thu Aug 24 16:24:50 2017
!Data & Calibration Information:
!Freq	S11:SOLT2(ON)	S21:SOLT2(ON)	S12:SOLT2(ON)	S22:SOLT2(ON)
# Hz S dB R 50
1710000000.000	-2.916458e+001	-1.304241e+002	-2.119669e+001	-5.055607e+001	-2.088346e+001	-5.117909e+001	-1.754303e+001	1.066639e+002
1714900000.000	-2.721813e+001	-1.386069e+002	-2.067661e+001	-9.579976e+001	-2.068696e+001	-9.727738e+001	-1.723414e+001	3.607819e+001
1719800000.000	-2.601311e+001	-1.487337e+002	-2.075045e+001	-1.436973e+002	-2.085463e+001	-1.434166e+002	-1.632393e+001	-3.705801e+001
1724700000.000	-2.507204e+001	-1.592558e+002	-2.115756e+001	1.723884e+002	-2.105127e+001	1.727919e+002	-1.497411e+001	-1.051227e+002
1729600000.000	-2.431555e+001	-1.700088e+002	-2.096736e+001	1.306749e+002	-2.094061e+001	1.299902e+002	-1.373640e+001	-1.678315e+002
1734500000.000	-2.381144e+001	1.798447e+002	-2.045933e+001	8.520807e+001	-2.055081e+001	8.590663e+001	-1.306451e+001	1.298185e+002
1739400000.000	-2.344655e+001	1.702625e+002	-2.049665e+001	3.789843e+001	-2.021711e+001	3.931848e+001	-1.311260e+001	6.268162e+001
1744300000.000	-2.318548e+001	1.608642e+002	-2.068164e+001	-5.450436e+000	-2.025800e+001	-7.685772e+000	-1.348253e+001	-1.013390e+001
1749200000.000	-2.297528e+001	1.507570e+002	-2.019751e+001	-4.859799e+001	-2.043629e+001	-5.264282e+001	-1.335976e+001	-8.156431e+001
1754100000.000	-2.296998e+001	1.384317e+002	-1.975399e+001	-9.697982e+001	-2.035896e+001	-9.646684e+001	-1.282275e+001	-1.465951e+002
1759000000.000	-2.322708e+001	1.245268e+002	-2.006116e+001	-1.449063e+002	-2.004817e+001	-1.414707e+002	-1.258678e+001	1.500434e+002
1763900000.000	-2.372267e+001	1.079058e+002	-2.026822e+001	1.717053e+002	-1.982198e+001	1.712898e+002	-1.313146e+001	8.280297e+001
1768800000.000	-2.454399e+001	8.888453e+001	-1.985454e+001	1.264528e+002	-1.993945e+001	1.234395e+002	-1.398509e+001	1.126837e+001
1773700000.000	-2.570178e+001	6.758383e+001	-1.984621e+001	7.729015e+001	-2.033664e+001	7.734454e+001	-1.440623e+001	-5.793394e+001
1778600000.000	-2.707188e+001	4.405473e+001	-2.049693e+001	3.049669e+001	-2.064095e+001	3.314068e+001	-1.437502e+001	-1.212186e+002
1783500000.000	-2.854821e+001	1.736913e+001	-2.093402e+001	-1.195515e+001	-2.073875e+001	-1.052372e+001	-1.452234e+001	1.781763e+002
1788400000.000	-2.987150e+001	-1.368324e+001	-2.087272e+001	-5.504889e+001	-2.075210e+001	-5.512997e+001	-1.512303e+001	1.160972e+002
1793300000.000	-3.063516e+001	-4.987623e+001	-2.091692e+001	-1.001745e+002	-2.085491e+001	-9.996697e+001	-1.618426e+001	5.035948e+001
1798200000.000	-3.061073e+001	-8.581960e+001	-2.117657e+001	-1.441537e+002	-2.104000e+001	-1.442579e+002	-1.708455e+001	-1.685961e+001
1803100000.000	-3.017498e+001	-1.149283e+002	-2.125072e+001	1.740740e+002	-2.122818e+001	1.730581e+002	-1.734298e+001	-8.173423e+001
1808000000.000	-2.986728e+001	-1.367596e+002	-2.089829e+001	1.310045e+002	-2.107157e+001	1.307030e+002	-1.718565e+001	-1.415445e+002
1812900000.000	-3.018274e+001	-1.521659e+002	-2.068555e+001	8.575025e+001	-2.074601e+001	8.729606e+001	-1.742449e+001	1.603522e+002
1817800000.000	-3.177487e+001	-1.574937e+002	-2.053140e+001	4.061858e+001	-2.028409e+001	4.167141e+001	-1.840526e+001	1.008843e+002
1822700000.000	-3.174699e+001	-1.471587e+002	-2.055139e+001	-4.027948e+000	-2.030229e+001	-5.282805e+000	-1.985535e+001	3.388714e+001
1827600000.000	-3.037789e+001	-1.406885e+002	-2.034781e+001	-4.886597e+001	-2.040347e+001	-5.038297e+001	-2.093893e+001	-3.473023e+001
1832500000.000	-2.838995e+001	-1.409080e+002	-2.030841e+001	-9.500146e+001	-2.045926e+001	-9.495701e+001	-2.152186e+001	-9.780048e+001
1837400000.000	-2.653720e+001	-1.481211e+002	-2.042633e+001	-1.398814e+002	-2.042161e+001	-1.391663e+002	-2.253244e+001	-1.509823e+002
1842300000.000	-2.511767e+001	-1.594177e+002	-2.039921e+001	1.760558e+002	-2.031294e+001	1.761238e+002	-2.449261e+001	1.611621e+002
1847200000.000	-2.410367e+001	-1.738672e+002	-2.026305e+001	1.313586e+002	-2.020924e+001	1.310703e+002	-2.702935e+001	1.178307e+002
1852100000.000	-2.343846e+001	1.704572e+002	-2.019203e+001	8.591399e+001	-2.016895e+001	8.588187e+001	-2.924843e+001	7.940171e+001
1857000000.000	-2.314903e+001	1.536874e+002	-2.016037e+001	4.075006e+001	-2.012012e+001	4.079268e+001	-2.882459e+001	3.218738e+001
1861900000.000	-2.333329e+001	1.374618e+002	-2.018265e+001	-4.671296e+000	-2.008488e+001	-4.905855e+000	-2.659996e+001	-2.880379e+001
1866800000.000	-2.396304e+001	1.230583e+002	-2.028795e+001	-4.897352e+001	-2.023410e+001	-4.991854e+001	-2.348219e+001	-9.444679e+001
1871700000.000	-2.493871e+001	1.104370e+002	-2.008272e+001	-9.303783e+001	-2.020635e+001	-9.377131e+001	-2.123664e+001	-1.538342e+002
1876600000.000	-2.641998e+001	9.922403e+001	-1.990981e+001	-1.392943e+002	-2.002396e+001	-1.385987e+002	-1.987868e+001	1.496583e+002
1881500000.000	-2.847423e+001	9.007412e+001	-2.002493e+001	1.748453e+002	-1.988895e+001	1.755408e+002	-1.974437e+001	9.023956e+001
1886400000.000	-3.101213e+001	8.233770e+001	-2.001324e+001	1.301907e+002	-1.984871e+001	1.288938e+002	-2.005891e+001	2.340675e+001
1891300000.000	-3.425580e+001	7.308344e+001	-1.989021e+001	8.425628e+001	-2.005471e+001	8.244414e+001	-1.955293e+001	-4.661061e+001
1896200000.000	-3.898328e+001	4.849999e+001	-2.003015e+001	3.680123e+001	-2.036543e+001	3.720014e+001	-1.836639e+001	-1.090724e+002
1901100000.000	-4.366789e+001	-6.829873e+001	-2.053686e+001	-7.932466e+000	-2.059232e+001	-5.941404e+000	-1.744019e+001	-1.648940e+002
1906000000.000	-3.798030e+001	-1.258565e+002	-2.065263e+001	-5.110428e+001	-2.043205e+001	-5.027145e+001	-1.728375e+001	1.389147e+002
1910900000.000	-3.429564e+001	-1.363196e+002	-2.055155e+001	-9.502566e+001	-2.039695e+001	-9.601348e+001	-1.751473e+001	7.641554e+001
1915800000.000	-3.114554e+001	-1.464024e+002	-2.048059e+001	-1.410693e+002	-2.054551e+001	-1.419197e+002	-1.746747e+001	9.099052e+000
1920700000.000	-2.866576e+001	-1.599300e+002	-2.078063e+001	1.729372e+002	-2.084989e+001	1.730137e+002	-1.678345e+001	-5.714585e+001
1925600000.000	-2.681067e+001	-1.745892e+002	-2.111830e+001	1.297274e+002	-2.111940e+001	1.298962e+002	-1.604484e+001	-1.184138e+002
1930500000.000	-2.538629e+001	1.693799e+002	-2.103938e+001	8.683384e+001	-2.106235e+001	8.712541e+001	-1.532217e+001	-1.779939e+002
1935400000.000	-2.443954e+001	1.528565e+002	-2.094380e+001	4.161420e+001	-2.084760e+001	4.260148e+001	-1.478178e+001	1.201844e+002
1940300000.000	-2.394593e+001	1.357020e+002	-2.112819e+001	-2.995516e+000	-2.080039e+001	-3.267080e+000	-1.461078e+001	5.537455e+001
1945200000.000	-2.400019e+001	1.176559e+002	-2.112706e+001	-4.616341e+001	-2.097082e+001	-4.892053e+001	-1.467464e+001	-1.053837e+001
1950100000.000	-2.480141e+001	9.935632e+001	-2.091116e+001	-9.089084e+001	-2.124805e+001	-9.319713e+001	-1.445520e+001	-7.502707e+001
1955000000.000	-2.625356e+001	8.210250e+001	-2.093480e+001	-1.370439e+002	-2.139699e+001	-1.359438e+002	-1.383898e+001	-1.361992e+002
1959900000.000	-2.782284e+001	6.429373e+001	-2.120397e+001	1.785160e+002	-2.118012e+001	-1.784955e+002	-1.305330e+001	1.642708e+002
1964800000.000	-2.989504e+001	3.998014e+001	-2.106174e+001	1.360258e+002	-2.066402e+001	1.365622e+002	-1.252508e+001	1.015314e+002
1969700000.000	-3.288198e+001	8.003916e+000	-2.061088e+001	8.931129e+001	-2.047382e+001	8.728178e+001	-1.282630e+001	3.332335e+001
1974600000.000	-3.545810e+001	-3.301416e+001	-2.080966e+001	4.061800e+001	-2.101420e+001	3.966701e+001	-1.346259e+001	-3.511240e+001
1979500000.000	-3.551745e+001	-8.444454e+001	-2.142026e+001	-5.184495e+000	-2.156358e+001	-4.538645e+000	-1.358354e+001	-1.005333e+002
1984400000.000	-3.293065e+001	-1.287427e+002	-2.176124e+001	-4.806899e+001	-2.178058e+001	-4.722733e+001	-1.321188e+001	-1.626362e+002
1989300000.000	-3.185003e+001	-1.705964e+002	-2.174617e+001	-9.242201e+001	-2.169929e+001	-9.141087e+001	-1.278087e+001	1.355065e+002
1994200000.000	-3.235751e+001	1.711419e+002	-2.200810e+001	-1.383782e+002	-2.177774e+001	-1.373847e+002	-1.267882e+001	7.173969e+001
1999100000.000	-3.248736e+001	1.636581e+002	-2.259723e+001	1.776313e+002	-2.220521e+001	1.764427e+002	-1.274281e+001	4.988489e+000
2004000000.000	-3.226390e+001	1.623313e+002	-2.288980e+001	1.360608e+002	-2.286383e+001	1.328973e+002	-1.290055e+001	-6.328974e+001
2008900000.000	-3.163399e+001	1.623914e+002	-2.283066e+001	9.328640e+001	-2.323195e+001	9.222487e+001	-1.290200e+001	-1.277999e+002
2013800000.000	-3.124552e+001	1.631113e+002	-2.300655e+001	4.834105e+001	-2.316224e+001	5.059730e+001	-1.280064e+001	1.705890e+002
2018700000.000	-3.045752e+001	1.654855e+002	-2.351430e+001	6.111504e+000	-2.310205e+001	7.411337e+000	-1.305149e+001	1.076105e+002
2023600000.000	-2.990987e+001	1.644582e+002	-2.337505e+001	-3.348953e+001	-2.301612e+001	-3.626808e+001	-1.366506e+001	3.993076e+001
2028500000.000	-2.939814e+001	1.661564e+002	-2.299488e+001	-7.848109e+001	-2.323913e+001	-8.177232e+001	-1.429341e+001	-3.241996e+001
2033400000.000	-2.860122e+001	1.639533e+002	-2.331586e+001	-1.235027e+002	-2.374285e+001	-1.235983e+002	-1.454499e+001	-9.975603e+001
2038300000.000	-2.808514e+001	1.587880e+002	-2.364538e+001	-1.646327e+002	-2.375283e+001	-1.629617e+002	-1.448274e+001	-1.611628e+002
2043200000.000	-2.770080e+001	1.534365e+002	-2.344132e+001	1.547808e+002	-2.329660e+001	1.554367e+002	-1.472139e+001	1.371829e+002
2048100000.000	-2.712836e+001	1.462486e+002	-2.304672e+001	1.119758e+002	-2.292595e+001	1.113952e+002	-1.563584e+001	7.143026e+001
2053000000.000	-2.642649e+001	1.376063e+002	-2.283535e+001	6.788892e+001	-2.278810e+001	6.717790e+001	-1.679945e+001	2.274453e+000
2057900000.000	-2.560612e+001	1.278830e+002	-2.266064e+001	2.477145e+001	-2.265809e+001	2.384952e+001	-1.766150e+001	-6.635549e+001
2062800000.000	-2.448568e+001	1.155959e+002	-2.232072e+001	-1.878249e+001	-2.240983e+001	-1.950135e+001	-1.810570e+001	-1.316446e+002
2067700000.000	-2.366507e+001	9.958693e+001	-2.195679e+001	-6.380881e+001	-2.203034e+001	-6.368002e+001	-1.865437e+001	1.655054e+002
2072600000.000	-2.359267e+001	8.072257e+001	-2.182671e+001	-1.099638e+002	-2.176419e+001	-1.097146e+002	-1.980499e+001	1.036211e+002
2077500000.000	-2.426190e+001	6.593451e+001	-2.189486e+001	-1.545897e+002	-2.179366e+001	-1.552629e+002	-2.189400e+001	4.021900e+001
2082400000.000	-2.485215e+001	5.096653e+001	-2.180980e+001	1.615895e+002	-2.182411e+001	1.605437e+002	-2.478007e+001	-2.731429e+001
2087300000.000	-2.569280e+001	3.354573e+001	-2.165385e+001	1.171213e+002	-2.174972e+001	1.166010e+002	-2.732469e+001	-9.844654e+001
2092200000.000	-2.690454e+001	1.180049e+001	-2.156003e+001	7.238303e+001	-2.159523e+001	7.232908e+001	-2.959475e+001	-1.617643e+002
2097100000.000	-2.847625e+001	-1.375497e+001	-2.144356e+001	2.777410e+001	-2.143621e+001	2.748885e+001	-3.435999e+001	1.507451e+002
2102000000.000	-3.024201e+001	-4.287475e+001	-2.134477e+001	-1.699546e+001	-2.137947e+001	-1.728301e+001	-4.061484e+001	-1.653304e+002
2106900000.000	-3.120180e+001	-7.572161e+001	-2.121551e+001	-6.175630e+001	-2.126714e+001	-6.170254e+001	-3.149408e+001	-1.780002e+002
2111800000.000	-3.171936e+001	-1.095066e+002	-2.106735e+001	-1.070377e+002	-2.106232e+001	-1.066566e+002	-2.811728e+001	1.303119e+002
2116700000.000	-3.167285e+001	-1.401000e+002	-2.099618e+001	-1.527160e+002	-2.093585e+001	-1.525683e+002	-2.661734e+001	6.236415e+001
2121600000.000	-3.100801e+001	-1.660952e+002	-2.106600e+001	1.613331e+002	-2.098523e+001	1.610205e+002	-2.450033e+001	-1.331385e+001
2126500000.000	-3.062363e+001	1.667385e+002	-2.122295e+001	1.170442e+002	-2.120072e+001	1.163564e+002	-2.196206e+001	-8.301160e+001
2131400000.000	-3.122740e+001	1.474543e+002	-2.116551e+001	7.270978e+001	-2.122250e+001	7.260239e+001	-2.010640e+001	-1.456154e+002
2136300000.000	-3.204766e+001	1.362337e+002	-2.112340e+001	2.777281e+001	-2.108008e+001	2.843222e+001	-1.903600e+001	1.530954e+002
2141200000.000	-3.251307e+001	1.295040e+002	-2.112772e+001	-1.720846e+001	-2.089102e+001	-1.723472e+001	-1.869163e+001	8.936487e+001
2146100000.000	-3.540233e+001	1.178842e+002	-2.110082e+001	-6.257573e+001	-2.090771e+001	-6.435169e+001	-1.880837e+001	2.030892e+001
2151000000.000	-3.946448e+001	1.588727e+002	-2.122638e+001	-1.077284e+002	-2.132234e+001	-1.100420e+002	-1.853435e+001	-5.057328e+001
2155900000.000	-3.432237e+001	-1.709852e+002	-2.134893e+001	-1.525869e+002	-2.162233e+001	-1.532120e+002	-1.750222e+001	-1.174169e+002
2160800000.000	-2.986545e+001	-1.708488e+002	-2.154121e+001	1.634205e+002	-2.164952e+001	1.642760e+002	-1.631931e+001	-1.790069e+002
2165700000.000	-2.690434e+001	1.783139e+002	-2.152342e+001	1.201632e+002	-2.140245e+001	1.204827e+002	-1.559180e+001	1.200120e+002
2170600000.000	-2.516139e+001	1.650241e+002	-2.138907e+001	7.582037e+001	-2.125940e+001	7.469399e+001	-1.545198e+001	5.396893e+001
2175500000.000	-2.394944e+001	1.507922e+002	-2.129947e+001	3.033191e+001	-2.137394e+001	2.868902e+001	-1.554266e+001	-1.672407e+001
2180400000.000	-2.309845e+001	1.351594e+002	-2.143359e+001	-1.489579e+001	-2.165076e+001	-1.564149e+001	-1.525547e+001	-8.556001e+001
2185300000.000	-2.261496e+001	1.188523e+002	-2.153865e+001	-5.917033e+001	-2.173162e+001	-5.862806e+001	-1.469298e+001	-1.498454e+002
2190200000.000	-2.240361e+001	1.022973e+002	-2.157883e+001	-1.034751e+002	-2.159374e+001	-1.022361e+002	-1.412450e+001	1.475411e+002
2195100000.000	-2.252996e+001	8.727894e+001	-2.161756e+001	-1.472268e+002	-2.141321e+001	-1.468065e+002	-1.371724e+001	8.270123e+001
2200000000.000	-2.263799e+001	7.374914e+001	-2.147600e+001	1.688300e+002	-2.129279e+001	1.672896e+002	-1.373395e+001	1.554447e+001
2204900000.000	-2.295370e+001	5.956951e+001	-2.131322e+001	1.236283e+002	-2.145358e+001	1.215893e+002	-1.424944e+001	-5.054829e+001
2209800000.000	-2.361811e+001	4.631239e+001	-2.126896e+001	7.793478e+001	-2.160934e+001	7.763728e+001	-1.461697e+001	-1.152474e+002
2214700000.000	-2.451071e+001	3.285176e+001	-2.134436e+001	3.241609e+001	-2.149231e+001	3.410418e+001	-1.453124e+001	1.798426e+002
2219600000.000	-2.584973e+001	1.884110e+001	-2.136830e+001	-1.275780e+001	-2.116195e+001	-1.152983e+001	-1.422625e+001	1.139124e+002
2224500000.000	-2.752004e+001	5.454523e+000	-2.140407e+001	-5.845711e+001	-2.115397e+001	-5.959203e+001	-1.428119e+001	4.670592e+001
2229400000.000	-2.901781e+001	-7.544722e+000	-2.150644e+001	-1.046128e+002	-2.154356e+001	-1.068595e+002	-1.480050e+001	-2.024835e+001
2234300000.000	-2.982442e+001	-2.575112e+001	-2.184161e+001	-1.507661e+002	-2.215970e+001	-1.519209e+002	-1.518862e+001	-8.462360e+001
2239200000.000	-3.083606e+001	-5.501412e+001	-2.227692e+001	1.651380e+002	-2.258777e+001	1.660497e+002	-1.524525e+001	-1.469863e+002
2244100000.000	-3.248787e+001	-8.872600e+001	-2.249563e+001	1.218645e+002	-2.254033e+001	1.238362e+002	-1.551432e+001	1.505524e+002
2249000000.000	-3.413902e+001	-1.241477e+002	-2.258698e+001	7.792962e+001	-2.239342e+001	7.894068e+001	-1.618038e+001	8.519279e+001
2253900000.000	-3.486008e+001	-1.585195e+002	-2.273148e+001	3.375162e+001	-2.253969e+001	3.296338e+001	-1.713636e+001	1.501739e+001
2258800000.000	-3.457881e+001	1.674905e+002	-2.290371e+001	-1.037383e+001	-2.293124e+001	-1.168350e+001	-1.796920e+001	-5.461629e+001
2263700000.000	-3.418583e+001	1.365949e+002	-2.307807e+001	-5.418648e+001	-2.323301e+001	-5.434855e+001	-1.833658e+001	-1.198892e+002
2268600000.000	-3.512355e+001	1.124893e+002	-2.316447e+001	-9.765460e+001	-2.319338e+001	-9.678765e+001	-1.871771e+001	1.776313e+002
2273500000.000	-3.776889e+001	1.070970e+002	-2.327211e+001	-1.420534e+002	-2.309789e+001	-1.416372e+002	-1.945588e+001	1.153310e+002
2278400000.000	-3.823151e+001	1.245605e+002	-2.350954e+001	1.742258e+002	-2.333138e+001	1.732513e+002	-2.087155e+001	5.013550e+001
2283300000.000	-3.644931e+001	1.342876e+002	-2.362717e+001	1.315664e+002	-2.361131e+001	1.299020e+002	-2.265893e+001	-1.723692e+001
2288200000.000	-3.510757e+001	1.357889e+002	-2.360646e+001	8.843356e+001	-2.373541e+001	8.732321e+001	-2.396038e+001	-8.659462e+001
2293100000.000	-3.439534e+001	1.406025e+002	-2.357693e+001	4.480781e+001	-2.368920e+001	4.446844e+001	-2.477987e+001	-1.527865e+002
2298000000.000	-3.292437e+001	1.468442e+002	-2.346666e+001	5.896198e-001	-2.351936e+001	5.286109e-001	-2.618493e+001	1.443611e+002
2302900000.000	-3.037072e+001	1.497280e+002	-2.350273e+001	-4.501878e+001	-2.352037e+001	-4.523994e+001	-2.948354e+001	7.916690e+001
2307800000.000	-2.700593e+001	1.405238e+002	-2.385937e+001	-8.983302e+001	-2.387634e+001	-9.018548e+001	-3.548894e+001	8.820276e-001
2312700000.000	-2.473080e+001	1.214727e+002	-2.417954e+001	-1.325073e+002	-2.422162e+001	-1.328593e+002	-4.261717e+001	-1.079508e+002
2317600000.000	-2.340162e+001	1.020823e+002	-2.429714e+001	-1.743768e+002	-2.433117e+001	-1.747232e+002	-4.287163e+001	1.113345e+002
2322500000.000	-2.251566e+001	8.389537e+001	-2.425881e+001	1.435202e+002	-2.429487e+001	1.430578e+002	-3.593464e+001	9.755634e+000
2327400000.000	-2.201465e+001	6.645947e+001	-2.408412e+001	1.008206e+002	-2.418781e+001	1.005247e+002	-3.175203e+001	-6.585136e+001
2332300000.000	-2.197904e+001	4.996334e+001	-2.387203e+001	5.767152e+001	-2.397781e+001	5.793222e+001	-2.942089e+001	-1.355532e+002
2337200000.000	-2.234723e+001	3.472029e+001	-2.358897e+001	1.351195e+001	-2.361764e+001	1.417718e+001	-2.712907e+001	1.552470e+002
2342100000.000	-2.299005e+001	2.001680e+001	-2.342216e+001	-3.167249e+001	-2.332787e+001	-3.135064e+001	-2.507263e+001	9.030028e+001
2347000000.000	-2.381849e+001	2.797965e+000	-2.339552e+001	-7.711484e+001	-2.328546e+001	-7.755246e+001	-2.369332e+001	2.714139e+001
2351900000.000	-2.518971e+001	-1.803509e+001	-2.348718e+001	-1.219769e+002	-2.347847e+001	-1.230264e+002	-2.295534e+001	-3.855067e+001
2356800000.000	-2.699837e+001	-4.235893e+001	-2.358446e+001	-1.660860e+002	-2.371006e+001	-1.669003e+002	-2.206978e+001	-1.053708e+002
2361700000.000	-2.867382e+001	-6.895121e+001	-2.364283e+001	1.499366e+002	-2.379982e+001	1.501238e+002	-2.078884e+001	-1.689950e+002
2366600000.000	-2.956620e+001	-9.733528e+001	-2.369407e+001	1.062431e+002	-2.370536e+001	1.071224e+002	-1.990118e+001	1.285494e+002
2371500000.000	-2.996614e+001	-1.251337e+002	-2.365814e+001	6.271043e+001	-2.350237e+001	6.284289e+001	-1.968956e+001	6.329609e+001
2376400000.000	-3.035711e+001	-1.492616e+002	-2.356860e+001	1.858530e+001	-2.348547e+001	1.751841e+001	-1.946835e+001	-5.465418e+000
2381300000.000	-3.078219e+001	-1.706547e+002	-2.350393e+001	-2.600343e+001	-2.364265e+001	-2.707896e+001	-1.877651e+001	-7.098828e+001
2386200000.000	-3.084449e+001	1.699997e+002	-2.351976e+001	-7.067452e+001	-2.375238e+001	-7.022831e+001	-1.803524e+001	-1.306766e+002
2391100000.000	-3.013171e+001	1.485794e+002	-2.359898e+001	-1.147185e+002	-2.361942e+001	-1.132372e+002	-1.772445e+001	1.709285e+002
2396000000.000	-2.894542e+001	1.236111e+002	-2.357989e+001	-1.580368e+002	-2.337055e+001	-1.572894e+002	-1.766782e+001	1.082281e+002
2400900000.000	-2.796018e+001	9.743035e+001	-2.333395e+001	1.582252e+002	-2.314699e+001	1.572039e+002	-1.743713e+001	4.099611e+001
2405800000.000	-2.800696e+001	7.257664e+001	-2.314020e+001	1.121388e+002	-2.318309e+001	1.105844e+002	-1.711423e+001	-2.523849e+001
2410700000.000	-2.915406e+001	5.303658e+001	-2.329008e+001	6.650858e+001	-2.347342e+001	6.592534e+001	-1.689298e+001	-8.728934e+001
2415600000.000	-3.138795e+001	3.863465e+001	-2.341124e+001	2.247930e+001	-2.353977e+001	2.299350e+001	-1.656496e+001	-1.488532e+002
2420500000.000	-3.522041e+001	3.118494e+001	-2.331234e+001	-2.162658e+001	-2.330650e+001	-2.069698e+001	-1.603687e+001	1.473477e+002
2425400000.000	-4.082262e+001	5.122157e+001	-2.321516e+001	-6.737836e+001	-2.304377e+001	-6.701406e+001	-1.551043e+001	8.240933e+001
2430300000.000	-3.883561e+001	9.271473e+001	-2.339820e+001	-1.134562e+002	-2.322143e+001	-1.145537e+002	-1.548307e+001	1.682206e+001
2435200000.000	-3.492752e+001	9.128386e+001	-2.365815e+001	-1.578926e+002	-2.371698e+001	-1.598902e+002	-1.616308e+001	-4.790971e+001
