!Agilent Technologies,E5061B,MY49305579,A.02.22
!Date: Thu Aug 24 16:25:00 2017
!Data & Calibration Information:
!Freq	S11:SOLT2(ON)	S21:SOLT2(ON)	S12:SOLT2(ON)	S22:SOLT2(ON)
# Hz S dB R 50
1710000000.000	-2.615319e+001	-1.327667e+002	-2.120032e+001	-1.244667e+002	-2.121313e+001	-1.248045e+002	-2.699257e+001	-3.170114e+001
1714900000.000	-2.467535e+001	-1.462249e+002	-2.044569e+001	-1.677294e+002	-2.044952e+001	-1.676889e+002	-2.715893e+001	-7.951249e+001
1719800000.000	-2.408938e+001	-1.606784e+002	-2.005496e+001	1.464321e+002	-2.001079e+001	1.466811e+002	-2.473883e+001	-1.269511e+002
1724700000.000	-2.383531e+001	-1.741567e+002	-1.965864e+001	1.006164e+002	-1.958631e+001	1.004504e+002	-2.307851e+001	-1.724318e+002
1729600000.000	-2.387597e+001	1.734496e+002	-1.922182e+001	5.366463e+001	-1.920498e+001	5.357896e+001	-2.257258e+001	1.390964e+002
1734500000.000	-2.428240e+001	1.627453e+002	-1.894877e+001	5.538006e+000	-1.889171e+001	5.804432e+000	-2.360111e+001	8.413357e+001
1739400000.000	-2.497495e+001	1.550190e+002	-1.891166e+001	-4.234476e+001	-1.876033e+001	-4.271281e+001	-2.540158e+001	1.426979e+001
1744300000.000	-2.566404e+001	1.510808e+002	-1.883985e+001	-8.924605e+001	-1.878302e+001	-9.058029e+001	-2.480449e+001	-6.627561e+001
1749200000.000	-2.585573e+001	1.488649e+002	-1.866291e+001	-1.371976e+002	-1.883873e+001	-1.379999e+002	-2.255261e+001	-1.327308e+002
1754100000.000	-2.570845e+001	1.437555e+002	-1.874190e+001	1.739591e+002	-1.885783e+001	1.745100e+002	-2.165839e+001	1.712327e+002
1759000000.000	-2.553013e+001	1.350421e+002	-1.905515e+001	1.259649e+002	-1.896675e+001	1.262635e+002	-2.229877e+001	1.129249e+002
1763900000.000	-2.554621e+001	1.225059e+002	-1.926459e+001	7.936015e+001	-1.925404e+001	7.823765e+001	-2.455925e+001	4.111503e+001
1768800000.000	-2.586320e+001	1.066040e+002	-1.945274e+001	3.162980e+001	-1.966198e+001	3.100430e+001	-2.516407e+001	-3.819835e+001
1773700000.000	-2.648495e+001	8.794019e+001	-1.987025e+001	-1.624561e+001	-2.006157e+001	-1.524046e+001	-2.392539e+001	-1.050912e+002
1778600000.000	-2.749104e+001	6.631159e+001	-2.043471e+001	-6.268150e+001	-2.042730e+001	-6.128625e+001	-2.334098e+001	-1.615238e+002
1783500000.000	-2.886786e+001	4.203058e+001	-2.091696e+001	-1.077921e+002	-2.083188e+001	-1.073062e+002	-2.445495e+001	1.421211e+002
1788400000.000	-3.059981e+001	1.386950e+001	-2.134243e+001	-1.530469e+002	-2.129132e+001	-1.528616e+002	-2.720071e+001	7.911337e+001
1793300000.000	-3.232246e+001	-2.044217e+001	-2.183222e+001	1.619715e+002	-2.179733e+001	1.621902e+002	-3.061947e+001	-3.590227e+000
1798200000.000	-3.320332e+001	-5.786969e+001	-2.231520e+001	1.181998e+002	-2.228231e+001	1.181259e+002	-3.140529e+001	-8.861597e+001
1803100000.000	-3.290416e+001	-8.975584e+001	-2.267034e+001	7.483330e+001	-2.264229e+001	7.489096e+001	-3.122173e+001	-1.505727e+002
1808000000.000	-3.215034e+001	-1.119226e+002	-2.293511e+001	3.095472e+001	-2.290005e+001	3.118144e+001	-3.468167e+001	1.652444e+002
1812900000.000	-3.150432e+001	-1.243870e+002	-2.325406e+001	-1.327598e+001	-2.320021e+001	-1.324183e+001	-4.157683e+001	-1.770483e+002
1817800000.000	-3.113938e+001	-1.249737e+002	-2.377266e+001	-5.582766e+001	-2.376558e+001	-5.575835e+001	-3.471868e+001	-1.515201e+002
1822700000.000	-2.892909e+001	-1.253529e+002	-2.389898e+001	-9.811201e+001	-2.383067e+001	-9.776481e+001	-3.027009e+001	1.661480e+002
1827600000.000	-2.706601e+001	-1.315200e+002	-2.406568e+001	-1.412411e+002	-2.390445e+001	-1.412837e+002	-2.976070e+001	1.041864e+002
1832500000.000	-2.541631e+001	-1.407210e+002	-2.424078e+001	1.758411e+002	-2.415549e+001	1.749659e+002	-2.923341e+001	2.605801e+001
1837400000.000	-2.417803e+001	-1.531443e+002	-2.442153e+001	1.329913e+002	-2.449005e+001	1.322092e+002	-2.607326e+001	-4.926725e+001
1842300000.000	-2.331948e+001	-1.675212e+002	-2.460334e+001	9.064944e+001	-2.467611e+001	9.088439e+001	-2.356315e+001	-1.114181e+002
1847200000.000	-2.277182e+001	1.764305e+002	-2.470444e+001	4.863764e+001	-2.466016e+001	4.906382e+001	-2.237268e+001	-1.681292e+002
1852100000.000	-2.252104e+001	1.599080e+002	-2.475117e+001	7.493860e+000	-2.468952e+001	7.372507e+000	-2.173900e+001	1.348295e+002
1857000000.000	-2.258885e+001	1.425249e+002	-2.454709e+001	-3.426181e+001	-2.452049e+001	-3.434094e+001	-2.177858e+001	6.990068e+001
1861900000.000	-2.312052e+001	1.258993e+002	-2.437717e+001	-7.668396e+001	-2.428236e+001	-7.684328e+001	-2.198154e+001	5.823338e-001
1866800000.000	-2.406595e+001	1.108842e+002	-2.410487e+001	-1.188017e+002	-2.401486e+001	-1.200049e+002	-2.074926e+001	-6.809342e+001
1871700000.000	-2.559238e+001	9.638382e+001	-2.367604e+001	-1.621562e+002	-2.384230e+001	-1.631084e+002	-1.906404e+001	-1.360975e+002
1876600000.000	-2.801728e+001	8.371445e+001	-2.336952e+001	1.531019e+002	-2.355979e+001	1.539684e+002	-1.820883e+001	1.617736e+002
1881500000.000	-3.169395e+001	7.440602e+001	-2.327255e+001	1.086130e+002	-2.312823e+001	1.098541e+002	-1.835273e+001	1.001409e+002
1886400000.000	-3.714406e+001	7.354727e+001	-2.313414e+001	6.521158e+001	-2.289993e+001	6.410124e+001	-1.911891e+001	3.266321e+001
1891300000.000	-4.442442e+001	9.674232e+001	-2.278922e+001	2.137119e+001	-2.289376e+001	1.928381e+001	-1.916815e+001	-3.838192e+001
1896200000.000	-4.926345e+001	1.728635e+002	-2.261853e+001	-2.420999e+001	-2.294722e+001	-2.419824e+001	-1.825057e+001	-1.026591e+002
1901100000.000	-3.715811e+001	-1.360212e+002	-2.255798e+001	-6.779287e+001	-2.265534e+001	-6.589309e+001	-1.736522e+001	-1.592570e+002
1906000000.000	-3.306163e+001	-1.592210e+002	-2.233659e+001	-1.113971e+002	-2.212134e+001	-1.105293e+002	-1.708566e+001	1.434838e+002
1910900000.000	-3.193121e+001	-1.686938e+002	-2.193549e+001	-1.555107e+002	-2.177930e+001	-1.564361e+002	-1.731870e+001	7.973548e+001
1915800000.000	-3.078835e+001	-1.741692e+002	-2.162097e+001	1.583991e+002	-2.168233e+001	1.575765e+002	-1.732947e+001	1.034484e+001
1920700000.000	-2.942292e+001	1.789549e+002	-2.167612e+001	1.130454e+002	-2.174940e+001	1.130954e+002	-1.667045e+001	-5.745895e+001
1925600000.000	-2.795423e+001	1.693583e+002	-2.158530e+001	7.031244e+001	-2.158885e+001	7.045041e+001	-1.588808e+001	-1.211570e+002
1930500000.000	-2.676677e+001	1.564344e+002	-2.107378e+001	2.686122e+001	-2.110179e+001	2.726835e+001	-1.524919e+001	1.767876e+002
1935400000.000	-2.607952e+001	1.419508e+002	-2.055071e+001	-1.892689e+001	-2.045082e+001	-1.788046e+001	-1.476383e+001	1.122034e+002
1940300000.000	-2.593819e+001	1.260068e+002	-2.025795e+001	-6.473666e+001	-1.993130e+001	-6.515147e+001	-1.462896e+001	4.365993e+001
1945200000.000	-2.657078e+001	1.095608e+002	-1.978248e+001	-1.099187e+002	-1.971225e+001	-1.126066e+002	-1.475934e+001	-2.648989e+001
1950100000.000	-2.826113e+001	9.352726e+001	-1.914692e+001	-1.573629e+002	-1.952674e+001	-1.588112e+002	-1.461068e+001	-9.477082e+001
1955000000.000	-3.115211e+001	8.225726e+001	-1.880652e+001	1.528370e+002	-1.909397e+001	1.548664e+002	-1.417702e+001	-1.603646e+002
1959900000.000	-3.420185e+001	8.061657e+001	-1.887494e+001	1.040788e+002	-1.865388e+001	1.059640e+002	-1.408321e+001	1.339677e+002
1964800000.000	-3.705046e+001	8.108968e+001	-1.880129e+001	5.656977e+001	-1.852716e+001	5.545332e+001	-1.482622e+001	6.480119e+001
1969700000.000	-4.009192e+001	9.014525e+001	-1.869867e+001	7.083010e+000	-1.880614e+001	5.498898e+000	-1.613370e+001	-9.665602e+000
1974600000.000	-4.091371e+001	9.543483e+001	-1.908113e+001	-4.275553e+001	-1.926327e+001	-4.248997e+001	-1.711212e+001	-8.523839e+001
1979500000.000	-4.422484e+001	9.874448e+001	-1.955069e+001	-9.017873e+001	-1.956425e+001	-8.929626e+001	-1.738934e+001	-1.566442e+002
1984400000.000	-4.544412e+001	1.557582e+002	-1.992998e+001	-1.376147e+002	-1.987424e+001	-1.371378e+002	-1.796780e+001	1.333830e+002
1989300000.000	-3.879379e+001	1.365046e+002	-2.038128e+001	1.756404e+002	-2.028856e+001	1.759398e+002	-1.967709e+001	6.097672e+001
1994200000.000	-4.296507e+001	1.282894e+002	-2.092395e+001	1.286386e+002	-2.080935e+001	1.282878e+002	-2.210738e+001	-1.929416e+001
1999100000.000	-4.374717e+001	-1.743454e+002	-2.150427e+001	8.267384e+001	-2.149172e+001	8.221667e+001	-2.373558e+001	-1.061779e+002
2004000000.000	-3.664379e+001	-1.575402e+002	-2.210750e+001	3.684050e+001	-2.207268e+001	3.703138e+001	-2.450680e+001	1.722286e+002
2008900000.000	-3.243107e+001	-1.636811e+002	-2.284877e+001	-8.468158e+000	-2.266450e+001	-8.595188e+000	-2.612636e+001	9.083658e+001
2013800000.000	-3.014580e+001	-1.707277e+002	-2.357747e+001	-5.198606e+001	-2.345712e+001	-5.345585e+001	-2.669959e+001	-8.944469e+000
2018700000.000	-2.837401e+001	-1.774525e+002	-2.421544e+001	-9.524531e+001	-2.434023e+001	-9.653744e+001	-2.333694e+001	-9.787245e+001
2023600000.000	-2.740938e+001	1.748646e+002	-2.498147e+001	-1.375702e+002	-2.509259e+001	-1.373554e+002	-2.064917e+001	-1.656444e+002
2028500000.000	-2.679353e+001	1.692367e+002	-2.548035e+001	-1.774397e+002	-2.537903e+001	-1.774261e+002	-1.969578e+001	1.303142e+002
2033400000.000	-2.630316e+001	1.617791e+002	-2.563124e+001	1.418219e+002	-2.554143e+001	1.404103e+002	-1.971126e+001	5.945961e+001
2038300000.000	-2.611965e+001	1.530203e+002	-2.577518e+001	9.894406e+001	-2.591776e+001	9.758515e+001	-1.923784e+001	-1.779637e+001
2043200000.000	-2.613994e+001	1.444352e+002	-2.627887e+001	5.709187e+001	-2.646729e+001	5.722940e+001	-1.783882e+001	-9.051123e+001
2048100000.000	-2.605941e+001	1.354531e+002	-2.654097e+001	1.780468e+001	-2.659660e+001	1.870073e+001	-1.655161e+001	-1.555578e+002
2053000000.000	-2.587746e+001	1.255742e+002	-2.638440e+001	-2.178610e+001	-2.631052e+001	-2.129907e+001	-1.576230e+001	1.403607e+002
2057900000.000	-2.557734e+001	1.155612e+002	-2.621067e+001	-6.333682e+001	-2.606614e+001	-6.338091e+001	-1.551046e+001	7.277976e+001
2062800000.000	-2.494716e+001	1.043692e+002	-2.606906e+001	-1.051575e+002	-2.589301e+001	-1.061536e+002	-1.553033e+001	2.785364e+000
2067700000.000	-2.446562e+001	9.006066e+001	-2.596630e+001	-1.468770e+002	-2.603358e+001	-1.487615e+002	-1.545193e+001	-6.627104e+001
2072600000.000	-2.456718e+001	7.241508e+001	-2.574507e+001	1.732673e+002	-2.605134e+001	1.726015e+002	-1.497403e+001	-1.311077e+002
2077500000.000	-2.559100e+001	5.799787e+001	-2.501905e+001	1.306045e+002	-2.517483e+001	1.323691e+002	-1.408518e+001	1.655552e+002
2082400000.000	-2.661971e+001	4.411204e+001	-2.470363e+001	8.625017e+001	-2.440820e+001	8.757292e+001	-1.350384e+001	1.005280e+002
2087300000.000	-2.793040e+001	2.818847e+001	-2.436943e+001	4.279202e+001	-2.404693e+001	4.104483e+001	-1.357286e+001	3.292572e+001
2092200000.000	-2.964820e+001	6.553992e+000	-2.396460e+001	-1.875549e+000	-2.408035e+001	-4.661768e+000	-1.398338e+001	-3.530066e+001
2097100000.000	-3.190853e+001	-2.008330e+001	-2.384529e+001	-4.770156e+001	-2.419605e+001	-4.838421e+001	-1.411137e+001	-1.002751e+002
2102000000.000	-3.428670e+001	-5.333860e+001	-2.413778e+001	-9.161181e+001	-2.431452e+001	-9.020603e+001	-1.386580e+001	-1.602517e+002
2106900000.000	-3.530296e+001	-9.404069e+001	-2.398817e+001	-1.317429e+002	-2.388634e+001	-1.303417e+002	-1.348339e+001	1.397093e+002
2111800000.000	-3.533851e+001	-1.351819e+002	-2.339219e+001	-1.732636e+002	-2.317359e+001	-1.732320e+002	-1.331955e+001	7.521249e+001
2116700000.000	-3.486319e+001	-1.708139e+002	-2.265379e+001	1.431856e+002	-2.250876e+001	1.420473e+002	-1.341666e+001	6.154744e+000
2121600000.000	-3.434560e+001	1.618413e+002	-2.191697e+001	9.770346e+001	-2.198152e+001	9.622108e+001	-1.345704e+001	-6.125564e+001
2126500000.000	-3.453732e+001	1.311025e+002	-2.127551e+001	5.103532e+001	-2.152911e+001	5.080411e+001	-1.323111e+001	-1.246057e+002
2131400000.000	-3.788368e+001	1.081673e+002	-2.078917e+001	2.809992e+000	-2.091562e+001	4.634024e+000	-1.291048e+001	1.736288e+002
2136300000.000	-4.572531e+001	1.229089e+002	-2.062424e+001	-4.569032e+001	-2.031277e+001	-4.375375e+001	-1.266747e+001	1.085772e+002
2141200000.000	-4.082230e+001	-1.741864e+002	-2.059486e+001	-9.297969e+001	-2.010625e+001	-9.448879e+001	-1.295315e+001	3.804011e+001
2146100000.000	-3.739525e+001	-1.643819e+002	-2.049357e+001	-1.404496e+002	-2.046091e+001	-1.439790e+002	-1.360994e+001	-3.390893e+001
2151000000.000	-3.224215e+001	-1.574929e+002	-2.062277e+001	1.717407e+002	-2.099168e+001	1.701902e+002	-1.388727e+001	-1.030533e+002
2155900000.000	-2.864416e+001	-1.664579e+002	-2.089232e+001	1.250069e+002	-2.108699e+001	1.261439e+002	-1.378905e+001	-1.682309e+002
2160800000.000	-2.618982e+001	-1.772925e+002	-2.113277e+001	7.992266e+001	-2.095802e+001	8.056507e+001	-1.389946e+001	1.271124e+002
2165700000.000	-2.441851e+001	1.686217e+002	-2.111813e+001	3.478912e+001	-2.094308e+001	3.335901e+001	-1.483075e+001	5.868022e+001
2170600000.000	-2.347183e+001	1.536690e+002	-2.111295e+001	-1.201255e+001	-2.121518e+001	-1.385935e+001	-1.634529e+001	-1.387656e+001
2175500000.000	-2.295894e+001	1.385770e+002	-2.137410e+001	-5.880213e+001	-2.160535e+001	-5.942859e+001	-1.739775e+001	-8.588680e+001
2180400000.000	-2.264614e+001	1.234956e+002	-2.172265e+001	-1.042391e+002	-2.186063e+001	-1.037242e+002	-1.805909e+001	-1.527652e+002
2185300000.000	-2.250898e+001	1.075103e+002	-2.191213e+001	-1.489703e+002	-2.192286e+001	-1.484268e+002	-1.919487e+001	1.437759e+002
2190200000.000	-2.263988e+001	9.124772e+001	-2.207610e+001	1.655446e+002	-2.201533e+001	1.654887e+002	-2.124369e+001	7.988677e+001
2195100000.000	-2.312456e+001	7.684944e+001	-2.236683e+001	1.202298e+002	-2.235786e+001	1.197210e+002	-2.432148e+001	1.503085e+001
2200000000.000	-2.358543e+001	6.437752e+001	-2.263257e+001	7.584058e+001	-2.268423e+001	7.534588e+001	-2.872733e+001	-5.068414e+001
2204900000.000	-2.424441e+001	5.194671e+001	-2.282951e+001	3.123799e+001	-2.288903e+001	3.118534e+001	-3.631375e+001	-1.237060e+002
2209800000.000	-2.529651e+001	4.080547e+001	-2.306089e+001	-1.344210e+001	-2.304485e+001	-1.358255e+001	-4.595969e+001	6.601583e+001
2214700000.000	-2.658196e+001	3.019983e+001	-2.330678e+001	-5.799277e+001	-2.331425e+001	-5.839442e+001	-3.547636e+001	-5.409334e+001
2219600000.000	-2.837830e+001	2.046362e+001	-2.357706e+001	-1.022470e+002	-2.363524e+001	-1.026029e+002	-2.994663e+001	-1.333358e+002
2224500000.000	-3.033237e+001	1.336466e+001	-2.385219e+001	-1.463413e+002	-2.389928e+001	-1.463344e+002	-2.616619e+001	1.584197e+002
2229400000.000	-3.178984e+001	7.396736e+000	-2.411907e+001	1.699358e+002	-2.409940e+001	1.697762e+002	-2.373866e+001	9.248688e+001
2234300000.000	-3.212808e+001	-6.807092e+000	-2.437957e+001	1.261858e+002	-2.438659e+001	1.254254e+002	-2.214119e+001	2.388010e+001
2239200000.000	-3.342966e+001	-3.557995e+001	-2.468792e+001	8.298095e+001	-2.481607e+001	8.203656e+001	-2.058785e+001	-4.501103e+001
2244100000.000	-3.609970e+001	-6.784106e+001	-2.495765e+001	4.035956e+001	-2.517971e+001	4.041306e+001	-1.904830e+001	-1.089791e+002
2249000000.000	-3.912616e+001	-1.031886e+002	-2.510778e+001	-1.866257e+000	-2.526227e+001	-5.276505e-001	-1.787643e+001	-1.690713e+002
2253900000.000	-4.093749e+001	-1.438625e+002	-2.516497e+001	-4.420120e+001	-2.506483e+001	-4.252359e+001	-1.719441e+001	1.297291e+002
2258800000.000	-4.049357e+001	1.721352e+002	-2.520168e+001	-8.697467e+001	-2.491797e+001	-8.679581e+001	-1.697425e+001	6.382877e+001
2263700000.000	-3.944005e+001	1.348384e+002	-2.522030e+001	-1.294764e+002	-2.505854e+001	-1.311029e+002	-1.682815e+001	-4.839160e+000
2268600000.000	-4.096273e+001	1.082956e+002	-2.518615e+001	-1.722872e+002	-2.530219e+001	-1.736858e+002	-1.651015e+001	-7.192363e+001
2273500000.000	-4.555250e+001	1.303535e+002	-2.513230e+001	1.446250e+002	-2.532316e+001	1.447471e+002	-1.593194e+001	-1.351675e+002
2278400000.000	-4.017303e+001	1.651382e+002	-2.512650e+001	1.015525e+002	-2.508364e+001	1.028240e+002	-1.522885e+001	1.633520e+002
2283300000.000	-3.562459e+001	1.656548e+002	-2.502947e+001	5.842651e+001	-2.474535e+001	5.857957e+001	-1.462698e+001	1.000828e+002
2288200000.000	-3.275684e+001	1.589867e+002	-2.502434e+001	1.467021e+001	-2.482405e+001	1.263853e+001	-1.447325e+001	3.360296e+001
2293100000.000	-3.101790e+001	1.524754e+002	-2.515104e+001	-2.844728e+001	-2.524680e+001	-3.104463e+001	-1.462151e+001	-3.366297e+001
2298000000.000	-2.966769e+001	1.471542e+002	-2.527145e+001	-7.022771e+001	-2.559465e+001	-7.134867e+001	-1.457759e+001	-9.827794e+001
2302900000.000	-2.815259e+001	1.432941e+002	-2.514458e+001	-1.106440e+002	-2.540859e+001	-1.097574e+002	-1.419515e+001	-1.604222e+002
2307800000.000	-2.570736e+001	1.343340e+002	-2.467762e+001	-1.522614e+002	-2.463377e+001	-1.507577e+002	-1.377052e+001	1.365095e+002
2312700000.000	-2.372004e+001	1.167236e+002	-2.416296e+001	1.642345e+002	-2.390100e+001	1.641982e+002	-1.360610e+001	7.003096e+001
2317600000.000	-2.250397e+001	9.751368e+001	-2.379213e+001	1.197437e+002	-2.368713e+001	1.176118e+002	-1.382490e+001	2.255696e+000
2322500000.000	-2.168798e+001	7.868455e+001	-2.353885e+001	7.511393e+001	-2.378200e+001	7.317759e+001	-1.416952e+001	-6.277704e+001
2327400000.000	-2.129574e+001	6.012270e+001	-2.337103e+001	3.078851e+001	-2.376738e+001	3.109965e+001	-1.432253e+001	-1.251149e+002
2332300000.000	-2.141479e+001	4.211820e+001	-2.320758e+001	-1.250695e+001	-2.338210e+001	-1.033300e+001	-1.406566e+001	1.719723e+002
2337200000.000	-2.201748e+001	2.518135e+001	-2.287642e+001	-5.556651e+001	-2.265128e+001	-5.370434e+001	-1.355513e+001	1.064037e+002
2342100000.000	-2.292372e+001	8.419884e+000	-2.235085e+001	-9.911904e+001	-2.202421e+001	-9.959870e+001	-1.343274e+001	3.959713e+001
2347000000.000	-2.414807e+001	-1.100698e+001	-2.182180e+001	-1.444336e+002	-2.173864e+001	-1.464661e+002	-1.388972e+001	-2.638908e+001
2351900000.000	-2.589761e+001	-3.530498e+001	-2.141465e+001	1.698875e+002	-2.161185e+001	1.684447e+002	-1.444126e+001	-9.047390e+001
2356800000.000	-2.807742e+001	-6.520925e+001	-2.102127e+001	1.239977e+002	-2.128003e+001	1.243215e+002	-1.449515e+001	-1.532205e+002
2361700000.000	-2.998982e+001	-9.885457e+001	-2.065683e+001	7.771869e+001	-2.070099e+001	7.928793e+001	-1.426732e+001	1.441976e+002
2366600000.000	-3.089289e+001	-1.331637e+002	-2.030659e+001	3.098392e+001	-2.006920e+001	3.160949e+001	-1.439979e+001	7.902230e+001
2371500000.000	-3.154017e+001	-1.656364e+002	-2.001241e+001	-1.640971e+001	-1.982683e+001	-1.796503e+001	-1.515755e+001	1.146537e+001
2376400000.000	-3.279682e+001	1.661485e+002	-1.981935e+001	-6.425306e+001	-1.997060e+001	-6.628583e+001	-1.587457e+001	-5.362715e+001
2381300000.000	-3.488721e+001	1.408271e+002	-1.974624e+001	-1.125651e+002	-2.009057e+001	-1.127817e+002	-1.615961e+001	-1.132644e+002
2386200000.000	-3.749608e+001	1.235050e+002	-1.990600e+001	-1.608702e+002	-2.010451e+001	-1.590514e+002	-1.639046e+001	-1.697501e+002
2391100000.000	-3.846621e+001	1.174194e+002	-2.019464e+001	1.523589e+002	-2.005538e+001	1.541913e+002	-1.687655e+001	1.318825e+002
2396000000.000	-3.655545e+001	1.079331e+002	-2.035724e+001	1.064336e+002	-2.008457e+001	1.064614e+002	-1.742352e+001	6.855083e+001
2400900000.000	-3.446387e+001	8.998302e+001	-2.047036e+001	6.028129e+001	-2.035530e+001	5.886843e+001	-1.775184e+001	3.920382e+000
2405800000.000	-3.429689e+001	7.260141e+001	-2.062235e+001	1.353791e+001	-2.072291e+001	1.248868e+001	-1.788781e+001	-5.681159e+001
2410700000.000	-3.556574e+001	6.615630e+001	-2.092410e+001	-3.290896e+001	-2.106224e+001	-3.296023e+001	-1.800717e+001	-1.147319e+002
2415600000.000	-3.726932e+001	7.333484e+001	-2.123659e+001	-7.822821e+001	-2.129216e+001	-7.763541e+001	-1.801401e+001	-1.738457e+002
2420500000.000	-3.737714e+001	9.468943e+001	-2.143575e+001	-1.231790e+002	-2.135931e+001	-1.227090e+002	-1.785450e+001	1.246858e+002
2425400000.000	-3.433166e+001	1.077764e+002	-2.157133e+001	-1.687450e+002	-2.143393e+001	-1.689344e+002	-1.783415e+001	6.290438e+001
2430300000.000	-3.158355e+001	1.014241e+002	-2.177718e+001	1.452296e+002	-2.169887e+001	1.439019e+002	-1.833190e+001	2.081849e+000
2435200000.000	-2.997260e+001	8.781264e+001	-2.209578e+001	9.900357e+001	-2.219965e+001	9.744019e+001	-1.925931e+001	-5.770577e+001
