!Agilent Technologies,E5061B,MY49305579,A.02.22
!Date: Thu Aug 24 16:25:11 2017
!Data & Calibration Information:
!Freq	S11:SOLT2(ON)	S21:SOLT2(ON)	S12:SOLT2(ON)	S22:SOLT2(ON)
# Hz S dB R 50
1710000000.000	-2.606449e+001	-1.523727e+002	-1.832872e+001	-1.429919e+002	-1.803027e+001	-1.443214e+002	-1.642358e+001	9.352357e+001
1714900000.000	-2.562017e+001	-1.633960e+002	-1.767100e+001	1.690689e+002	-1.777987e+001	1.674321e+002	-1.607236e+001	2.183534e+001
1719800000.000	-2.579691e+001	-1.746456e+002	-1.766938e+001	1.203692e+002	-1.780834e+001	1.209556e+002	-1.566208e+001	-4.990582e+001
1724700000.000	-2.622430e+001	1.768478e+002	-1.781426e+001	7.539798e+001	-1.771126e+001	7.579462e+001	-1.474913e+001	-1.150687e+002
1729600000.000	-2.665345e+001	1.710599e+002	-1.742065e+001	3.109623e+001	-1.740992e+001	3.054271e+001	-1.384941e+001	-1.758279e+002
1734500000.000	-2.709024e+001	1.689153e+002	-1.693672e+001	-1.729193e+001	-1.702820e+001	-1.650647e+001	-1.348451e+001	1.230737e+002
1739400000.000	-2.703232e+001	1.694355e+002	-1.714191e+001	-6.640527e+001	-1.686942e+001	-6.519947e+001	-1.384380e+001	5.704221e+001
1744300000.000	-2.626990e+001	1.698610e+002	-1.743170e+001	-1.113831e+002	-1.706380e+001	-1.134589e+002	-1.440872e+001	-1.433217e+001
1749200000.000	-2.511105e+001	1.650127e+002	-1.719080e+001	-1.565742e+002	-1.739893e+001	-1.598244e+002	-1.429268e+001	-8.394035e+001
1754100000.000	-2.427496e+001	1.547278e+002	-1.708386e+001	1.548502e+002	-1.758876e+001	1.553528e+002	-1.368735e+001	-1.473600e+002
1759000000.000	-2.390730e+001	1.416767e+002	-1.756935e+001	1.070799e+002	-1.754067e+001	1.100439e+002	-1.341338e+001	1.506319e+002
1763900000.000	-2.390598e+001	1.259174e+002	-1.799837e+001	6.360769e+001	-1.759539e+001	6.314517e+001	-1.386888e+001	8.390682e+001
1768800000.000	-2.428113e+001	1.078603e+002	-1.783089e+001	1.928092e+001	-1.792458e+001	1.625651e+001	-1.460977e+001	1.133048e+001
1773700000.000	-2.503218e+001	8.822332e+001	-1.790105e+001	-2.820141e+001	-1.838844e+001	-2.825403e+001	-1.495905e+001	-6.031344e+001
1778600000.000	-2.605490e+001	6.740543e+001	-1.849104e+001	-7.333847e+001	-1.863768e+001	-7.083766e+001	-1.510507e+001	-1.258502e+002
1783500000.000	-2.728158e+001	4.449814e+001	-1.872139e+001	-1.148989e+002	-1.855213e+001	-1.136674e+002	-1.567455e+001	1.720552e+002
1788400000.000	-2.862726e+001	1.914363e+001	-1.845742e+001	-1.580951e+002	-1.836433e+001	-1.580848e+002	-1.703370e+001	1.088688e+002
1793300000.000	-2.990248e+001	-1.096369e+001	-1.836914e+001	1.564866e+002	-1.833290e+001	1.566243e+002	-1.910795e+001	4.213665e+001
1798200000.000	-3.065249e+001	-4.345525e+001	-1.848119e+001	1.124867e+002	-1.840389e+001	1.124208e+002	-2.124132e+001	-2.628150e+001
1803100000.000	-3.030893e+001	-7.282354e+001	-1.830823e+001	6.935679e+001	-1.829879e+001	6.893497e+001	-2.259946e+001	-8.897436e+001
1808000000.000	-2.937913e+001	-9.617904e+001	-1.800705e+001	2.483410e+001	-1.806698e+001	2.488059e+001	-2.356225e+001	-1.405545e+002
1812900000.000	-2.829058e+001	-1.131012e+002	-1.773441e+001	-2.039680e+001	-1.774781e+001	-1.984628e+001	-2.474513e+001	-1.799647e+002
1817800000.000	-2.735456e+001	-1.228804e+002	-1.746588e+001	-6.636372e+001	-1.736750e+001	-6.555965e+001	-2.531225e+001	1.472884e+002
1822700000.000	-2.579039e+001	-1.335369e+002	-1.731792e+001	-1.128173e+002	-1.711061e+001	-1.125963e+002	-2.527869e+001	1.061601e+002
1827600000.000	-2.489128e+001	-1.458412e+002	-1.717625e+001	-1.590594e+002	-1.697333e+001	-1.601907e+002	-2.448248e+001	5.011882e+001
1832500000.000	-2.434915e+001	-1.577325e+002	-1.703654e+001	1.538975e+002	-1.706988e+001	1.521914e+002	-2.286933e+001	-1.380904e+001
1837400000.000	-2.408317e+001	-1.700727e+002	-1.709200e+001	1.059021e+002	-1.730470e+001	1.054642e+002	-2.065824e+001	-7.347209e+001
1842300000.000	-2.397119e+001	1.773189e+002	-1.745758e+001	5.912943e+001	-1.753604e+001	6.012094e+001	-1.886090e+001	-1.299959e+002
1847200000.000	-2.396391e+001	1.634484e+002	-1.769661e+001	1.482918e+001	-1.757957e+001	1.530152e+001	-1.774513e+001	1.730261e+002
1852100000.000	-2.413765e+001	1.493460e+002	-1.760675e+001	-3.020860e+001	-1.753937e+001	-3.056525e+001	-1.714576e+001	1.127212e+002
1857000000.000	-2.457717e+001	1.342769e+002	-1.764062e+001	-7.733449e+001	-1.762232e+001	-7.723051e+001	-1.684456e+001	4.754657e+001
1861900000.000	-2.559277e+001	1.204542e+002	-1.803848e+001	-1.231843e+002	-1.789482e+001	-1.233446e+002	-1.661841e+001	-1.911545e+001
1866800000.000	-2.722165e+001	1.110120e+002	-1.823748e+001	-1.671347e+002	-1.818226e+001	-1.687167e+002	-1.573564e+001	-8.323028e+001
1871700000.000	-2.907245e+001	1.060634e+002	-1.817549e+001	1.484965e+002	-1.846444e+001	1.475244e+002	-1.441416e+001	-1.450810e+002
1876600000.000	-3.133786e+001	1.067896e+002	-1.816267e+001	1.018016e+002	-1.839006e+001	1.039982e+002	-1.326281e+001	1.543077e+002
1881500000.000	-3.326107e+001	1.172859e+002	-1.861390e+001	5.584686e+001	-1.820581e+001	5.796775e+001	-1.256523e+001	9.027493e+001
1886400000.000	-3.349124e+001	1.288042e+002	-1.885309e+001	1.362019e+001	-1.837863e+001	1.064959e+001	-1.235576e+001	2.088763e+001
1891300000.000	-3.333723e+001	1.303210e+002	-1.847238e+001	-3.054805e+001	-1.883678e+001	-3.488680e+001	-1.208071e+001	-4.904985e+001
1896200000.000	-3.472416e+001	1.221867e+002	-1.846216e+001	-7.939162e+001	-1.918556e+001	-7.829937e+001	-1.144446e+001	-1.136521e+002
1901100000.000	-3.890835e+001	1.446412e+002	-1.928380e+001	-1.245444e+002	-1.929020e+001	-1.200952e+002	-1.069029e+001	-1.748631e+002
1906000000.000	-3.743224e+001	1.506990e+002	-1.934174e+001	-1.652606e+002	-1.877008e+001	-1.645487e+002	-1.018336e+001	1.204067e+002
1910900000.000	-4.001551e+001	1.644014e+002	-1.883677e+001	1.498903e+002	-1.867268e+001	1.469886e+002	-1.013109e+001	4.954481e+001
1915800000.000	-3.806023e+001	-1.622780e+002	-1.893484e+001	1.006758e+002	-1.921410e+001	9.953646e+001	-1.040170e+001	-2.203524e+001
1920700000.000	-3.323541e+001	-1.580295e+002	-1.972327e+001	5.552162e+001	-1.987275e+001	5.627096e+001	-1.052249e+001	-8.829391e+001
1925600000.000	-2.992361e+001	-1.684738e+002	-1.999799e+001	1.488305e+001	-2.003808e+001	1.545416e+001	-1.028701e+001	-1.508950e+002
1930500000.000	-2.769625e+001	1.769967e+002	-1.963766e+001	-2.863046e+001	-1.964473e+001	-2.722226e+001	-9.825839e+000	1.442529e+002
1935400000.000	-2.626084e+001	1.610490e+002	-1.974189e+001	-7.515989e+001	-1.937278e+001	-7.377520e+001	-9.655158e+000	7.465333e+001
1940300000.000	-2.548070e+001	1.447562e+002	-2.003774e+001	-1.183964e+002	-1.959770e+001	-1.209628e+002	-1.021419e+001	1.773512e+000
1945200000.000	-2.538160e+001	1.281968e+002	-1.987464e+001	-1.614582e+002	-2.010252e+001	-1.653035e+002	-1.116890e+001	-6.760980e+001
1950100000.000	-2.605737e+001	1.121992e+002	-1.976945e+001	1.526904e+002	-2.033326e+001	1.529940e+002	-1.171888e+001	-1.330253e+002
1955000000.000	-2.735507e+001	9.828655e+001	-2.006616e+001	1.080895e+002	-2.011586e+001	1.112148e+002	-1.211502e+001	1.629799e+002
1959900000.000	-2.863387e+001	8.595448e+001	-1.995777e+001	6.616746e+001	-1.958232e+001	6.680580e+001	-1.297917e+001	9.828436e+001
1964800000.000	-3.015551e+001	6.930497e+001	-1.942179e+001	2.053200e+001	-1.929079e+001	1.850091e+001	-1.430663e+001	3.054041e+001
1969700000.000	-3.260978e+001	4.808908e+001	-1.948813e+001	-2.823176e+001	-1.971635e+001	-2.923869e+001	-1.581574e+001	-4.203743e+001
1974600000.000	-3.556805e+001	2.298293e+001	-1.996117e+001	-7.396371e+001	-2.010139e+001	-7.305894e+001	-1.694698e+001	-1.126644e+002
1979500000.000	-3.924027e+001	-2.112607e+001	-2.022441e+001	-1.176227e+002	-2.019351e+001	-1.168210e+002	-1.775454e+001	-1.786543e+002
1984400000.000	-3.955003e+001	-9.690819e+001	-2.029174e+001	-1.620422e+002	-2.022186e+001	-1.616515e+002	-1.921857e+001	1.170624e+002
1989300000.000	-3.862277e+001	-1.624639e+002	-2.049177e+001	1.533287e+002	-2.039961e+001	1.535483e+002	-2.199392e+001	5.126324e+001
1994200000.000	-3.844714e+001	-1.725826e+002	-2.069587e+001	1.094391e+002	-2.059258e+001	1.092476e+002	-2.618932e+001	-2.113570e+001
1999100000.000	-3.644800e+001	-1.693924e+002	-2.077498e+001	6.600133e+001	-2.071554e+001	6.560830e+001	-3.024734e+001	-1.044773e+002
2004000000.000	-3.352835e+001	-1.688812e+002	-2.081823e+001	2.169337e+001	-2.073949e+001	2.148028e+001	-3.421907e+001	1.646431e+002
2008900000.000	-3.111866e+001	-1.733108e+002	-2.095551e+001	-2.245066e+001	-2.083313e+001	-2.320877e+001	-3.783010e+001	1.195555e+001
2013800000.000	-2.952830e+001	-1.781928e+002	-2.105974e+001	-6.595097e+001	-2.106432e+001	-6.726116e+001	-2.744491e+001	-9.020455e+001
2018700000.000	-2.808854e+001	1.769289e+002	-2.108246e+001	-1.099601e+002	-2.119032e+001	-1.103244e+002	-2.246752e+001	-1.532833e+002
2023600000.000	-2.726440e+001	1.701837e+002	-2.124188e+001	-1.536333e+002	-2.120199e+001	-1.533981e+002	-2.025123e+001	1.476330e+002
2028500000.000	-2.670504e+001	1.648653e+002	-2.130113e+001	1.640918e+002	-2.113270e+001	1.630297e+002	-1.938154e+001	8.120396e+001
2033400000.000	-2.630732e+001	1.572724e+002	-2.105728e+001	1.210517e+002	-2.112823e+001	1.188917e+002	-1.867826e+001	6.090578e+000
2038300000.000	-2.625986e+001	1.481418e+002	-2.093985e+001	7.633073e+001	-2.123317e+001	7.564081e+001	-1.717357e+001	-6.736837e+001
2043200000.000	-2.647017e+001	1.393133e+002	-2.098974e+001	3.265812e+001	-2.116075e+001	3.368194e+001	-1.558290e+001	-1.333365e+002
2048100000.000	-2.670655e+001	1.302823e+002	-2.078222e+001	-9.701127e+000	-2.071999e+001	-8.736277e+000	-1.436043e+001	1.633335e+002
2053000000.000	-2.684453e+001	1.217653e+002	-2.030136e+001	-5.434586e+001	-2.016406e+001	-5.413419e+001	-1.368088e+001	9.619167e+001
2057900000.000	-2.675206e+001	1.138947e+002	-2.015463e+001	-1.006656e+002	-1.998560e+001	-1.013289e+002	-1.344469e+001	2.512190e+001
2062800000.000	-2.619913e+001	1.049922e+002	-2.014803e+001	-1.450777e+002	-2.009441e+001	-1.469013e+002	-1.342051e+001	-4.583788e+001
2067700000.000	-2.572328e+001	9.259056e+001	-1.990689e+001	1.706462e+002	-2.015639e+001	1.691498e+002	-1.316857e+001	-1.129823e+002
2072600000.000	-2.602203e+001	7.700255e+001	-1.957347e+001	1.250882e+002	-1.985625e+001	1.262257e+002	-1.260628e+001	-1.775680e+002
2077500000.000	-2.698924e+001	6.727416e+001	-1.941955e+001	7.814005e+001	-1.922970e+001	8.021413e+001	-1.208808e+001	1.169006e+002
2082400000.000	-2.762585e+001	5.773672e+001	-1.941365e+001	3.221850e+001	-1.898425e+001	3.118632e+001	-1.217499e+001	4.877786e+001
2087300000.000	-2.840563e+001	4.496148e+001	-1.926782e+001	-1.376666e+001	-1.924573e+001	-1.706283e+001	-1.280341e+001	-1.975571e+001
2092200000.000	-2.967903e+001	2.755948e+001	-1.920837e+001	-6.116382e+001	-1.960377e+001	-6.271230e+001	-1.323939e+001	-8.600752e+001
2097100000.000	-3.149939e+001	6.472623e+000	-1.942861e+001	-1.081850e+002	-1.971278e+001	-1.068377e+002	-1.317179e+001	-1.485566e+002
2102000000.000	-3.372411e+001	-1.768174e+001	-1.961900e+001	-1.536755e+002	-1.952499e+001	-1.520556e+002	-1.288087e+001	1.490265e+002
2106900000.000	-3.540770e+001	-4.981578e+001	-1.966410e+001	1.601865e+002	-1.943483e+001	1.600462e+002	-1.305746e+001	8.207456e+001
2111800000.000	-3.683347e+001	-8.540757e+001	-1.990633e+001	1.130925e+002	-1.983125e+001	1.118315e+002	-1.372787e+001	1.120097e+001
2116700000.000	-3.709514e+001	-1.180479e+002	-2.036833e+001	6.746958e+001	-2.047835e+001	6.646615e+001	-1.428160e+001	-5.904296e+001
2121600000.000	-3.599819e+001	-1.457563e+002	-2.062182e+001	2.419325e+001	-2.079880e+001	2.433971e+001	-1.474078e+001	-1.253015e+002
2126500000.000	-3.534741e+001	-1.745553e+002	-2.050524e+001	-2.181602e+001	-2.055432e+001	-2.047073e+001	-1.522350e+001	1.727161e+002
2131400000.000	-3.559331e+001	1.721158e+002	-2.082771e+001	-6.913714e+001	-2.060053e+001	-6.795075e+001	-1.600288e+001	1.076076e+002
2136300000.000	-3.500857e+001	1.700734e+002	-2.140548e+001	-1.148208e+002	-2.106764e+001	-1.156433e+002	-1.738691e+001	3.879276e+001
2141200000.000	-3.329328e+001	1.664669e+002	-2.193206e+001	-1.587319e+002	-2.183919e+001	-1.610043e+002	-1.875531e+001	-3.235870e+001
2146100000.000	-3.355699e+001	1.614155e+002	-2.221581e+001	1.573098e+002	-2.237134e+001	1.559448e+002	-1.943609e+001	-1.011876e+002
2151000000.000	-3.256249e+001	1.744360e+002	-2.269522e+001	1.125671e+002	-2.279428e+001	1.125882e+002	-1.959712e+001	-1.643746e+002
2155900000.000	-3.005304e+001	1.781779e+002	-2.327909e+001	6.964347e+001	-2.321589e+001	6.963399e+001	-2.030563e+001	1.358616e+002
2160800000.000	-2.769797e+001	1.750311e+002	-2.369864e+001	2.794249e+001	-2.361694e+001	2.692323e+001	-2.230530e+001	7.523354e+001
2165700000.000	-2.578316e+001	1.651303e+002	-2.394172e+001	-1.348494e+001	-2.401297e+001	-1.473553e+001	-2.538333e+001	6.123277e+000
2170600000.000	-2.471190e+001	1.526455e+002	-2.409164e+001	-5.539643e+001	-2.423822e+001	-5.595374e+001	-2.730172e+001	-7.374407e+001
2175500000.000	-2.400634e+001	1.395947e+002	-2.418182e+001	-9.706868e+001	-2.428140e+001	-9.699439e+001	-2.749069e+001	-1.467272e+002
2180400000.000	-2.355627e+001	1.257274e+002	-2.419327e+001	-1.393726e+002	-2.421558e+001	-1.393273e+002	-2.982376e+001	1.517370e+002
2185300000.000	-2.330039e+001	1.109597e+002	-2.420757e+001	1.785223e+002	-2.421197e+001	1.782505e+002	-3.779901e+001	9.655818e+001
2190200000.000	-2.321399e+001	9.571010e+001	-2.418131e+001	1.357787e+002	-2.422309e+001	1.355007e+002	-3.960449e+001	-1.503487e+002
2195100000.000	-2.343494e+001	8.145583e+001	-2.423912e+001	9.337712e+001	-2.426531e+001	9.337655e+001	-3.031757e+001	1.487860e+002
2200000000.000	-2.375231e+001	6.847576e+001	-2.423174e+001	5.169518e+001	-2.418927e+001	5.173985e+001	-2.663035e+001	8.673294e+001
2204900000.000	-2.439186e+001	5.559278e+001	-2.406973e+001	1.019715e+001	-2.400279e+001	9.774039e+000	-2.448560e+001	2.415796e+001
2209800000.000	-2.541568e+001	4.492194e+001	-2.376945e+001	-3.178618e+001	-2.379252e+001	-3.276869e+001	-2.321320e+001	-4.159831e+001
2214700000.000	-2.662538e+001	3.502881e+001	-2.345213e+001	-7.463841e+001	-2.356531e+001	-7.509652e+001	-2.229084e+001	-1.093652e+002
2219600000.000	-2.827510e+001	2.610348e+001	-2.316713e+001	-1.179185e+002	-2.324511e+001	-1.174347e+002	-2.101668e+001	-1.758769e+002
2224500000.000	-3.006670e+001	2.025609e+001	-2.283250e+001	-1.607835e+002	-2.277953e+001	-1.604545e+002	-1.973148e+001	1.181269e+002
2229400000.000	-3.108514e+001	1.570439e+001	-2.234050e+001	1.559237e+002	-2.224393e+001	1.552184e+002	-1.887119e+001	5.207043e+001
2234300000.000	-3.111863e+001	7.175994e-001	-2.179846e+001	1.104722e+002	-2.185509e+001	1.090066e+002	-1.812593e+001	-1.645303e+001
2239200000.000	-3.240250e+001	-2.660732e+001	-2.155370e+001	6.424696e+001	-2.181343e+001	6.353510e+001	-1.749753e+001	-8.357539e+001
2244100000.000	-3.491963e+001	-5.270709e+001	-2.140272e+001	1.897293e+001	-2.166433e+001	1.986556e+001	-1.684346e+001	-1.455529e+002
2249000000.000	-3.769101e+001	-7.612416e+001	-2.121890e+001	-2.625101e+001	-2.125267e+001	-2.432347e+001	-1.646661e+001	1.531547e+002
2253900000.000	-3.957848e+001	-1.015193e+002	-2.103516e+001	-7.157312e+001	-2.080664e+001	-7.040489e+001	-1.650904e+001	8.923455e+001
2258800000.000	-4.070373e+001	-1.354422e+002	-2.087649e+001	-1.169552e+002	-2.062584e+001	-1.178069e+002	-1.668093e+001	2.052016e+001
2263700000.000	-4.108693e+001	-1.673653e+002	-2.071083e+001	-1.623260e+002	-2.070994e+001	-1.639081e+002	-1.672408e+001	-4.784930e+001
2268600000.000	-4.050690e+001	-1.783354e+002	-2.052396e+001	1.518228e+002	-2.070871e+001	1.514121e+002	-1.638379e+001	-1.126106e+002
2273500000.000	-3.682833e+001	-1.796154e+002	-2.049534e+001	1.051406e+002	-2.054379e+001	1.061239e+002	-1.583713e+001	-1.743216e+002
2278400000.000	-3.325287e+001	1.684370e+002	-2.069330e+001	5.983607e+001	-2.046658e+001	6.044676e+001	-1.519889e+001	1.226387e+002
2283300000.000	-3.089963e+001	1.559800e+002	-2.071035e+001	1.656141e+001	-2.044284e+001	1.513792e+001	-1.495062e+001	5.542722e+001
2288200000.000	-2.938802e+001	1.426936e+002	-2.037888e+001	-2.712073e+001	-2.038434e+001	-2.979937e+001	-1.514483e+001	-1.490763e+001
2293100000.000	-2.886339e+001	1.305102e+002	-1.996242e+001	-7.282303e+001	-2.025479e+001	-7.436183e+001	-1.551466e+001	-8.399487e+001
2298000000.000	-2.905407e+001	1.205151e+002	-1.956698e+001	-1.193467e+002	-1.984944e+001	-1.190017e+002	-1.539646e+001	-1.487651e+002
2302900000.000	-2.986131e+001	1.174895e+002	-1.915159e+001	-1.683875e+002	-1.917245e+001	-1.670547e+002	-1.497544e+001	1.437381e+002
2307800000.000	-2.853462e+001	1.228973e+002	-1.934279e+001	1.403811e+002	-1.915957e+001	1.404150e+002	-1.560507e+001	6.975169e+001
2312700000.000	-2.598080e+001	1.124134e+002	-2.005019e+001	9.243908e+001	-1.999174e+001	9.098004e+001	-1.725421e+001	-2.979392e+000
2317600000.000	-2.441774e+001	9.577083e+001	-2.064966e+001	4.726281e+001	-2.080893e+001	4.608608e+001	-1.885041e+001	-7.058288e+001
2322500000.000	-2.346478e+001	7.872525e+001	-2.107034e+001	3.228771e+000	-2.127667e+001	3.277971e+000	-2.022975e+001	-1.338430e+002
2327400000.000	-2.301603e+001	6.204012e+001	-2.130795e+001	-4.066194e+001	-2.140039e+001	-3.979279e+001	-2.142836e+001	1.633018e+002
2332300000.000	-2.312897e+001	4.643275e+001	-2.142479e+001	-8.469841e+001	-2.136893e+001	-8.410045e+001	-2.256484e+001	1.002983e+002
2337200000.000	-2.371487e+001	3.295621e+001	-2.149718e+001	-1.298903e+002	-2.139916e+001	-1.300022e+002	-2.374421e+001	4.050323e+001
2342100000.000	-2.447946e+001	2.063797e+001	-2.171150e+001	-1.752628e+002	-2.167909e+001	-1.758254e+002	-2.541998e+001	-1.729176e+001
2347000000.000	-2.533094e+001	6.218336e+000	-2.197808e+001	1.396411e+002	-2.199704e+001	1.391420e+002	-2.761831e+001	-7.374005e+001
2351900000.000	-2.670957e+001	-1.286633e+001	-2.229246e+001	9.485420e+001	-2.232613e+001	9.451048e+001	-2.923511e+001	-1.292240e+002
2356800000.000	-2.869240e+001	-3.652338e+001	-2.262337e+001	5.075954e+001	-2.266850e+001	5.055964e+001	-2.966928e+001	-1.767528e+002
2361700000.000	-3.068438e+001	-6.373432e+001	-2.289478e+001	7.144293e+000	-2.295506e+001	7.120559e+000	-2.923557e+001	1.422304e+002
2366600000.000	-3.186759e+001	-9.482055e+001	-2.314324e+001	-3.617831e+001	-2.315841e+001	-3.614522e+001	-2.905073e+001	9.777882e+001
2371500000.000	-3.269995e+001	-1.251053e+002	-2.327542e+001	-7.924923e+001	-2.327219e+001	-7.939830e+001	-2.927286e+001	4.314904e+001
2376400000.000	-3.350959e+001	-1.485452e+002	-2.332999e+001	-1.230497e+002	-2.334929e+001	-1.233802e+002	-2.820961e+001	-1.982921e+001
2381300000.000	-3.428157e+001	-1.666922e+002	-2.346977e+001	-1.673524e+002	-2.353677e+001	-1.676643e+002	-2.604195e+001	-7.728786e+001
2386200000.000	-3.443897e+001	1.780526e+002	-2.371510e+001	1.484925e+002	-2.381857e+001	1.488140e+002	-2.407057e+001	-1.271805e+002
2391100000.000	-3.349745e+001	1.590224e+002	-2.397504e+001	1.052201e+002	-2.399542e+001	1.061114e+002	-2.309047e+001	-1.789187e+002
2396000000.000	-3.192121e+001	1.337213e+002	-2.421366e+001	6.277215e+001	-2.408162e+001	6.335766e+001	-2.284981e+001	1.233653e+002
2400900000.000	-3.064055e+001	1.070462e+002	-2.422008e+001	2.080645e+001	-2.407172e+001	2.042142e+001	-2.224567e+001	5.808737e+001
2405800000.000	-3.046867e+001	8.382533e+001	-2.410872e+001	-2.252028e+001	-2.405914e+001	-2.353108e+001	-2.117135e+001	-7.558330e+000
2410700000.000	-3.139726e+001	6.824413e+001	-2.417867e+001	-6.657313e+001	-2.426778e+001	-6.744381e+001	-2.015375e+001	-6.975216e+001
2415600000.000	-3.321951e+001	6.176594e+001	-2.437778e+001	-1.093992e+002	-2.448221e+001	-1.095247e+002	-1.953388e+001	-1.315339e+002
2420500000.000	-3.525107e+001	6.911794e+001	-2.439584e+001	-1.511200e+002	-2.444397e+001	-1.507224e+002	-1.884383e+001	1.656513e+002
2425400000.000	-3.500952e+001	8.681321e+001	-2.420724e+001	1.666141e+002	-2.412624e+001	1.670009e+002	-1.798046e+001	1.019570e+002
2430300000.000	-3.267546e+001	8.963258e+001	-2.402289e+001	1.233527e+002	-2.387363e+001	1.227588e+002	-1.755294e+001	3.824913e+001
2435200000.000	-3.091907e+001	8.021548e+001	-2.384423e+001	8.001876e+001	-2.383193e+001	7.828421e+001	-1.770540e+001	-2.464302e+001
