!Agilent Technologies,E5061B,MY49305579,A.02.22
!Date: Thu Aug 24 16:25:40 2017
!Data & Calibration Information:
!Freq	S11:SOLT2(ON)	S21:SOLT2(ON)	S12:SOLT2(ON)	S22:SOLT2(ON)
# Hz S dB R 50
1710000000.000	-2.509250e+001	-1.147412e+002	-1.615246e+001	7.119294e+001	-1.597039e+001	7.154318e+001	-2.565537e+001	1.641295e+002
1714900000.000	-2.355774e+001	-1.320364e+002	-1.623225e+001	2.640366e+001	-1.612678e+001	2.561199e+001	-2.636970e+001	8.035779e+001
1719800000.000	-2.262114e+001	-1.483823e+002	-1.628089e+001	-1.857277e+001	-1.631015e+001	-1.888526e+001	-2.477293e+001	-1.547268e+001
1724700000.000	-2.199669e+001	-1.643326e+002	-1.647147e+001	-6.306336e+001	-1.642196e+001	-6.297168e+001	-2.111822e+001	-9.570852e+001
1729600000.000	-2.165763e+001	-1.797716e+002	-1.641748e+001	-1.059147e+002	-1.637874e+001	-1.063346e+002	-1.846214e+001	-1.609852e+002
1734500000.000	-2.164257e+001	1.656757e+002	-1.608810e+001	-1.507277e+002	-1.613665e+001	-1.505306e+002	-1.717692e+001	1.370626e+002
1739400000.000	-2.198579e+001	1.515777e+002	-1.603194e+001	1.629987e+002	-1.586061e+001	1.637829e+002	-1.690813e+001	6.955669e+001
1744300000.000	-2.279636e+001	1.391480e+002	-1.610331e+001	1.188827e+002	-1.581627e+001	1.170842e+002	-1.677328e+001	-8.075610e+000
1749200000.000	-2.377660e+001	1.283825e+002	-1.566500e+001	7.495166e+001	-1.592540e+001	7.201587e+001	-1.566166e+001	-8.509633e+001
1754100000.000	-2.495117e+001	1.172940e+002	-1.525625e+001	2.679868e+001	-1.576559e+001	2.778906e+001	-1.429163e+001	-1.549256e+002
1759000000.000	-2.646914e+001	1.058582e+002	-1.549248e+001	-2.112605e+001	-1.535980e+001	-1.814252e+001	-1.367268e+001	1.355681e+002
1763900000.000	-2.834957e+001	9.386788e+001	-1.550349e+001	-6.542578e+001	-1.512771e+001	-6.689550e+001	-1.402470e+001	5.819372e+001
1768800000.000	-3.052328e+001	8.273114e+001	-1.509152e+001	-1.133687e+002	-1.540051e+001	-1.157156e+002	-1.461614e+001	-2.426769e+001
1773700000.000	-3.307676e+001	7.208760e+001	-1.544182e+001	-1.636881e+002	-1.582563e+001	-1.619087e+002	-1.478032e+001	-1.017256e+002
1778600000.000	-3.597642e+001	6.233277e+001	-1.614821e+001	1.508403e+002	-1.601022e+001	1.529069e+002	-1.524216e+001	-1.735882e+002
1783500000.000	-3.921549e+001	5.414894e+001	-1.630364e+001	1.067205e+002	-1.613975e+001	1.065142e+002	-1.678136e+001	1.131170e+002
1788400000.000	-4.357796e+001	4.271103e+001	-1.651514e+001	5.999907e+001	-1.651937e+001	5.983626e+001	-1.926138e+001	3.288714e+001
1793300000.000	-5.389790e+001	1.523044e+001	-1.706314e+001	1.478583e+001	-1.702544e+001	1.488066e+001	-2.135889e+001	-5.342128e+001
1798200000.000	-5.416568e+001	-1.326767e+002	-1.739183e+001	-2.829794e+001	-1.739294e+001	-2.850544e+001	-2.212979e+001	-1.352602e+002
1803100000.000	-4.843536e+001	-1.356467e+002	-1.749549e+001	-7.228834e+001	-1.751698e+001	-7.189054e+001	-2.328785e+001	1.472227e+002
1808000000.000	-4.465422e+001	-1.099961e+002	-1.773954e+001	-1.169101e+002	-1.762905e+001	-1.165948e+002	-2.548451e+001	5.995505e+001
1812900000.000	-3.886872e+001	-9.821060e+001	-1.799187e+001	-1.604410e+002	-1.794591e+001	-1.612615e+002	-2.488028e+001	-4.036357e+001
1817800000.000	-3.443115e+001	-9.114855e+001	-1.807117e+001	1.567564e+002	-1.824328e+001	1.568081e+002	-2.151699e+001	-1.218293e+002
1822700000.000	-2.950340e+001	-9.897561e+001	-1.813006e+001	1.122406e+002	-1.809240e+001	1.140536e+002	-1.969075e+001	1.684799e+002
1827600000.000	-2.649948e+001	-1.123988e+002	-1.829904e+001	6.913530e+001	-1.792715e+001	6.945220e+001	-1.901856e+001	9.695070e+001
1832500000.000	-2.443118e+001	-1.273666e+002	-1.815669e+001	2.622965e+001	-1.800773e+001	2.392705e+001	-1.826994e+001	2.021956e+001
1837400000.000	-2.308141e+001	-1.433856e+002	-1.804403e+001	-1.924636e+001	-1.828419e+001	-2.036060e+001	-1.701623e+001	-5.412095e+001
1842300000.000	-2.222382e+001	-1.599632e+002	-1.837246e+001	-6.371879e+001	-1.847952e+001	-6.243347e+001	-1.578966e+001	-1.209888e+002
1847200000.000	-2.166618e+001	-1.770244e+002	-1.844522e+001	-1.047506e+002	-1.826599e+001	-1.042287e+002	-1.489028e+001	1.736745e+002
1852100000.000	-2.130369e+001	1.652821e+002	-1.791004e+001	-1.476293e+002	-1.783733e+001	-1.482675e+002	-1.446606e+001	1.050650e+002
1857000000.000	-2.124955e+001	1.467206e+002	-1.763824e+001	1.654556e+002	-1.761404e+001	1.656085e+002	-1.437926e+001	3.149168e+001
1861900000.000	-2.162472e+001	1.284626e+002	-1.790529e+001	1.206996e+002	-1.774044e+001	1.201484e+002	-1.432933e+001	-4.324527e+001
1866800000.000	-2.243345e+001	1.118930e+002	-1.767742e+001	7.918229e+001	-1.775733e+001	7.725368e+001	-1.386552e+001	-1.156015e+002
1871700000.000	-2.356101e+001	9.536404e+001	-1.696345e+001	3.319584e+001	-1.730829e+001	3.363153e+001	-1.336593e+001	1.752439e+002
1876600000.000	-2.542817e+001	7.809910e+001	-1.693639e+001	-1.561783e+001	-1.683288e+001	-1.326444e+001	-1.341934e+001	1.043416e+002
1881500000.000	-2.827709e+001	5.931606e+001	-1.714978e+001	-6.067928e+001	-1.677409e+001	-6.185252e+001	-1.448565e+001	2.731561e+001
1886400000.000	-3.247562e+001	3.539550e+001	-1.689422e+001	-1.061637e+002	-1.707967e+001	-1.088443e+002	-1.567900e+001	-5.319105e+001
1891300000.000	-3.775642e+001	-7.575892e+000	-1.692382e+001	-1.547978e+002	-1.731438e+001	-1.539276e+002	-1.631669e+001	-1.282519e+002
1896200000.000	-3.702147e+001	-6.892425e+001	-1.744564e+001	1.588229e+002	-1.735599e+001	1.609256e+002	-1.755056e+001	1.619558e+002
1901100000.000	-3.113239e+001	-1.119320e+002	-1.762850e+001	1.145924e+002	-1.739142e+001	1.140829e+002	-2.069708e+001	8.729005e+001
1906000000.000	-2.916442e+001	-1.438593e+002	-1.784262e+001	6.817119e+001	-1.790420e+001	6.717884e+001	-2.480169e+001	-9.394023e+000
1910900000.000	-2.831503e+001	-1.611262e+002	-1.836931e+001	2.321206e+001	-1.844348e+001	2.350630e+001	-2.515707e+001	-1.122212e+002
1915800000.000	-2.762149e+001	-1.738892e+002	-1.874221e+001	-1.955711e+001	-1.870371e+001	-1.932804e+001	-2.489672e+001	1.607390e+002
1920700000.000	-2.685373e+001	1.737845e+002	-1.888625e+001	-6.277307e+001	-1.885304e+001	-6.287080e+001	-2.490218e+001	6.672588e+001
1925600000.000	-2.618216e+001	1.612062e+002	-1.911382e+001	-1.062633e+002	-1.907011e+001	-1.063946e+002	-2.270811e+001	-2.760523e+001
1930500000.000	-2.563121e+001	1.476493e+002	-1.928708e+001	-1.484145e+002	-1.928518e+001	-1.489395e+002	-2.014579e+001	-1.051199e+002
1935400000.000	-2.532611e+001	1.337103e+002	-1.920609e+001	1.691847e+002	-1.928346e+001	1.692109e+002	-1.817481e+001	-1.742774e+002
1940300000.000	-2.533491e+001	1.182811e+002	-1.911929e+001	1.254164e+002	-1.905066e+001	1.263041e+002	-1.680191e+001	1.166341e+002
1945200000.000	-2.592551e+001	1.015834e+002	-1.919881e+001	8.220597e+001	-1.893572e+001	8.154590e+001	-1.602296e+001	4.486165e+001
1950100000.000	-2.737608e+001	8.385498e+001	-1.904544e+001	3.994264e+001	-1.906976e+001	3.736823e+001	-1.550391e+001	-2.797058e+001
1955000000.000	-2.977547e+001	6.555855e+001	-1.875425e+001	-4.040788e+000	-1.917705e+001	-4.646980e+000	-1.466152e+001	-9.715440e+001
1959900000.000	-3.295414e+001	4.654437e+001	-1.869337e+001	-4.877309e+001	-1.890016e+001	-4.619782e+001	-1.361271e+001	-1.624020e+002
1964800000.000	-3.720791e+001	1.439087e+001	-1.868339e+001	-9.141882e+001	-1.836841e+001	-8.971573e+001	-1.286809e+001	1.330762e+002
1969700000.000	-4.138051e+001	-5.336886e+001	-1.824344e+001	-1.343245e+002	-1.795510e+001	-1.357824e+002	-1.269706e+001	6.456349e+001
1974600000.000	-3.830617e+001	-1.197331e+002	-1.784536e+001	1.795920e+002	-1.796360e+001	1.779637e+002	-1.307752e+001	-8.139471e+000
1979500000.000	-3.433332e+001	-1.526776e+002	-1.793912e+001	1.342814e+002	-1.811235e+001	1.344697e+002	-1.331539e+001	-7.957097e+001
1984400000.000	-3.089271e+001	-1.753619e+002	-1.772319e+001	9.331673e+001	-1.776716e+001	9.398701e+001	-1.288810e+001	-1.472747e+002
1989300000.000	-2.850408e+001	1.485408e+002	-1.655690e+001	4.735433e+001	-1.654886e+001	4.826011e+001	-1.234024e+001	1.427264e+002
1994200000.000	-2.949568e+001	1.197980e+002	-1.628250e+001	-3.481652e+000	-1.607276e+001	-2.645881e+000	-1.276081e+001	6.943893e+001
1999100000.000	-3.181331e+001	9.650766e+001	-1.648249e+001	-5.142908e+001	-1.621554e+001	-5.271117e+001	-1.405439e+001	-6.095770e+000
2004000000.000	-3.738170e+001	7.434793e+001	-1.647785e+001	-9.814109e+001	-1.656922e+001	-1.002461e+002	-1.540882e+001	-8.103677e+001
2008900000.000	-5.664302e+001	-9.594741e+001	-1.655424e+001	-1.466884e+002	-1.677699e+001	-1.463414e+002	-1.660309e+001	-1.528382e+002
2013800000.000	-3.598105e+001	-1.337840e+002	-1.701374e+001	1.655766e+002	-1.688833e+001	1.666757e+002	-1.876285e+001	1.374556e+002
2018700000.000	-3.048167e+001	-1.478871e+002	-1.747221e+001	1.197734e+002	-1.725929e+001	1.188089e+002	-2.359957e+001	6.217230e+001
2023600000.000	-2.777496e+001	-1.610474e+002	-1.787237e+001	7.412797e+001	-1.789458e+001	7.265472e+001	-3.050908e+001	-5.163962e+001
2028500000.000	-2.597842e+001	-1.722110e+002	-1.839774e+001	2.890076e+001	-1.844871e+001	2.845752e+001	-2.827172e+001	-1.733027e+002
2033400000.000	-2.495225e+001	1.752878e+002	-1.888751e+001	-1.476071e+001	-1.886422e+001	-1.552328e+001	-2.669814e+001	9.372625e+001
2038300000.000	-2.443557e+001	1.628962e+002	-1.926193e+001	-5.854488e+001	-1.936117e+001	-5.967140e+001	-2.441689e+001	-5.224957e+000
2043200000.000	-2.433487e+001	1.506788e+002	-1.979225e+001	-1.016946e+002	-1.996929e+001	-1.017770e+002	-2.071223e+001	-8.682527e+001
2048100000.000	-2.429443e+001	1.389765e+002	-2.020204e+001	-1.425556e+002	-2.025258e+001	-1.419830e+002	-1.808946e+001	-1.544105e+002
2053000000.000	-2.418318e+001	1.269117e+002	-2.024309e+001	1.769306e+002	-2.017484e+001	1.772554e+002	-1.663219e+001	1.398185e+002
2057900000.000	-2.406074e+001	1.150118e+002	-2.010163e+001	1.347765e+002	-1.995548e+001	1.346304e+002	-1.584896e+001	7.021425e+001
2062800000.000	-2.362039e+001	1.024779e+002	-2.010254e+001	9.215960e+001	-1.996813e+001	9.081446e+001	-1.545179e+001	-1.888455e+000
2067700000.000	-2.324281e+001	8.743861e+001	-2.002491e+001	5.086273e+001	-2.013920e+001	4.876685e+001	-1.495767e+001	-7.198006e+001
2072600000.000	-2.328319e+001	6.901545e+001	-1.963614e+001	9.005952e+000	-1.999652e+001	8.689868e+000	-1.414218e+001	-1.385420e+002
2077500000.000	-2.413754e+001	5.228692e+001	-1.928053e+001	-3.521117e+001	-1.939513e+001	-3.296436e+001	-1.320109e+001	1.563371e+002
2082400000.000	-2.493415e+001	3.501298e+001	-1.912897e+001	-7.882110e+001	-1.876518e+001	-7.757526e+001	-1.255513e+001	8.980303e+001
2087300000.000	-2.599173e+001	1.386384e+001	-1.883320e+001	-1.215596e+002	-1.849865e+001	-1.238813e+002	-1.251537e+001	2.041414e+001
2092200000.000	-2.722741e+001	-1.392422e+001	-1.831611e+001	-1.656994e+002	-1.850865e+001	-1.685461e+002	-1.274509e+001	-4.875702e+001
2097100000.000	-2.845021e+001	-4.835802e+001	-1.801046e+001	1.491050e+002	-1.839592e+001	1.490629e+002	-1.254701e+001	-1.144770e+002
2102000000.000	-2.919871e+001	-8.858193e+001	-1.768009e+001	1.049304e+002	-1.776649e+001	1.068834e+002	-1.192113e+001	-1.785920e+002
2106900000.000	-2.893379e+001	-1.279445e+002	-1.706518e+001	6.029617e+001	-1.682031e+001	6.114881e+001	-1.144425e+001	1.129197e+002
2111800000.000	-2.847866e+001	-1.658156e+002	-1.639832e+001	1.227360e+001	-1.618010e+001	1.104666e+001	-1.176241e+001	3.712809e+001
2116700000.000	-2.844438e+001	1.599673e+002	-1.621114e+001	-3.714986e+001	-1.625579e+001	-3.881117e+001	-1.274288e+001	-4.017314e+001
2121600000.000	-2.888304e+001	1.311508e+002	-1.618150e+001	-8.527943e+001	-1.640271e+001	-8.577375e+001	-1.378336e+001	-1.131645e+002
2126500000.000	-2.954713e+001	1.013012e+002	-1.618099e+001	-1.342047e+002	-1.629983e+001	-1.331304e+002	-1.514749e+001	1.764371e+002
2131400000.000	-3.188806e+001	7.073944e+001	-1.654457e+001	1.765126e+002	-1.640280e+001	1.774800e+002	-1.767937e+001	1.044518e+002
2136300000.000	-3.625666e+001	3.759350e+001	-1.716183e+001	1.291817e+002	-1.697495e+001	1.286928e+002	-2.200743e+001	2.779414e+001
2141200000.000	-4.286597e+001	-1.679011e+001	-1.777167e+001	8.362956e+001	-1.772865e+001	8.275266e+001	-2.762961e+001	-6.155032e+001
2146100000.000	-3.813227e+001	-8.327966e+001	-1.829268e+001	3.885516e+001	-1.824193e+001	3.843405e+001	-3.154471e+001	-1.691552e+002
2151000000.000	-3.119835e+001	-1.207624e+002	-1.885636e+001	-5.427142e+000	-1.874893e+001	-6.418440e+000	-3.332585e+001	6.870315e+001
2155900000.000	-2.755469e+001	-1.444239e+002	-1.939348e+001	-4.846819e+001	-1.942979e+001	-5.006706e+001	-2.811599e+001	-5.253507e+001
2160800000.000	-2.504571e+001	-1.618131e+002	-1.987711e+001	-9.074606e+001	-2.004994e+001	-9.151292e+001	-2.259534e+001	-1.295347e+002
2165700000.000	-2.325809e+001	-1.792724e+002	-2.026338e+001	-1.317285e+002	-2.033771e+001	-1.314000e+002	-1.949514e+001	1.670593e+002
2170600000.000	-2.217304e+001	1.642901e+002	-2.035448e+001	-1.718791e+002	-2.026369e+001	-1.719426e+002	-1.798302e+001	1.024981e+002
2175500000.000	-2.130669e+001	1.476233e+002	-2.016823e+001	1.466741e+002	-2.011316e+001	1.455086e+002	-1.736551e+001	3.144228e+001
2180400000.000	-2.073099e+001	1.299010e+002	-2.008454e+001	1.042458e+002	-2.018727e+001	1.028833e+002	-1.669874e+001	-4.155290e+001
2185300000.000	-2.045468e+001	1.115447e+002	-1.996634e+001	6.248081e+001	-2.019728e+001	6.191116e+001	-1.566906e+001	-1.100505e+002
2190200000.000	-2.037388e+001	9.306894e+001	-1.968785e+001	2.087289e+001	-1.989015e+001	2.162973e+001	-1.455321e+001	-1.748558e+002
2195100000.000	-2.060105e+001	7.480158e+001	-1.922656e+001	-2.166191e+001	-1.918124e+001	-2.031195e+001	-1.350387e+001	1.191293e+002
2200000000.000	-2.104641e+001	5.718396e+001	-1.878174e+001	-6.545720e+001	-1.854471e+001	-6.562758e+001	-1.286411e+001	5.007671e+001
2204900000.000	-2.180507e+001	3.911718e+001	-1.835363e+001	-1.094550e+002	-1.831501e+001	-1.114536e+002	-1.290265e+001	-1.906832e+001
2209800000.000	-2.310209e+001	2.080606e+001	-1.788321e+001	-1.542738e+002	-1.817897e+001	-1.554335e+002	-1.319674e+001	-8.645156e+001
2214700000.000	-2.490477e+001	1.134471e+000	-1.748715e+001	1.602078e+002	-1.774259e+001	1.616211e+002	-1.317694e+001	-1.530200e+002
2219600000.000	-2.760598e+001	-2.215964e+001	-1.712109e+001	1.145785e+002	-1.697634e+001	1.164989e+002	-1.275645e+001	1.391088e+002
2224500000.000	-3.169904e+001	-5.131774e+001	-1.673122e+001	6.832759e+001	-1.637932e+001	6.773743e+001	-1.264376e+001	6.811182e+001
2229400000.000	-3.766679e+001	-9.322858e+001	-1.643187e+001	2.132677e+001	-1.637162e+001	1.866189e+001	-1.334343e+001	-3.945008e+000
2234300000.000	-4.260106e+001	-1.547200e+002	-1.618901e+001	-2.589565e+001	-1.650009e+001	-2.754963e+001	-1.434952e+001	-7.366325e+001
2239200000.000	-3.952014e+001	1.525899e+002	-1.602500e+001	-7.380977e+001	-1.635638e+001	-7.329490e+001	-1.531837e+001	-1.399532e+002
2244100000.000	-3.612212e+001	1.149556e+002	-1.601161e+001	-1.220358e+002	-1.609975e+001	-1.205740e+002	-1.671110e+001	1.551153e+002
2249000000.000	-3.423143e+001	8.084676e+001	-1.614817e+001	-1.704541e+002	-1.606462e+001	-1.698546e+002	-1.941291e+001	8.891302e+001
2253900000.000	-3.416253e+001	4.937417e+001	-1.647745e+001	1.414591e+002	-1.643559e+001	1.413551e+002	-2.371578e+001	2.236094e+001
2258800000.000	-3.524804e+001	2.348833e+001	-1.694925e+001	9.423200e+001	-1.694931e+001	9.417226e+001	-2.942355e+001	-3.777703e+001
2263700000.000	-3.667671e+001	6.825799e-001	-1.752467e+001	4.812449e+001	-1.749352e+001	4.813982e+001	-3.369219e+001	-5.533911e+001
2268600000.000	-3.775696e+001	-3.272218e+001	-1.810986e+001	3.205082e+000	-1.808049e+001	2.914828e+000	-2.823203e+001	-7.704690e+001
2273500000.000	-3.703219e+001	-8.551668e+001	-1.867026e+001	-4.075700e+001	-1.867320e+001	-4.091182e+001	-2.354321e+001	-1.294857e+002
2278400000.000	-3.421230e+001	-1.339248e+002	-1.918872e+001	-8.373455e+001	-1.914520e+001	-8.353229e+001	-2.057569e+001	1.724571e+002
2283300000.000	-3.156672e+001	-1.646898e+002	-1.959741e+001	-1.256454e+002	-1.942660e+001	-1.258458e+002	-1.863185e+001	1.110107e+002
2288200000.000	-2.982548e+001	1.757533e+002	-1.980718e+001	-1.673059e+002	-1.964270e+001	-1.688383e+002	-1.748050e+001	4.515784e+001
2293100000.000	-2.856291e+001	1.635082e+002	-1.995646e+001	1.505810e+002	-2.000841e+001	1.483732e+002	-1.682826e+001	-2.320294e+001
2298000000.000	-2.732121e+001	1.541692e+002	-2.008254e+001	1.089630e+002	-2.035128e+001	1.077201e+002	-1.614460e+001	-8.973663e+001
2302900000.000	-2.592916e+001	1.453088e+002	-2.007790e+001	6.804505e+001	-2.033361e+001	6.856620e+001	-1.531248e+001	-1.533003e+002
2307800000.000	-2.397808e+001	1.336803e+002	-1.981740e+001	2.687489e+001	-1.981432e+001	2.826663e+001	-1.452117e+001	1.429266e+002
2312700000.000	-2.227119e+001	1.153993e+002	-1.944494e+001	-1.556259e+001	-1.920140e+001	-1.556567e+001	-1.398992e+001	7.552659e+001
2317600000.000	-2.114634e+001	9.566008e+001	-1.906714e+001	-5.885927e+001	-1.895770e+001	-6.100508e+001	-1.383490e+001	6.064957e+000
2322500000.000	-2.038087e+001	7.595129e+001	-1.872243e+001	-1.026779e+002	-1.899124e+001	-1.048295e+002	-1.391431e+001	-6.116209e+001
2327400000.000	-1.995542e+001	5.596091e+001	-1.837018e+001	-1.467221e+002	-1.882524e+001	-1.463972e+002	-1.384517e+001	-1.258115e+002
2332300000.000	-2.005828e+001	3.561123e+001	-1.801241e+001	1.690398e+002	-1.818501e+001	1.717288e+002	-1.345113e+001	1.688294e+002
2337200000.000	-2.072283e+001	1.550414e+001	-1.756733e+001	1.243876e+002	-1.729712e+001	1.264191e+002	-1.287891e+001	1.008254e+002
2342100000.000	-2.180082e+001	-5.010352e+000	-1.712510e+001	7.862158e+001	-1.676727e+001	7.786453e+001	-1.279606e+001	3.104215e+001
2347000000.000	-2.315658e+001	-2.857471e+001	-1.677840e+001	3.231345e+001	-1.672163e+001	3.012769e+001	-1.343600e+001	-3.760672e+001
2351900000.000	-2.494487e+001	-5.827328e+001	-1.647820e+001	-1.424880e+001	-1.669569e+001	-1.543172e+001	-1.414950e+001	-1.042193e+002
2356800000.000	-2.682722e+001	-9.434049e+001	-1.617718e+001	-6.128184e+001	-1.637886e+001	-6.064304e+001	-1.439984e+001	-1.697829e+002
2361700000.000	-2.822456e+001	-1.330013e+002	-1.595410e+001	-1.094081e+002	-1.589427e+001	-1.082279e+002	-1.469066e+001	1.235178e+002
2366600000.000	-2.892686e+001	-1.692452e+002	-1.595199e+001	-1.579509e+002	-1.573695e+001	-1.583446e+002	-1.590609e+001	5.446464e+001
2371500000.000	-2.975565e+001	1.572183e+002	-1.607751e+001	1.538266e+002	-1.605114e+001	1.520727e+002	-1.798948e+001	-1.457553e+001
2376400000.000	-3.141006e+001	1.261336e+002	-1.632893e+001	1.054086e+002	-1.653307e+001	1.043497e+002	-2.000964e+001	-7.775343e+001
2381300000.000	-3.388654e+001	9.695567e+001	-1.679597e+001	5.740405e+001	-1.701501e+001	5.763797e+001	-2.187268e+001	-1.291802e+002
2386200000.000	-3.714550e+001	7.517562e+001	-1.743077e+001	1.047252e+001	-1.754108e+001	1.139981e+001	-2.347280e+001	-1.677873e+002
2391100000.000	-3.957469e+001	7.327496e+001	-1.814870e+001	-3.512902e+001	-1.814226e+001	-3.401460e+001	-2.372490e+001	1.574393e+002
2396000000.000	-3.756257e+001	7.842686e+001	-1.891424e+001	-7.913861e+001	-1.878055e+001	-7.844258e+001	-2.260943e+001	1.097671e+002
2400900000.000	-3.464168e+001	6.445839e+001	-1.958390e+001	-1.212914e+002	-1.941266e+001	-1.216211e+002	-2.069400e+001	4.936670e+001
2405800000.000	-3.412410e+001	4.087766e+001	-2.006062e+001	-1.626804e+002	-2.001460e+001	-1.638520e+002	-1.889607e+001	-1.486397e+001
2410700000.000	-3.647682e+001	1.519462e+001	-2.043131e+001	1.564649e+002	-2.054427e+001	1.557207e+002	-1.770033e+001	-7.654175e+001
2415600000.000	-4.397791e+001	-3.143415e+001	-2.062068e+001	1.167361e+002	-2.074967e+001	1.168896e+002	-1.683731e+001	-1.377778e+002
2420500000.000	-4.054991e+001	-1.586897e+002	-2.048303e+001	7.693988e+001	-2.049617e+001	7.770982e+001	-1.587098e+001	1.593342e+002
2425400000.000	-3.274245e+001	1.653439e+002	-2.015604e+001	3.554258e+001	-1.998451e+001	3.609042e+001	-1.482932e+001	9.444189e+001
2430300000.000	-2.887783e+001	1.409667e+002	-1.989400e+001	-6.745433e+000	-1.965341e+001	-7.900999e+000	-1.431725e+001	2.829645e+001
2435200000.000	-2.654480e+001	1.182402e+002	-1.958946e+001	-4.850801e+001	-1.959686e+001	-5.117301e+001	-1.448077e+001	-3.711207e+001
