!Agilent Technologies,E5061B,MY49305579,A.02.22
!Date: Thu Aug 24 16:25:49 2017
!Data & Calibration Information:
!Freq	S11:SOLT2(ON)	S21:SOLT2(ON)	S12:SOLT2(ON)	S22:SOLT2(ON)
# Hz S dB R 50
1710000000.000	-2.342531e+001	-1.358768e+002	-1.496060e+001	6.470612e+001	-1.443541e+001	6.164322e+001	-1.038399e+001	8.420124e+001
1714900000.000	-2.277819e+001	-1.522352e+002	-1.428430e+001	1.467767e+001	-1.459984e+001	1.202932e+001	-1.026427e+001	5.988915e+000
1719800000.000	-2.269408e+001	-1.688490e+002	-1.492013e+001	-3.626710e+001	-1.512255e+001	-3.476900e+001	-1.028763e+001	-6.862323e+001
1724700000.000	-2.299531e+001	1.772179e+002	-1.553638e+001	-7.880753e+001	-1.535869e+001	-7.850773e+001	-1.000141e+001	-1.375286e+002
1729600000.000	-2.337812e+001	1.648345e+002	-1.502697e+001	-1.224719e+002	-1.510507e+001	-1.230530e+002	-9.747485e+000	1.546902e+002
1734500000.000	-2.408816e+001	1.542569e+002	-1.487187e+001	-1.729629e+002	-1.485082e+001	-1.712325e+002	-1.027869e+001	8.277271e+001
1739400000.000	-2.506269e+001	1.457777e+002	-1.562164e+001	1.402758e+002	-1.517461e+001	1.398715e+002	-1.182473e+001	6.096292e+000
1744300000.000	-2.628411e+001	1.418511e+002	-1.574809e+001	9.759092e+001	-1.574426e+001	9.410448e+001	-1.323926e+001	-7.058882e+001
1749200000.000	-2.704306e+001	1.415075e+002	-1.557000e+001	5.106853e+001	-1.604873e+001	5.046839e+001	-1.402857e+001	-1.422801e+002
1754100000.000	-2.725544e+001	1.388671e+002	-1.599252e+001	3.975467e+000	-1.604605e+001	6.280564e+000	-1.545539e+001	1.490597e+002
1759000000.000	-2.752593e+001	1.331869e+002	-1.635195e+001	-3.915104e+001	-1.610211e+001	-3.938779e+001	-1.866335e+001	7.619946e+001
1763900000.000	-2.785389e+001	1.253549e+002	-1.625824e+001	-8.305841e+001	-1.635921e+001	-8.457728e+001	-2.322416e+001	-1.352561e+001
1768800000.000	-2.830021e+001	1.148263e+002	-1.636448e+001	-1.284128e+002	-1.655535e+001	-1.279404e+002	-2.544290e+001	-1.178325e+002
1773700000.000	-2.898088e+001	1.022407e+002	-1.645969e+001	-1.717750e+002	-1.643656e+001	-1.711831e+002	-2.633687e+001	1.412653e+002
1778600000.000	-2.970491e+001	8.781577e+001	-1.620018e+001	1.439902e+002	-1.624729e+001	1.437891e+002	-2.515878e+001	2.710205e+001
1783500000.000	-3.078000e+001	7.041673e+001	-1.614729e+001	9.793781e+001	-1.625577e+001	9.861110e+001	-2.050944e+001	-6.380668e+001
1788400000.000	-3.213849e+001	5.039391e+001	-1.625950e+001	5.370412e+001	-1.621937e+001	5.450461e+001	-1.710240e+001	-1.351795e+002
1793300000.000	-3.406121e+001	2.518357e+001	-1.598350e+001	1.022935e+001	-1.595952e+001	1.037069e+001	-1.495994e+001	1.580098e+002
1798200000.000	-3.569360e+001	-4.430152e+000	-1.559379e+001	-3.668775e+001	-1.555490e+001	-3.567805e+001	-1.355333e+001	8.793156e+001
1803100000.000	-3.517842e+001	-3.839561e+001	-1.578245e+001	-8.361065e+001	-1.546715e+001	-8.352425e+001	-1.267482e+001	1.411341e+001
1808000000.000	-3.317480e+001	-6.860616e+001	-1.578086e+001	-1.268803e+002	-1.572172e+001	-1.297522e+002	-1.187828e+001	-5.784018e+001
1812900000.000	-3.083385e+001	-8.838524e+001	-1.524703e+001	-1.725452e+002	-1.580861e+001	-1.733632e+002	-1.094894e+001	-1.240397e+002
1817800000.000	-2.858897e+001	-9.904642e+001	-1.511397e+001	1.382055e+002	-1.536750e+001	1.431969e+002	-9.718353e+000	1.718392e+002
1822700000.000	-2.595655e+001	-1.132459e+002	-1.559028e+001	9.183032e+001	-1.469871e+001	9.476073e+001	-8.850149e+000	1.018553e+002
1827600000.000	-2.442941e+001	-1.282252e+002	-1.534428e+001	4.872961e+001	-1.472969e+001	4.336286e+001	-8.690295e+000	2.743316e+001
1832500000.000	-2.327847e+001	-1.420254e+002	-1.484669e+001	-7.134101e-001	-1.544128e+001	-5.023546e+000	-8.904811e+000	-4.466641e+001
1837400000.000	-2.250469e+001	-1.573717e+002	-1.543160e+001	-5.177690e+001	-1.599774e+001	-4.885969e+001	-8.910883e+000	-1.110977e+002
1842300000.000	-2.203798e+001	-1.728324e+002	-1.633821e+001	-9.514096e+001	-1.600166e+001	-9.213219e+001	-8.632205e+000	-1.763020e+002
1847200000.000	-2.176201e+001	1.702279e+002	-1.609424e+001	-1.366945e+002	-1.572757e+001	-1.382767e+002	-8.442997e+000	1.135863e+002
1852100000.000	-2.174171e+001	1.528664e+002	-1.576833e+001	1.737862e+002	-1.587917e+001	1.726592e+002	-9.057070e+000	3.855924e+001
1857000000.000	-2.203439e+001	1.344124e+002	-1.666150e+001	1.256251e+002	-1.662017e+001	1.259467e+002	-1.021467e+001	-3.512853e+001
1861900000.000	-2.284206e+001	1.168323e+002	-1.725064e+001	8.459480e+001	-1.719386e+001	8.328334e+001	-1.116235e+001	-1.044695e+002
1866800000.000	-2.408358e+001	1.006608e+002	-1.698969e+001	4.164735e+001	-1.727176e+001	4.112715e+001	-1.171041e+001	-1.712742e+002
1871700000.000	-2.595254e+001	8.433226e+001	-1.705305e+001	-5.321196e+000	-1.713406e+001	-3.156784e+000	-1.262065e+001	1.207112e+002
1876600000.000	-2.903442e+001	6.732913e+001	-1.757708e+001	-4.947849e+001	-1.722918e+001	-4.901626e+001	-1.469384e+001	4.957982e+001
1881500000.000	-3.444444e+001	4.859313e+001	-1.764784e+001	-9.139792e+001	-1.755396e+001	-9.357821e+001	-1.748246e+001	-2.535914e+001
1886400000.000	-4.852892e+001	6.675108e+000	-1.748411e+001	-1.356869e+002	-1.773397e+001	-1.364451e+002	-1.974744e+001	-1.010184e+002
1891300000.000	-4.060240e+001	-1.393820e+002	-1.758151e+001	1.795315e+002	-1.765765e+001	-1.795875e+002	-2.251120e+001	-1.702941e+002
1896200000.000	-3.554981e+001	-1.513889e+002	-1.764464e+001	1.358885e+002	-1.758991e+001	1.358676e+002	-3.059654e+001	1.222758e+002
1901100000.000	-3.108586e+001	-1.543280e+002	-1.765269e+001	9.283733e+001	-1.773110e+001	9.254882e+001	-3.054489e+001	-9.677856e+001
1906000000.000	-2.875499e+001	-1.768056e+002	-1.739123e+001	4.888595e+001	-1.741214e+001	4.964128e+001	-2.204889e+001	-1.674230e+002
1910900000.000	-2.869676e+001	1.653674e+002	-1.719150e+001	4.976462e+000	-1.706143e+001	5.030818e+000	-1.918342e+001	1.245207e+002
1915800000.000	-2.935969e+001	1.523677e+002	-1.676978e+001	-4.038459e+001	-1.675469e+001	-4.124648e+001	-1.737815e+001	4.937058e+001
1920700000.000	-3.047516e+001	1.430911e+002	-1.666934e+001	-8.778387e+001	-1.674802e+001	-8.805185e+001	-1.557305e+001	-2.549011e+001
1925600000.000	-3.152172e+001	1.414061e+002	-1.687787e+001	-1.328673e+002	-1.691877e+001	-1.329136e+002	-1.392323e+001	-9.472135e+001
1930500000.000	-3.168165e+001	1.424866e+002	-1.664751e+001	-1.763602e+002	-1.677157e+001	-1.760847e+002	-1.251203e+001	-1.607872e+002
1935400000.000	-3.119619e+001	1.437569e+002	-1.625196e+001	1.369472e+002	-1.624818e+001	1.388346e+002	-1.129788e+001	1.319196e+002
1940300000.000	-3.033577e+001	1.414093e+002	-1.636694e+001	8.938306e+001	-1.588147e+001	9.010299e+001	-1.047545e+001	6.040516e+001
1945200000.000	-2.968048e+001	1.355093e+002	-1.643219e+001	4.490272e+001	-1.613093e+001	4.115567e+001	-1.038918e+001	-1.263986e+001
1950100000.000	-2.961823e+001	1.284222e+002	-1.612351e+001	-1.211670e+000	-1.661567e+001	-4.318284e+000	-1.045207e+001	-8.191528e+001
1955000000.000	-2.978893e+001	1.221088e+002	-1.617711e+001	-4.949687e+001	-1.672515e+001	-4.714568e+001	-1.013105e+001	-1.472515e+002
1959900000.000	-2.979423e+001	1.135557e+002	-1.651288e+001	-9.502931e+001	-1.626172e+001	-9.139367e+001	-9.667875e+000	1.476953e+002
1964800000.000	-3.018081e+001	9.988455e+001	-1.633634e+001	-1.394552e+002	-1.580213e+001	-1.405595e+002	-9.592882e+000	7.846506e+001
1969700000.000	-3.145255e+001	8.250771e+001	-1.609755e+001	1.715727e+002	-1.617524e+001	1.684866e+002	-1.037759e+001	4.936892e+000
1974600000.000	-3.336272e+001	6.182618e+001	-1.662699e+001	1.220616e+002	-1.698758e+001	1.218708e+002	-1.140634e+001	-6.639899e+001
1979500000.000	-3.714242e+001	3.282925e+001	-1.743361e+001	7.694317e+001	-1.754308e+001	7.836097e+001	-1.188921e+001	-1.333823e+002
1984400000.000	-4.652905e+001	-3.073502e+001	-1.786751e+001	3.414277e+001	-1.783121e+001	3.517530e+001	-1.205452e+001	1.618450e+002
1989300000.000	-4.888100e+001	1.528259e+002	-1.779152e+001	-9.109087e+000	-1.767434e+001	-8.159800e+000	-1.232924e+001	9.386800e+001
1994200000.000	-5.045356e+001	-1.632631e+002	-1.808527e+001	-5.524335e+001	-1.782729e+001	-5.519753e+001	-1.375412e+001	2.200539e+001
1999100000.000	-4.030319e+001	-1.423033e+002	-1.843381e+001	-9.825625e+001	-1.829204e+001	-9.983916e+001	-1.557896e+001	-4.874907e+001
2004000000.000	-3.480415e+001	-1.504875e+002	-1.843581e+001	-1.414479e+002	-1.856227e+001	-1.424729e+002	-1.705684e+001	-1.169499e+002
2008900000.000	-3.150067e+001	-1.595776e+002	-1.843625e+001	1.738923e+002	-1.850576e+001	1.744583e+002	-1.858343e+001	1.793985e+002
2013800000.000	-2.923950e+001	-1.673985e+002	-1.861947e+001	1.295357e+002	-1.843671e+001	1.297543e+002	-2.139527e+001	1.177196e+002
2018700000.000	-2.747673e+001	-1.755977e+002	-1.868246e+001	8.609870e+001	-1.854459e+001	8.482189e+001	-2.753337e+001	5.272220e+001
2023600000.000	-2.646554e+001	1.751392e+002	-1.862154e+001	4.199666e+001	-1.865275e+001	4.071263e+001	-4.033603e+001	-6.195259e+001
2028500000.000	-2.584678e+001	1.677966e+002	-1.866368e+001	-2.589516e+000	-1.870192e+001	-3.362234e+000	-3.516804e+001	1.408426e+002
2033400000.000	-2.547602e+001	1.589942e+002	-1.865484e+001	-4.655276e+001	-1.871392e+001	-4.754952e+001	-3.051661e+001	3.181234e+001
2038300000.000	-2.538722e+001	1.495504e+002	-1.859273e+001	-9.119409e+001	-1.877021e+001	-9.180723e+001	-2.439489e+001	-5.774638e+001
2043200000.000	-2.550571e+001	1.396681e+002	-1.866467e+001	-1.357993e+002	-1.880881e+001	-1.353439e+002	-2.024990e+001	-1.244147e+002
2048100000.000	-2.568319e+001	1.292305e+002	-1.866597e+001	-1.792636e+002	-1.864648e+001	-1.786183e+002	-1.779134e+001	1.733886e+002
2053000000.000	-2.580390e+001	1.186959e+002	-1.841802e+001	1.364926e+002	-1.832484e+001	1.366052e+002	-1.639313e+001	1.073884e+002
2057900000.000	-2.597080e+001	1.081230e+002	-1.829235e+001	9.052435e+001	-1.814747e+001	9.010684e+001	-1.555438e+001	3.614090e+001
2062800000.000	-2.573258e+001	9.809147e+001	-1.839779e+001	4.543701e+001	-1.833863e+001	4.382181e+001	-1.495710e+001	-3.592547e+001
2067700000.000	-2.552562e+001	8.449595e+001	-1.837845e+001	1.670013e+000	-1.859095e+001	1.528132e-001	-1.425193e+001	-1.044333e+002
2072600000.000	-2.618226e+001	6.677356e+001	-1.807615e+001	-4.262327e+001	-1.835983e+001	-4.173499e+001	-1.324352e+001	-1.698915e+002
2077500000.000	-2.797776e+001	5.626916e+001	-1.790933e+001	-8.956597e+001	-1.775898e+001	-8.737177e+001	-1.242165e+001	1.233643e+002
2082400000.000	-2.949020e+001	4.873021e+001	-1.801923e+001	-1.349100e+002	-1.756799e+001	-1.356387e+002	-1.226938e+001	5.511739e+001
2087300000.000	-3.116253e+001	4.187270e+001	-1.769715e+001	-1.793538e+002	-1.761032e+001	1.770769e+002	-1.220641e+001	-1.373618e+001
2092200000.000	-3.228588e+001	3.088030e+001	-1.755913e+001	1.311248e+002	-1.798755e+001	1.294756e+002	-1.238333e+001	-8.619417e+001
2097100000.000	-3.433288e+001	1.002779e+001	-1.806054e+001	8.386440e+001	-1.834440e+001	8.540481e+001	-1.255979e+001	-1.523406e+002
2102000000.000	-3.790158e+001	-1.525517e+001	-1.844512e+001	3.985349e+001	-1.832099e+001	4.133285e+001	-1.257766e+001	1.422231e+002
2106900000.000	-4.184622e+001	-5.184575e+001	-1.846344e+001	-4.262387e+000	-1.824321e+001	-4.753735e+000	-1.310305e+001	7.229898e+001
2111800000.000	-4.533533e+001	-9.330488e+001	-1.851740e+001	-5.012419e+001	-1.849846e+001	-5.149294e+001	-1.431085e+001	-1.803140e+000
2116700000.000	-4.509393e+001	-1.252035e+002	-1.873252e+001	-9.533326e+001	-1.887256e+001	-9.595115e+001	-1.544634e+001	-7.268481e+001
2121600000.000	-4.140499e+001	-1.509309e+002	-1.886424e+001	-1.400538e+002	-1.901087e+001	-1.396017e+002	-1.631396e+001	-1.386607e+002
2126500000.000	-4.104874e+001	1.755080e+002	-1.898316e+001	1.754061e+002	-1.896577e+001	1.766570e+002	-1.749733e+001	1.574872e+002
2131400000.000	-4.277596e+001	-1.734690e+002	-1.902849e+001	1.302766e+002	-1.881015e+001	1.309233e+002	-1.952283e+001	9.112803e+001
2136300000.000	-3.800297e+001	-1.542803e+002	-1.915432e+001	8.529608e+001	-1.892952e+001	8.451641e+001	-2.253059e+001	2.018052e+001
2141200000.000	-3.317530e+001	-1.652451e+002	-1.912013e+001	4.002931e+001	-1.904922e+001	3.865605e+001	-2.536098e+001	-5.444299e+001
2146100000.000	-3.223018e+001	-1.790579e+002	-1.939767e+001	-7.366472e+000	-1.941950e+001	-8.219090e+000	-2.668815e+001	-1.290217e+002
2151000000.000	-3.063630e+001	-1.750737e+002	-1.992983e+001	-5.189880e+001	-1.991606e+001	-5.258592e+001	-2.912869e+001	1.669218e+002
2155900000.000	-2.828964e+001	-1.787148e+002	-2.025935e+001	-9.504738e+001	-2.027472e+001	-9.609968e+001	-3.750379e+001	1.245182e+002
2160800000.000	-2.632028e+001	1.739914e+002	-2.050502e+001	-1.384604e+002	-2.060722e+001	-1.393006e+002	-3.446021e+001	-1.565146e+002
2165700000.000	-2.474149e+001	1.623204e+002	-2.070606e+001	1.789629e+002	-2.078184e+001	1.786614e+002	-2.717033e+001	1.588899e+002
2170600000.000	-2.388473e+001	1.485968e+002	-2.072797e+001	1.361430e+002	-2.073820e+001	1.358586e+002	-2.474545e+001	9.889005e+001
2175500000.000	-2.342489e+001	1.341951e+002	-2.067106e+001	9.263578e+001	-2.068567e+001	9.194523e+001	-2.382411e+001	2.664902e+001
2180400000.000	-2.324051e+001	1.194923e+002	-2.075479e+001	4.866326e+001	-2.084712e+001	4.795967e+001	-2.203548e+001	-4.874655e+001
2185300000.000	-2.327355e+001	1.039306e+002	-2.081144e+001	6.001192e+000	-2.097383e+001	5.774236e+000	-1.978473e+001	-1.178676e+002
2190200000.000	-2.359670e+001	8.850097e+001	-2.066625e+001	-3.623296e+001	-2.077223e+001	-3.549443e+001	-1.792990e+001	1.775552e+002
2195100000.000	-2.433077e+001	7.538493e+001	-2.023832e+001	-7.979374e+001	-2.014553e+001	-7.882411e+001	-1.651013e+001	1.106506e+002
2200000000.000	-2.497095e+001	6.530464e+001	-1.996561e+001	-1.254919e+002	-1.976168e+001	-1.259455e+002	-1.587659e+001	4.074150e+001
2204900000.000	-2.569646e+001	5.584241e+001	-1.985311e+001	-1.709135e+002	-1.983779e+001	-1.727026e+002	-1.599736e+001	-2.754100e+001
2209800000.000	-2.661371e+001	4.812773e+001	-1.978641e+001	1.437505e+002	-2.002501e+001	1.427559e+002	-1.618083e+001	-9.436519e+001
2214700000.000	-2.762459e+001	4.051156e+001	-1.976133e+001	9.863344e+001	-1.995275e+001	9.949605e+001	-1.604382e+001	-1.613235e+002
2219600000.000	-2.905609e+001	3.491646e+001	-1.969951e+001	5.377953e+001	-1.961323e+001	5.493640e+001	-1.572779e+001	1.314276e+002
2224500000.000	-3.008680e+001	3.228101e+001	-1.957370e+001	8.957544e+000	-1.936446e+001	8.372630e+000	-1.568465e+001	6.373404e+001
2229400000.000	-3.010604e+001	2.742657e+001	-1.932014e+001	-3.658707e+001	-1.932064e+001	-3.851755e+001	-1.600574e+001	-4.782744e+000
2234300000.000	-2.938530e+001	8.760692e+000	-1.920625e+001	-8.453012e+001	-1.947433e+001	-8.577445e+001	-1.652142e+001	-7.312880e+001
2239200000.000	-3.041868e+001	-2.171594e+001	-1.956060e+001	-1.316319e+002	-1.985727e+001	-1.310590e+002	-1.706302e+001	-1.367271e+002
2244100000.000	-3.279449e+001	-5.049797e+001	-1.990106e+001	-1.763669e+002	-2.000840e+001	-1.748044e+002	-1.767550e+001	1.622649e+002
2249000000.000	-3.546526e+001	-7.654096e+001	-2.005385e+001	1.393104e+002	-1.994889e+001	1.404628e+002	-1.892250e+001	9.934680e+001
2253900000.000	-3.775284e+001	-1.051939e+002	-2.020082e+001	9.480009e+001	-2.004527e+001	9.477446e+001	-2.067056e+001	3.312825e+001
2258800000.000	-3.965907e+001	-1.379964e+002	-2.032126e+001	5.087531e+001	-2.026490e+001	5.018664e+001	-2.190093e+001	-3.519678e+001
2263700000.000	-4.062931e+001	-1.677691e+002	-2.032634e+001	6.960018e+000	-2.037323e+001	6.636475e+000	-2.255423e+001	-1.005174e+002
2268600000.000	-4.071006e+001	-1.741518e+002	-2.023440e+001	-3.677410e+001	-2.022947e+001	-3.647676e+001	-2.292058e+001	-1.609121e+002
2273500000.000	-3.606605e+001	-1.724617e+002	-1.992281e+001	-8.183588e+001	-1.979384e+001	-8.182753e+001	-2.419782e+001	1.376683e+002
2278400000.000	-3.209685e+001	1.698782e+002	-1.978387e+001	-1.290161e+002	-1.966865e+001	-1.299029e+002	-2.784492e+001	8.217617e+001
2283300000.000	-3.017855e+001	1.521973e+002	-1.995018e+001	-1.762446e+002	-1.991764e+001	-1.773056e+002	-3.265250e+001	4.765998e+001
2288200000.000	-2.938669e+001	1.387806e+002	-2.026305e+001	1.378433e+002	-2.028547e+001	1.367438e+002	-3.325136e+001	2.620315e+001
2293100000.000	-2.924465e+001	1.281808e+002	-2.051242e+001	9.283079e+001	-2.058163e+001	9.175728e+001	-3.001082e+001	-2.041351e+001
2298000000.000	-2.969587e+001	1.214318e+002	-2.071447e+001	4.765794e+001	-2.084942e+001	4.690976e+001	-2.642653e+001	-8.046075e+001
2302900000.000	-3.007478e+001	1.229857e+002	-2.098229e+001	2.455269e+000	-2.113339e+001	2.369156e+000	-2.363728e+001	-1.402181e+002
2307800000.000	-2.797290e+001	1.252629e+002	-2.131851e+001	-4.210574e+001	-2.138387e+001	-4.157064e+001	-2.188928e+001	1.596021e+002
2312700000.000	-2.569522e+001	1.121760e+002	-2.159430e+001	-8.612244e+001	-2.152237e+001	-8.585629e+001	-2.084688e+001	9.600452e+001
2317600000.000	-2.426347e+001	9.574424e+001	-2.185816e+001	-1.298355e+002	-2.177631e+001	-1.306327e+002	-2.000391e+001	2.914325e+001
2322500000.000	-2.333332e+001	7.891391e+001	-2.207073e+001	-1.731496e+002	-2.215750e+001	-1.744023e+002	-1.924401e+001	-3.794957e+001
2327400000.000	-2.283284e+001	6.197430e+001	-2.227288e+001	1.435090e+002	-2.252186e+001	1.431997e+002	-1.868029e+001	-1.029149e+002
2332300000.000	-2.289266e+001	4.582234e+001	-2.248465e+001	1.010396e+002	-2.265975e+001	1.021885e+002	-1.796219e+001	-1.670329e+002
2337200000.000	-2.345404e+001	3.056649e+001	-2.254730e+001	5.930139e+001	-2.246310e+001	6.077300e+001	-1.687324e+001	1.275809e+002
2342100000.000	-2.441399e+001	1.627167e+001	-2.241643e+001	1.771428e+001	-2.215646e+001	1.778478e+001	-1.572598e+001	6.115472e+001
2347000000.000	-2.566645e+001	5.497630e-001	-2.199190e+001	-2.424347e+001	-2.183990e+001	-2.603548e+001	-1.499766e+001	-8.335921e+000
2351900000.000	-2.743548e+001	-1.825383e+001	-2.139313e+001	-6.972628e+001	-2.156574e+001	-7.133417e+001	-1.504112e+001	-8.082463e+001
2356800000.000	-2.984474e+001	-4.194608e+001	-2.130248e+001	-1.166659e+002	-2.156156e+001	-1.165465e+002	-1.540046e+001	-1.495947e+002
2361700000.000	-3.231598e+001	-6.855804e+001	-2.141416e+001	-1.621082e+002	-2.147619e+001	-1.607563e+002	-1.551614e+001	1.456095e+002
2366600000.000	-3.395706e+001	-9.945224e+001	-2.151415e+001	1.539315e+002	-2.134270e+001	1.545502e+002	-1.589747e+001	8.038792e+001
2371500000.000	-3.530302e+001	-1.291081e+002	-2.143742e+001	1.103490e+002	-2.128739e+001	1.091736e+002	-1.669251e+001	1.258685e+001
2376400000.000	-3.687132e+001	-1.499208e+002	-2.120396e+001	6.641607e+001	-2.132513e+001	6.485512e+001	-1.726377e+001	-5.385803e+001
2381300000.000	-3.834390e+001	-1.595119e+002	-2.092305e+001	2.107498e+001	-2.120635e+001	2.114685e+001	-1.754277e+001	-1.150957e+002
2386200000.000	-3.782645e+001	-1.640024e+002	-2.081416e+001	-2.467336e+001	-2.095226e+001	-2.301010e+001	-1.789988e+001	-1.718069e+002
2391100000.000	-3.552178e+001	1.789248e+002	-2.072409e+001	-6.971852e+001	-2.056795e+001	-6.827266e+001	-1.853502e+001	1.285269e+002
2396000000.000	-3.302184e+001	1.521861e+002	-2.044428e+001	-1.149372e+002	-2.019363e+001	-1.152764e+002	-1.940175e+001	6.213107e+001
2400900000.000	-3.089627e+001	1.229645e+002	-2.014274e+001	-1.625821e+002	-2.007990e+001	-1.639858e+002	-2.012344e+001	-6.078228e+000
2405800000.000	-3.023794e+001	9.640453e+001	-2.030758e+001	1.485832e+002	-2.040417e+001	1.477012e+002	-2.119604e+001	-6.829351e+001
2410700000.000	-3.084263e+001	8.026209e+001	-2.075536e+001	1.021471e+002	-2.084602e+001	1.020581e+002	-2.270683e+001	-1.212661e+002
2415600000.000	-3.174715e+001	7.356354e+001	-2.107436e+001	5.753620e+001	-2.111038e+001	5.760329e+001	-2.366319e+001	-1.710544e+002
2420500000.000	-3.268102e+001	7.286173e+001	-2.120365e+001	1.301183e+001	-2.119557e+001	1.306627e+001	-2.374982e+001	1.378825e+002
2425400000.000	-3.289344e+001	7.756907e+001	-2.127928e+001	-3.248475e+001	-2.122914e+001	-3.260058e+001	-2.322128e+001	8.668834e+001
2430300000.000	-3.212157e+001	7.820651e+001	-2.148912e+001	-7.829708e+001	-2.142272e+001	-7.887093e+001	-2.243855e+001	3.639988e+001
2435200000.000	-3.098608e+001	7.111827e+001	-2.180241e+001	-1.236468e+002	-2.179713e+001	-1.248043e+002	-2.159663e+001	-1.818522e+001
