!Agilent Technologies,E5061B,MY49305579,A.02.22
!Date: Thu Aug 24 16:25:59 2017
!Data & Calibration Information:
!Freq	S11:SOLT2(ON)	S21:SOLT2(ON)	S12:SOLT2(ON)	S22:SOLT2(ON)
# Hz S dB R 50
1710000000.000	-2.632261e+001	-1.448533e+002	-1.869454e+001	3.215072e+001	-1.867856e+001	3.212073e+001	-3.376517e+001	-9.684502e+001
1714900000.000	-2.559514e+001	-1.551494e+002	-1.887402e+001	-1.374309e+001	-1.883975e+001	-1.380200e+001	-3.538022e+001	-1.459646e+002
1719800000.000	-2.529008e+001	-1.656038e+002	-1.904821e+001	-5.907208e+001	-1.901594e+001	-5.907730e+001	-3.771240e+001	-1.413994e+002
1724700000.000	-2.508018e+001	-1.755833e+002	-1.911108e+001	-1.042663e+002	-1.905913e+001	-1.042808e+002	-3.040977e+001	-1.385491e+002
1729600000.000	-2.500936e+001	1.751925e+002	-1.925351e+001	-1.493976e+002	-1.921228e+001	-1.495867e+002	-2.764095e+001	1.746875e+002
1734500000.000	-2.515227e+001	1.671796e+002	-1.928192e+001	1.658629e+002	-1.925119e+001	1.657996e+002	-2.714220e+001	1.437574e+002
1739400000.000	-2.543624e+001	1.609527e+002	-1.928497e+001	1.207568e+002	-1.921572e+001	1.208387e+002	-2.748963e+001	9.887511e+001
1744300000.000	-2.569247e+001	1.573502e+002	-1.932308e+001	7.572909e+001	-1.919171e+001	7.522553e+001	-2.930656e+001	3.373065e+001
1749200000.000	-2.555410e+001	1.539109e+002	-1.928879e+001	3.096989e+001	-1.927955e+001	2.953643e+001	-2.765602e+001	-5.090831e+001
1754100000.000	-2.529634e+001	1.468656e+002	-1.918650e+001	-1.443959e+001	-1.937383e+001	-1.547398e+001	-2.379266e+001	-1.158317e+002
1759000000.000	-2.523692e+001	1.372767e+002	-1.922736e+001	-6.056822e+001	-1.940510e+001	-5.999017e+001	-2.146428e+001	-1.698014e+002
1763900000.000	-2.540698e+001	1.250244e+002	-1.931569e+001	-1.054582e+002	-1.925368e+001	-1.045866e+002	-2.051345e+001	1.333645e+002
1768800000.000	-2.568293e+001	1.107113e+002	-1.917543e+001	-1.500731e+002	-1.908485e+001	-1.509395e+002	-2.036811e+001	6.510260e+001
1773700000.000	-2.618316e+001	9.305194e+001	-1.894160e+001	1.632821e+002	-1.915308e+001	1.623161e+002	-1.954835e+001	-1.091337e+001
1778600000.000	-2.691504e+001	7.277252e+001	-1.907055e+001	1.154144e+002	-1.931699e+001	1.165970e+002	-1.781362e+001	-8.248128e+001
1783500000.000	-2.791372e+001	4.920668e+001	-1.944482e+001	7.007194e+001	-1.938411e+001	7.169739e+001	-1.636882e+001	-1.478562e+002
1788400000.000	-2.922222e+001	2.141342e+001	-1.941191e+001	2.602314e+001	-1.928149e+001	2.624445e+001	-1.558452e+001	1.461201e+002
1793300000.000	-3.063153e+001	-1.210138e+001	-1.932565e+001	-2.115137e+001	-1.927821e+001	-2.088015e+001	-1.561444e+001	7.474248e+001
1798200000.000	-3.149995e+001	-4.898371e+001	-1.973555e+001	-6.785840e+001	-1.959103e+001	-6.775264e+001	-1.599406e+001	-3.465786e-001
1803100000.000	-3.143057e+001	-8.150758e+001	-2.004770e+001	-1.113326e+002	-1.999995e+001	-1.125190e+002	-1.604721e+001	-7.427725e+001
1808000000.000	-3.070054e+001	-1.041452e+002	-1.994206e+001	-1.557292e+002	-2.017083e+001	-1.559417e+002	-1.594290e+001	-1.428975e+002
1812900000.000	-2.986001e+001	-1.191694e+002	-2.003932e+001	1.573515e+002	-2.006996e+001	1.593629e+002	-1.632171e+001	1.504517e+002
1817800000.000	-2.946212e+001	-1.248750e+002	-2.057983e+001	1.132863e+002	-2.021837e+001	1.139595e+002	-1.791532e+001	7.976600e+001
1822700000.000	-2.766260e+001	-1.287370e+002	-2.051025e+001	7.029394e+001	-2.031114e+001	6.847424e+001	-1.986232e+001	3.956548e+000
1827600000.000	-2.622910e+001	-1.360116e+002	-2.045592e+001	2.491181e+001	-2.058444e+001	2.389546e+001	-2.096310e+001	-7.266105e+001
1832500000.000	-2.485844e+001	-1.455717e+002	-2.066550e+001	-2.021039e+001	-2.070849e+001	-1.964609e+001	-2.208194e+001	-1.419752e+002
1837400000.000	-2.389012e+001	-1.577925e+002	-2.079164e+001	-6.353563e+001	-2.068456e+001	-6.359278e+001	-2.485820e+001	1.506817e+002
1842300000.000	-2.319661e+001	-1.721551e+002	-2.070433e+001	-1.075796e+002	-2.068254e+001	-1.083503e+002	-3.028772e+001	6.958287e+001
1847200000.000	-2.281064e+001	1.715798e+002	-2.069278e+001	-1.525563e+002	-2.074032e+001	-1.526047e+002	-3.213501e+001	-5.280935e+001
1852100000.000	-2.279018e+001	1.547222e+002	-2.075789e+001	1.633028e+002	-2.073351e+001	1.634872e+002	-2.783545e+001	-1.416661e+002
1857000000.000	-2.312785e+001	1.372401e+002	-2.065783e+001	1.194155e+002	-2.061688e+001	1.193998e+002	-2.570433e+001	1.469225e+002
1861900000.000	-2.402127e+001	1.206752e+002	-2.050140e+001	7.453964e+001	-2.044455e+001	7.458993e+001	-2.503571e+001	7.092004e+001
1866800000.000	-2.556618e+001	1.070527e+002	-2.047308e+001	2.961872e+001	-2.036095e+001	2.910677e+001	-2.435591e+001	-1.385020e+001
1871700000.000	-2.764748e+001	9.661777e+001	-2.034160e+001	-1.477174e+001	-2.037493e+001	-1.603424e+001	-2.204400e+001	-9.315643e+001
1876600000.000	-3.065219e+001	9.107434e+001	-2.009852e+001	-6.032554e+001	-2.031839e+001	-6.038496e+001	-1.966188e+001	-1.598266e+002
1881500000.000	-3.450829e+001	9.703481e+001	-2.006466e+001	-1.069665e+002	-2.007616e+001	-1.053894e+002	-1.834937e+001	1.374691e+002
1886400000.000	-3.689698e+001	1.201479e+002	-2.015050e+001	-1.521635e+002	-1.984091e+001	-1.521161e+002	-1.807719e+001	6.985708e+001
1891300000.000	-3.646110e+001	1.359820e+002	-1.991593e+001	1.626254e+002	-1.985905e+001	1.600138e+002	-1.774512e+001	-5.449005e+000
1896200000.000	-3.769990e+001	1.339050e+002	-1.985621e+001	1.132864e+002	-2.024767e+001	1.122195e+002	-1.664728e+001	-7.870211e+001
1901100000.000	-3.989546e+001	-1.790074e+002	-2.081634e+001	6.796619e+001	-2.107425e+001	6.998452e+001	-1.546609e+001	-1.402955e+002
1906000000.000	-3.580605e+001	1.782954e+002	-2.080632e+001	2.689258e+001	-2.057432e+001	2.867326e+001	-1.436486e+001	1.568365e+002
1910900000.000	-3.583636e+001	-1.792164e+002	-2.045311e+001	-1.711635e+001	-2.021409e+001	-1.813398e+001	-1.413143e+001	8.714663e+001
1915800000.000	-3.442718e+001	-1.684000e+002	-2.028994e+001	-6.495441e+001	-2.037190e+001	-6.612961e+001	-1.431611e+001	1.183535e+001
1920700000.000	-3.147948e+001	-1.686565e+002	-2.078748e+001	-1.107881e+002	-2.088388e+001	-1.107079e+002	-1.446713e+001	-5.767066e+001
1925600000.000	-2.906466e+001	-1.790370e+002	-2.097137e+001	-1.534239e+002	-2.100159e+001	-1.531718e+002	-1.382736e+001	-1.228869e+002
1930500000.000	-2.739123e+001	1.665999e+002	-2.075051e+001	1.630878e+002	-2.080501e+001	1.636693e+002	-1.334840e+001	1.710227e+002
1935400000.000	-2.646814e+001	1.516259e+002	-2.063181e+001	1.176253e+002	-2.047349e+001	1.188017e+002	-1.324442e+001	1.025771e+002
1940300000.000	-2.613834e+001	1.364655e+002	-2.066565e+001	7.284090e+001	-2.028610e+001	7.192213e+001	-1.346604e+001	3.131926e+001
1945200000.000	-2.642967e+001	1.216325e+002	-2.044531e+001	2.871145e+001	-2.044637e+001	2.557458e+001	-1.397220e+001	-4.122046e+001
1950100000.000	-2.743737e+001	1.085727e+002	-2.011681e+001	-1.772743e+001	-2.054186e+001	-1.866995e+001	-1.429920e+001	-1.113634e+002
1955000000.000	-2.876948e+001	9.840845e+001	-2.011375e+001	-6.569809e+001	-2.029477e+001	-6.356368e+001	-1.450803e+001	-1.793260e+002
1959900000.000	-2.996915e+001	8.705163e+001	-2.037020e+001	-1.120622e+002	-2.011147e+001	-1.111606e+002	-1.544051e+001	1.112132e+002
1964800000.000	-3.197839e+001	7.094936e+001	-2.044217e+001	-1.579796e+002	-2.034167e+001	-1.593115e+002	-1.772297e+001	3.661124e+001
1969700000.000	-3.529783e+001	5.506503e+001	-2.067540e+001	1.552343e+002	-2.082615e+001	1.546997e+002	-2.052055e+001	-4.582008e+001
1974600000.000	-3.910495e+001	3.630985e+001	-2.102534e+001	1.098153e+002	-2.108201e+001	1.104066e+002	-2.232324e+001	-1.307252e+002
1979500000.000	-4.624092e+001	-8.927531e+000	-2.125684e+001	6.450958e+001	-2.121911e+001	6.489067e+001	-2.392653e+001	1.496239e+002
1984400000.000	-4.332291e+001	-1.245525e+002	-2.172083e+001	1.807197e+001	-2.168195e+001	1.821311e+001	-2.702312e+001	6.111676e+001
1989300000.000	-3.866218e+001	1.702787e+002	-2.240962e+001	-2.304140e+001	-2.236321e+001	-2.308603e+001	-2.846114e+001	-6.033850e+001
1994200000.000	-4.001547e+001	1.595078e+002	-2.233830e+001	-6.514231e+001	-2.233587e+001	-6.506044e+001	-2.469171e+001	-1.541435e+002
1999100000.000	-3.982802e+001	1.760596e+002	-2.231423e+001	-1.087332e+002	-2.225965e+001	-1.081693e+002	-2.202423e+001	1.331098e+002
2004000000.000	-3.657474e+001	-1.666843e+002	-2.239036e+001	-1.523852e+002	-2.213743e+001	-1.522210e+002	-2.077271e+001	5.990011e+001
2008900000.000	-3.275516e+001	-1.651014e+002	-2.236057e+001	1.643331e+002	-2.216850e+001	1.625290e+002	-1.981622e+001	-1.728577e+001
2013800000.000	-3.028572e+001	-1.690492e+002	-2.232601e+001	1.207212e+002	-2.247373e+001	1.186953e+002	-1.826230e+001	-8.920017e+001
2018700000.000	-2.815280e+001	-1.737246e+002	-2.224570e+001	7.704692e+001	-2.248578e+001	7.737677e+001	-1.661334e+001	-1.524704e+002
2023600000.000	-2.666325e+001	1.777459e+002	-2.215196e+001	3.328873e+001	-2.201706e+001	3.454716e+001	-1.548703e+001	1.457046e+002
2028500000.000	-2.576310e+001	1.690463e+002	-2.198647e+001	-1.036822e+001	-2.166515e+001	-1.176493e+001	-1.516735e+001	7.812863e+001
2033400000.000	-2.533990e+001	1.587125e+002	-2.165565e+001	-5.529289e+001	-2.173381e+001	-5.822802e+001	-1.519141e+001	4.989893e+000
2038300000.000	-2.536071e+001	1.480971e+002	-2.162491e+001	-1.015776e+002	-2.200383e+001	-1.025093e+002	-1.474175e+001	-6.594775e+001
2043200000.000	-2.567335e+001	1.373908e+002	-2.175630e+001	-1.458711e+002	-2.195927e+001	-1.445867e+002	-1.380095e+001	-1.315008e+002
2048100000.000	-2.614340e+001	1.270222e+002	-2.161305e+001	1.710713e+002	-2.154382e+001	1.722227e+002	-1.302518e+001	1.645676e+002
2053000000.000	-2.662256e+001	1.177129e+002	-2.114767e+001	1.261202e+002	-2.100119e+001	1.263183e+002	-1.257979e+001	9.666225e+001
2057900000.000	-2.694187e+001	1.098624e+002	-2.099107e+001	7.857993e+001	-2.080444e+001	7.782880e+001	-1.266376e+001	2.418820e+001
2062800000.000	-2.669342e+001	1.027881e+002	-2.118762e+001	3.258722e+001	-2.115786e+001	3.065491e+001	-1.301036e+001	-4.772126e+001
2067700000.000	-2.619141e+001	9.210167e+001	-2.127991e+001	-1.197955e+001	-2.152681e+001	-1.333782e+001	-1.319792e+001	-1.159937e+002
2072600000.000	-2.640172e+001	7.601477e+001	-2.136641e+001	-5.542022e+001	-2.161548e+001	-5.428366e+001	-1.301464e+001	1.798588e+002
2077500000.000	-2.778839e+001	6.727663e+001	-2.084139e+001	-9.930389e+001	-2.062544e+001	-9.745057e+001	-1.243631e+001	1.126027e+002
2082400000.000	-2.838784e+001	6.061185e+001	-2.051115e+001	-1.461673e+002	-2.012883e+001	-1.476902e+002	-1.287840e+001	3.942154e+001
2087300000.000	-2.889699e+001	5.010191e+001	-2.028405e+001	1.657879e+002	-2.037356e+001	1.628715e+002	-1.423097e+001	-3.483376e+001
2092200000.000	-2.985267e+001	3.299163e+001	-2.047688e+001	1.170334e+002	-2.079897e+001	1.165087e+002	-1.565643e+001	-1.071238e+002
2097100000.000	-3.164028e+001	1.153866e+001	-2.101439e+001	7.067995e+001	-2.110092e+001	7.157342e+001	-1.741740e+001	-1.748249e+002
2102000000.000	-3.419413e+001	-1.003491e+001	-2.115744e+001	2.817503e+001	-2.111055e+001	2.842942e+001	-1.985749e+001	1.276755e+002
2106900000.000	-3.561544e+001	-3.784285e+001	-2.093400e+001	-1.809001e+001	-2.088698e+001	-1.847829e+001	-2.268531e+001	6.606146e+001
2111800000.000	-3.652688e+001	-7.131267e+001	-2.102594e+001	-6.540563e+001	-2.104125e+001	-6.567496e+001	-2.616225e+001	7.068743e-001
2116700000.000	-3.631762e+001	-1.045130e+002	-2.126018e+001	-1.121845e+002	-2.129590e+001	-1.121629e+002	-2.819856e+001	-7.189112e+001
2121600000.000	-3.476621e+001	-1.349847e+002	-2.163429e+001	-1.586403e+002	-2.162254e+001	-1.583424e+002	-3.117795e+001	-1.375336e+002
2126500000.000	-3.436493e+001	-1.653826e+002	-2.206747e+001	1.563449e+002	-2.198585e+001	1.563654e+002	-4.044107e+001	-1.617972e+002
2131400000.000	-3.434090e+001	-1.789950e+002	-2.238405e+001	1.117289e+002	-2.231533e+001	1.113955e+002	-3.268960e+001	-1.156439e+002
2136300000.000	-3.328511e+001	1.742689e+002	-2.270440e+001	6.707729e+001	-2.265926e+001	6.693782e+001	-2.616165e+001	-1.633479e+002
2141200000.000	-3.191919e+001	1.636266e+002	-2.297228e+001	2.254841e+001	-2.286908e+001	2.257927e+001	-2.328162e+001	1.392097e+002
2146100000.000	-3.292711e+001	1.555819e+002	-2.345759e+001	-2.241482e+001	-2.326967e+001	-2.315028e+001	-2.198214e+001	7.549989e+001
2151000000.000	-3.271496e+001	1.691527e+002	-2.394243e+001	-6.435943e+001	-2.385847e+001	-6.654047e+001	-2.108117e+001	3.195064e+000
2155900000.000	-3.066813e+001	1.747131e+002	-2.410649e+001	-1.069785e+002	-2.430875e+001	-1.088934e+002	-1.972730e+001	-7.113713e+001
2160800000.000	-2.846533e+001	1.745982e+002	-2.438229e+001	-1.495699e+002	-2.462983e+001	-1.496243e+002	-1.796885e+001	-1.377421e+002
2165700000.000	-2.641281e+001	1.670556e+002	-2.455547e+001	1.688537e+002	-2.459389e+001	1.697420e+002	-1.655850e+001	1.607487e+002
2170600000.000	-2.513384e+001	1.559662e+002	-2.457675e+001	1.276204e+002	-2.442729e+001	1.276152e+002	-1.575309e+001	9.747623e+001
2175500000.000	-2.420002e+001	1.431457e+002	-2.431927e+001	8.587001e+001	-2.425351e+001	8.459447e+001	-1.550698e+001	2.755484e+001
2180400000.000	-2.358226e+001	1.290317e+002	-2.409304e+001	4.261679e+001	-2.421383e+001	4.124311e+001	-1.530277e+001	-4.413171e+001
2185300000.000	-2.320998e+001	1.137221e+002	-2.392669e+001	-4.309359e-001	-2.417772e+001	-7.995141e-001	-1.477685e+001	-1.112757e+002
2190200000.000	-2.306099e+001	9.774817e+001	-2.363293e+001	-4.340478e+001	-2.380827e+001	-4.245180e+001	-1.400235e+001	-1.750660e+002
2195100000.000	-2.333528e+001	8.257446e+001	-2.329153e+001	-8.775526e+001	-2.320496e+001	-8.633055e+001	-1.324662e+001	1.199452e+002
2200000000.000	-2.376828e+001	6.930223e+001	-2.311304e+001	-1.323544e+002	-2.282862e+001	-1.326443e+002	-1.277501e+001	5.237355e+001
2204900000.000	-2.444757e+001	5.719794e+001	-2.290499e+001	-1.762820e+002	-2.281187e+001	-1.786996e+002	-1.285902e+001	-1.533403e+001
2209800000.000	-2.541503e+001	4.678939e+001	-2.256867e+001	1.392332e+002	-2.285944e+001	1.374792e+002	-1.315760e+001	-8.176424e+001
2214700000.000	-2.647609e+001	3.756033e+001	-2.227196e+001	9.362095e+001	-2.258519e+001	9.458445e+001	-1.320479e+001	-1.475818e+002
2219600000.000	-2.784049e+001	2.845745e+001	-2.210867e+001	4.789598e+001	-2.207162e+001	4.982251e+001	-1.291831e+001	1.457683e+002
2224500000.000	-2.928270e+001	2.068306e+001	-2.201310e+001	2.482013e+000	-2.171497e+001	2.408015e+000	-1.282970e+001	7.730626e+001
2229400000.000	-3.034138e+001	1.309707e+001	-2.194166e+001	-4.245642e+001	-2.182752e+001	-4.472026e+001	-1.334529e+001	7.960615e+000
2234300000.000	-3.050863e+001	-1.012344e+000	-2.169067e+001	-8.686113e+001	-2.195307e+001	-8.873439e+001	-1.400790e+001	-5.964784e+001
2239200000.000	-3.136531e+001	-2.705350e+001	-2.135377e+001	-1.328884e+002	-2.174193e+001	-1.325300e+002	-1.451875e+001	-1.246737e+002
2244100000.000	-3.321688e+001	-5.496300e+001	-2.115695e+001	-1.795752e+002	-2.132071e+001	-1.776060e+002	-1.515978e+001	1.722974e+002
2249000000.000	-3.541790e+001	-8.222913e+001	-2.104514e+001	1.336530e+002	-2.092105e+001	1.351089e+002	-1.641709e+001	1.080166e+002
2253900000.000	-3.678039e+001	-1.115609e+002	-2.102198e+001	8.662783e+001	-2.081932e+001	8.659639e+001	-1.840941e+001	4.148750e+001
2258800000.000	-3.733933e+001	-1.470279e+002	-2.109942e+001	3.968869e+001	-2.102816e+001	3.880009e+001	-2.047422e+001	-2.533422e+001
2263700000.000	-3.744162e+001	1.795401e+002	-2.127691e+001	-6.709988e+000	-2.130623e+001	-7.277431e+000	-2.208578e+001	-8.800843e+001
2268600000.000	-3.803185e+001	1.609094e+002	-2.144838e+001	-5.238913e+001	-2.147048e+001	-5.239464e+001	-2.349592e+001	-1.441054e+002
2273500000.000	-3.658255e+001	1.645378e+002	-2.157011e+001	-9.755791e+001	-2.150735e+001	-9.758180e+001	-2.507212e+001	1.691241e+002
2278400000.000	-3.323538e+001	1.584938e+002	-2.155558e+001	-1.429862e+002	-2.147362e+001	-1.433717e+002	-2.593725e+001	1.318123e+002
2283300000.000	-3.123994e+001	1.461138e+002	-2.157189e+001	1.707824e+002	-2.149452e+001	1.700273e+002	-2.533610e+001	9.269472e+001
2288200000.000	-3.050449e+001	1.341488e+002	-2.166856e+001	1.240323e+002	-2.162440e+001	1.228966e+002	-2.404743e+001	4.294123e+001
2293100000.000	-3.069898e+001	1.266914e+002	-2.192728e+001	7.706170e+001	-2.197762e+001	7.563529e+001	-2.265978e+001	-1.631152e+001
2298000000.000	-3.099493e+001	1.251265e+002	-2.236255e+001	3.096532e+001	-2.252850e+001	3.000512e+001	-2.100739e+001	-7.805692e+001
2302900000.000	-3.069253e+001	1.289106e+002	-2.275386e+001	-1.367175e+001	-2.296880e+001	-1.368777e+001	-1.937006e+001	-1.382240e+002
2307800000.000	-2.832890e+001	1.299913e+002	-2.301877e+001	-5.834756e+001	-2.309574e+001	-5.738104e+001	-1.804600e+001	1.611916e+002
2312700000.000	-2.585058e+001	1.164902e+002	-2.332567e+001	-1.034002e+002	-2.319635e+001	-1.028933e+002	-1.710465e+001	9.719339e+001
2317600000.000	-2.432509e+001	9.936586e+001	-2.371522e+001	-1.480709e+002	-2.355537e+001	-1.491110e+002	-1.648986e+001	2.979119e+001
2322500000.000	-2.329016e+001	8.191478e+001	-2.414167e+001	1.677773e+002	-2.421086e+001	1.659759e+002	-1.614390e+001	-3.696843e+001
2327400000.000	-2.277845e+001	6.445080e+001	-2.457619e+001	1.242578e+002	-2.488996e+001	1.236639e+002	-1.592700e+001	-1.010911e+002
2332300000.000	-2.284766e+001	4.793027e+001	-2.510468e+001	8.160731e+001	-2.532020e+001	8.291653e+001	-1.554558e+001	-1.642537e+002
2337200000.000	-2.347443e+001	3.314627e+001	-2.556752e+001	4.097329e+001	-2.548742e+001	4.282533e+001	-1.478637e+001	1.319012e+002
2342100000.000	-2.441486e+001	2.054318e+001	-2.562833e+001	2.458736e+000	-2.532836e+001	2.601276e+000	-1.391851e+001	6.678891e+001
2347000000.000	-2.537481e+001	6.824259e+000	-2.518612e+001	-3.844578e+001	-2.499725e+001	-4.043236e+001	-1.355383e+001	-5.502422e-001
2351900000.000	-2.670678e+001	-1.118881e+001	-2.488423e+001	-8.150001e+001	-2.503323e+001	-8.362767e+001	-1.372941e+001	-6.721489e+001
2356800000.000	-2.861655e+001	-3.325379e+001	-2.464949e+001	-1.246416e+002	-2.500354e+001	-1.248980e+002	-1.366518e+001	-1.314742e+002
2361700000.000	-3.049497e+001	-5.790121e+001	-2.441158e+001	-1.678907e+002	-2.459090e+001	-1.661149e+002	-1.313171e+001	1.657663e+002
2366600000.000	-3.163997e+001	-8.638701e+001	-2.421302e+001	1.486865e+002	-2.400763e+001	1.504024e+002	-1.264425e+001	1.006526e+002
2371500000.000	-3.244678e+001	-1.150268e+002	-2.401887e+001	1.057529e+002	-2.367669e+001	1.047106e+002	-1.271103e+001	3.160683e+001
2376400000.000	-3.336971e+001	-1.376480e+002	-2.363308e+001	6.326238e+001	-2.367648e+001	6.054938e+001	-1.310221e+001	-3.710407e+001
2381300000.000	-3.416726e+001	-1.535901e+002	-2.310964e+001	1.958029e+001	-2.353797e+001	1.868939e+001	-1.326575e+001	-1.006097e+002
2386200000.000	-3.394912e+001	-1.657629e+002	-2.263554e+001	-2.475805e+001	-2.292614e+001	-2.252723e+001	-1.322048e+001	-1.607091e+002
2391100000.000	-3.235628e+001	1.756477e+002	-2.205006e+001	-6.909778e+001	-2.184114e+001	-6.645977e+001	-1.315733e+001	1.368235e+002
2396000000.000	-3.043208e+001	1.482703e+002	-2.130574e+001	-1.150621e+002	-2.086220e+001	-1.154721e+002	-1.325917e+001	6.702622e+001
2400900000.000	-2.895859e+001	1.202792e+002	-2.065899e+001	-1.629795e+002	-2.055966e+001	-1.655062e+002	-1.388715e+001	-4.676667e+000
2405800000.000	-2.819758e+001	9.603673e+001	-2.021097e+001	1.477697e+002	-2.044054e+001	1.463569e+002	-1.479244e+001	-7.069088e+001
2410700000.000	-2.817145e+001	7.673233e+001	-2.002552e+001	9.841489e+001	-2.022675e+001	9.879761e+001	-1.573525e+001	-1.333868e+002
2415600000.000	-2.884747e+001	6.090265e+001	-1.992632e+001	4.912801e+001	-1.995453e+001	4.999081e+001	-1.683230e+001	1.620905e+002
2420500000.000	-3.045734e+001	4.767369e+001	-1.998953e+001	-7.619355e-001	-1.989375e+001	-5.374363e-001	-1.840420e+001	9.688813e+001
2425400000.000	-3.335619e+001	4.134323e+001	-2.035475e+001	-5.054294e+001	-2.026629e+001	-5.109191e+001	-2.085610e+001	3.718050e+001
2430300000.000	-3.624813e+001	4.869257e+001	-2.092853e+001	-9.895348e+001	-2.092403e+001	-9.981643e+001	-2.397392e+001	-9.418591e+000
2435200000.000	-3.649173e+001	6.423524e+001	-2.159075e+001	-1.458392e+002	-2.163756e+001	-1.467392e+002	-2.534275e+001	-4.267398e+001
