!Agilent Technologies,E5061B,MY49305579,A.02.22
!Date: Thu Aug 24 16:26:09 2017
!Data & Calibration Information:
!Freq	S11:SOLT2(ON)	S21:SOLT2(ON)	S12:SOLT2(ON)	S22:SOLT2(ON)
# Hz S dB R 50
1710000000.000	-2.639184e+001	-1.523932e+002	-1.812391e+001	3.092301e+001	-1.782291e+001	2.829318e+001	-1.294422e+001	7.112815e+001
1714900000.000	-2.610191e+001	-1.617807e+002	-1.770218e+001	-1.871517e+001	-1.798109e+001	-2.022940e+001	-1.275557e+001	-4.142010e+000
1719800000.000	-2.620386e+001	-1.703882e+002	-1.829246e+001	-6.737312e+001	-1.840507e+001	-6.596805e+001	-1.262022e+001	-7.638130e+001
1724700000.000	-2.614570e+001	-1.769451e+002	-1.877230e+001	-1.096833e+002	-1.861339e+001	-1.094476e+002	-1.225664e+001	-1.427783e+002
1729600000.000	-2.597218e+001	1.767550e+002	-1.838670e+001	-1.529776e+002	-1.842721e+001	-1.533530e+002	-1.212816e+001	1.524239e+002
1734500000.000	-2.588571e+001	1.708879e+002	-1.825523e+001	1.589970e+002	-1.822896e+001	1.602843e+002	-1.289918e+001	8.432587e+001
1739400000.000	-2.582749e+001	1.660283e+002	-1.872697e+001	1.137009e+002	-1.836593e+001	1.134742e+002	-1.460958e+001	1.110949e+001
1744300000.000	-2.571591e+001	1.622555e+002	-1.870691e+001	7.152051e+001	-1.862907e+001	6.884975e+001	-1.607409e+001	-6.398415e+001
1749200000.000	-2.537956e+001	1.578394e+002	-1.833192e+001	2.652807e+001	-1.863934e+001	2.559705e+001	-1.682543e+001	-1.322374e+002
1754100000.000	-2.501846e+001	1.504253e+002	-1.824820e+001	-1.972350e+001	-1.837568e+001	-1.851604e+001	-1.810594e+001	1.676552e+002
1759000000.000	-2.488532e+001	1.407193e+002	-1.824977e+001	-6.427257e+001	-1.812492e+001	-6.396331e+001	-2.088203e+001	1.109106e+002
1763900000.000	-2.488662e+001	1.285161e+002	-1.799968e+001	-1.087960e+002	-1.797845e+001	-1.097842e+002	-2.549269e+001	5.209592e+001
1768800000.000	-2.503282e+001	1.135290e+002	-1.768498e+001	-1.547932e+002	-1.782663e+001	-1.553102e+002	-3.029852e+001	-9.185261e+000
1773700000.000	-2.542309e+001	9.567034e+001	-1.750944e+001	1.587739e+002	-1.766443e+001	1.589973e+002	-3.165570e+001	-5.473686e+001
1778600000.000	-2.605024e+001	7.532209e+001	-1.735657e+001	1.122168e+002	-1.746793e+001	1.130103e+002	-2.832673e+001	-8.451097e+001
1783500000.000	-2.683901e+001	5.268292e+001	-1.730468e+001	6.572199e+001	-1.731635e+001	6.667167e+001	-2.434963e+001	-1.237194e+002
1788400000.000	-2.773180e+001	2.673411e+001	-1.722828e+001	1.989185e+001	-1.715425e+001	2.040806e+001	-2.160646e+001	-1.730299e+002
1793300000.000	-2.854861e+001	-4.559481e+000	-1.699765e+001	-2.660478e+001	-1.696450e+001	-2.639153e+001	-2.023814e+001	1.311490e+002
1798200000.000	-2.896287e+001	-3.864116e+001	-1.691428e+001	-7.450804e+001	-1.684939e+001	-7.393964e+001	-1.961505e+001	6.868974e+001
1803100000.000	-2.850905e+001	-7.085552e+001	-1.709008e+001	-1.218174e+002	-1.691483e+001	-1.217864e+002	-1.897977e+001	1.701244e+000
1808000000.000	-2.759482e+001	-9.804742e+001	-1.721286e+001	-1.674741e+002	-1.715777e+001	-1.687823e+002	-1.776491e+001	-6.422807e+001
1812900000.000	-2.686476e+001	-1.190666e+002	-1.713965e+001	1.462474e+002	-1.737659e+001	1.457654e+002	-1.633085e+001	-1.249283e+002
1817800000.000	-2.663443e+001	-1.320331e+002	-1.724215e+001	9.836214e+001	-1.736448e+001	1.006541e+002	-1.513894e+001	1.767412e+002
1822700000.000	-2.588077e+001	-1.419086e+002	-1.771704e+001	5.245068e+001	-1.727428e+001	5.423179e+001	-1.441419e+001	1.147550e+002
1827600000.000	-2.553339e+001	-1.510843e+002	-1.782015e+001	9.175545e+000	-1.735486e+001	6.712702e+000	-1.408166e+001	4.765680e+001
1832500000.000	-2.509527e+001	-1.595018e+002	-1.755345e+001	-3.652987e+001	-1.775808e+001	-4.004738e+001	-1.365681e+001	-2.043965e+001
1837400000.000	-2.474452e+001	-1.697107e+002	-1.769651e+001	-8.464022e+001	-1.816881e+001	-8.425794e+001	-1.303331e+001	-8.469354e+001
1842300000.000	-2.454574e+001	1.792148e+002	-1.829408e+001	-1.293089e+002	-1.829913e+001	-1.268245e+002	-1.238078e+001	-1.452448e+002
1847200000.000	-2.442692e+001	1.658464e+002	-1.820359e+001	-1.703455e+002	-1.791218e+001	-1.700035e+002	-1.166162e+001	1.524571e+002
1852100000.000	-2.461154e+001	1.522377e+002	-1.757268e+001	1.439709e+002	-1.751687e+001	1.430821e+002	-1.141281e+001	8.552600e+001
1857000000.000	-2.505136e+001	1.381305e+002	-1.753032e+001	9.464985e+001	-1.751377e+001	9.489700e+001	-1.152382e+001	1.610976e+001
1861900000.000	-2.598913e+001	1.257098e+002	-1.802087e+001	4.911565e+001	-1.783551e+001	4.838174e+001	-1.169989e+001	-5.212852e+001
1866800000.000	-2.735821e+001	1.175831e+002	-1.793282e+001	6.323084e+000	-1.805121e+001	4.180119e+000	-1.146768e+001	-1.167055e+002
1871700000.000	-2.887598e+001	1.131380e+002	-1.744600e+001	-4.026102e+001	-1.788008e+001	-3.964500e+001	-1.087148e+001	-1.791376e+002
1876600000.000	-3.064770e+001	1.141982e+002	-1.758088e+001	-8.978929e+001	-1.748744e+001	-8.608627e+001	-1.039671e+001	1.165399e+002
1881500000.000	-3.183766e+001	1.217131e+002	-1.813145e+001	-1.348777e+002	-1.741733e+001	-1.352596e+002	-1.055755e+001	4.720443e+001
1886400000.000	-3.195963e+001	1.268250e+002	-1.798033e+001	-1.781607e+002	-1.789679e+001	1.765791e+002	-1.114212e+001	-2.417501e+001
1891300000.000	-3.218576e+001	1.238937e+002	-1.771413e+001	1.338467e+002	-1.845022e+001	1.318981e+002	-1.135214e+001	-9.170448e+001
1896200000.000	-3.397739e+001	1.136587e+002	-1.815714e+001	8.548074e+001	-1.856852e+001	8.933934e+001	-1.126895e+001	-1.546815e+002
1901100000.000	-3.961363e+001	1.204363e+002	-1.869044e+001	4.098636e+001	-1.828089e+001	4.383908e+001	-1.143756e+001	1.425735e+002
1906000000.000	-4.077624e+001	1.422584e+002	-1.874778e+001	-1.759811e+000	-1.837327e+001	-3.511245e+000	-1.214601e+001	7.451040e+001
1910900000.000	-4.388218e+001	1.794307e+002	-1.860835e+001	-4.804984e+001	-1.876642e+001	-5.003717e+001	-1.322918e+001	2.938140e+000
1915800000.000	-3.842157e+001	-1.443024e+002	-1.898832e+001	-9.429306e+001	-1.921352e+001	-9.390661e+001	-1.402419e+001	-6.540666e+001
1920700000.000	-3.320733e+001	-1.468150e+002	-1.932632e+001	-1.370470e+002	-1.934186e+001	-1.361970e+002	-1.457453e+001	-1.288379e+002
1925600000.000	-2.974642e+001	-1.594191e+002	-1.913225e+001	-1.798307e+002	-1.908833e+001	-1.792438e+002	-1.529896e+001	1.694830e+002
1930500000.000	-2.736468e+001	-1.750231e+002	-1.886427e+001	1.344003e+002	-1.875400e+001	1.350874e+002	-1.636778e+001	1.051947e+002
1935400000.000	-2.572262e+001	1.685684e+002	-1.891552e+001	8.834309e+001	-1.867760e+001	8.810395e+001	-1.806535e+001	3.827620e+001
1940300000.000	-2.469129e+001	1.511535e+002	-1.895873e+001	4.337948e+001	-1.883902e+001	4.172724e+001	-2.020007e+001	-3.015318e+001
1945200000.000	-2.430880e+001	1.333293e+002	-1.891585e+001	-2.039042e+000	-1.902128e+001	-3.410755e+000	-2.252012e+001	-9.672038e+001
1950100000.000	-2.462899e+001	1.158191e+002	-1.892089e+001	-4.777228e+001	-1.906364e+001	-4.799470e+001	-2.525817e+001	-1.555620e+002
1955000000.000	-2.546414e+001	9.912414e+001	-1.896482e+001	-9.355289e+001	-1.904514e+001	-9.356509e+001	-3.015955e+001	1.653264e+002
1959900000.000	-2.646367e+001	8.139377e+001	-1.909538e+001	-1.393466e+002	-1.919076e+001	-1.389803e+002	-3.088157e+001	-1.760376e+002
1964800000.000	-2.800458e+001	5.942892e+001	-1.928127e+001	1.756343e+002	-1.928034e+001	1.763301e+002	-2.498576e+001	1.549600e+002
1969700000.000	-3.020744e+001	3.376754e+001	-1.937280e+001	1.312687e+002	-1.926517e+001	1.314426e+002	-2.203570e+001	1.008029e+002
1974600000.000	-3.248862e+001	2.820004e+000	-1.932634e+001	8.649336e+001	-1.930124e+001	8.591887e+001	-2.035088e+001	3.468285e+001
1979500000.000	-3.433258e+001	-3.963563e+001	-1.942745e+001	4.098176e+001	-1.950377e+001	4.075988e+001	-1.878476e+001	-3.729024e+001
1984400000.000	-3.410037e+001	-9.056730e+001	-1.956458e+001	-2.855607e+000	-1.960525e+001	-2.560893e+000	-1.687072e+001	-1.063523e+002
1989300000.000	-3.399484e+001	-1.375809e+002	-1.941661e+001	-4.673540e+001	-1.945160e+001	-4.613790e+001	-1.502475e+001	-1.717275e+002
1994200000.000	-3.330937e+001	-1.576407e+002	-1.914517e+001	-9.237465e+001	-1.908135e+001	-9.094357e+001	-1.364291e+001	1.228260e+002
1999100000.000	-3.192103e+001	-1.694220e+002	-1.927703e+001	-1.389974e+002	-1.889557e+001	-1.383172e+002	-1.293285e+001	5.347049e+001
2004000000.000	-3.036429e+001	-1.777454e+002	-1.946794e+001	1.776041e+002	-1.911738e+001	1.749105e+002	-1.278152e+001	-1.746964e+001
2008900000.000	-2.898927e+001	1.740676e+002	-1.908790e+001	1.347927e+002	-1.931583e+001	1.314521e+002	-1.246669e+001	-8.472647e+001
2013800000.000	-2.825127e+001	1.653989e+002	-1.851877e+001	8.709442e+001	-1.902533e+001	8.768128e+001	-1.153109e+001	-1.483719e+002
2018700000.000	-2.796235e+001	1.595622e+002	-1.867873e+001	3.878587e+001	-1.856303e+001	4.213207e+001	-1.073346e+001	1.471335e+002
2023600000.000	-2.815330e+001	1.537077e+002	-1.880950e+001	-5.915727e+000	-1.817904e+001	-6.779169e+000	-1.046021e+001	7.752326e+001
2028500000.000	-2.868166e+001	1.521147e+002	-1.843132e+001	-5.199201e+001	-1.839171e+001	-5.672154e+001	-1.093943e+001	3.139027e+000
2033400000.000	-2.925759e+001	1.520120e+002	-1.840108e+001	-1.017097e+002	-1.897820e+001	-1.034304e+002	-1.139085e+001	-6.779159e+001
2038300000.000	-2.930731e+001	1.538433e+002	-1.896672e+001	-1.494045e+002	-1.930241e+001	-1.472967e+002	-1.136672e+001	-1.329419e+002
2043200000.000	-2.892110e+001	1.540981e+002	-1.930363e+001	1.665514e+002	-1.916904e+001	1.683621e+002	-1.122006e+001	1.635927e+002
2048100000.000	-2.798730e+001	1.510656e+002	-1.922978e+001	1.211462e+002	-1.899992e+001	1.209735e+002	-1.144735e+001	9.674774e+001
2053000000.000	-2.682262e+001	1.433749e+002	-1.943721e+001	7.380300e+001	-1.931174e+001	7.285642e+001	-1.216638e+001	2.655820e+001
2057900000.000	-2.574439e+001	1.331420e+002	-1.977541e+001	2.863001e+001	-1.974607e+001	2.720153e+001	-1.284070e+001	-4.247571e+001
2062800000.000	-2.442359e+001	1.194116e+002	-1.994276e+001	-1.683012e+001	-2.009431e+001	-1.815233e+001	-1.325700e+001	-1.102133e+002
2067700000.000	-2.365076e+001	1.016929e+002	-2.012207e+001	-6.201153e+001	-2.034647e+001	-6.169659e+001	-1.360252e+001	-1.746217e+002
2072600000.000	-2.368057e+001	8.211106e+001	-2.022323e+001	-1.082367e+002	-2.017628e+001	-1.069518e+002	-1.392309e+001	1.201279e+002
2077500000.000	-2.448419e+001	6.630538e+001	-2.072310e+001	-1.544214e+002	-2.044656e+001	-1.548682e+002	-1.501830e+001	5.222282e+001
2082400000.000	-2.532944e+001	5.114318e+001	-2.107087e+001	1.615869e+002	-2.101774e+001	1.594844e+002	-1.668707e+001	-1.643228e+001
2087300000.000	-2.642221e+001	3.428769e+001	-2.133966e+001	1.170920e+002	-2.155373e+001	1.160393e+002	-1.819643e+001	-8.629792e+001
2092200000.000	-2.785409e+001	1.329286e+001	-2.163589e+001	7.306861e+001	-2.178488e+001	7.357994e+001	-1.946249e+001	-1.531784e+002
2097100000.000	-2.973752e+001	-1.195022e+001	-2.187104e+001	2.966262e+001	-2.181720e+001	3.008197e+001	-2.116136e+001	1.427658e+002
2102000000.000	-3.188631e+001	-4.062462e+001	-2.200707e+001	-1.394419e+001	-2.196335e+001	-1.441735e+001	-2.465242e+001	7.585498e+001
2106900000.000	-3.325601e+001	-7.397174e+001	-2.208999e+001	-5.768300e+001	-2.212450e+001	-5.804718e+001	-3.029316e+001	-8.892372e+000
2111800000.000	-3.426565e+001	-1.079521e+002	-2.220513e+001	-1.018555e+002	-2.226035e+001	-1.017339e+002	-3.266377e+001	-1.213430e+002
2116700000.000	-3.462775e+001	-1.360472e+002	-2.229933e+001	-1.455842e+002	-2.228208e+001	-1.452295e+002	-3.212844e+001	1.384728e+002
2121600000.000	-3.394501e+001	-1.568502e+002	-2.243341e+001	1.701991e+002	-2.235026e+001	1.702370e+002	-3.033308e+001	2.965799e+001
2126500000.000	-3.351009e+001	1.785191e+002	-2.267424e+001	1.269088e+002	-2.261088e+001	1.264197e+002	-2.552962e+001	-6.038916e+001
2131400000.000	-3.402736e+001	1.662555e+002	-2.277640e+001	8.482288e+001	-2.279345e+001	8.457605e+001	-2.204428e+001	-1.294257e+002
2136300000.000	-3.367681e+001	1.639285e+002	-2.271150e+001	4.291928e+001	-2.268738e+001	4.340514e+001	-1.999117e+001	1.672931e+002
2141200000.000	-3.216342e+001	1.596706e+002	-2.244292e+001	1.876255e+000	-2.221297e+001	2.012803e+000	-1.887620e+001	1.021009e+002
2146100000.000	-3.249810e+001	1.490082e+002	-2.169358e+001	-4.184095e+001	-2.145438e+001	-4.365172e+001	-1.839746e+001	2.965403e+001
2151000000.000	-3.314187e+001	1.581533e+002	-2.123915e+001	-8.805712e+001	-2.133076e+001	-9.063239e+001	-1.803386e+001	-4.496250e+001
2155900000.000	-3.197769e+001	1.674783e+002	-2.098584e+001	-1.350575e+002	-2.129901e+001	-1.358213e+002	-1.701414e+001	-1.147366e+002
2160800000.000	-2.990257e+001	1.723846e+002	-2.101205e+001	1.789376e+002	-2.114475e+001	1.799026e+002	-1.586969e+001	-1.781002e+002
2165700000.000	-2.783080e+001	1.675159e+002	-2.093855e+001	1.349969e+002	-2.079447e+001	1.354657e+002	-1.498564e+001	1.190671e+002
2170600000.000	-2.661327e+001	1.598387e+002	-2.029321e+001	8.980709e+001	-2.016238e+001	8.849865e+001	-1.472085e+001	4.864455e+001
2175500000.000	-2.533861e+001	1.509900e+002	-2.005798e+001	4.028487e+001	-2.017022e+001	3.866525e+001	-1.518641e+001	-2.527959e+001
2180400000.000	-2.424402e+001	1.386725e+002	-2.022558e+001	-7.425362e+000	-2.045357e+001	-7.918714e+000	-1.519481e+001	-9.401255e+001
2185300000.000	-2.342642e+001	1.240199e+002	-2.036691e+001	-5.369421e+001	-2.052665e+001	-5.302903e+001	-1.480288e+001	-1.580532e+002
2190200000.000	-2.288304e+001	1.083716e+002	-2.039278e+001	-1.002646e+002	-2.034024e+001	-9.916287e+001	-1.447576e+001	1.379449e+002
2195100000.000	-2.268839e+001	9.316642e+001	-2.053464e+001	-1.474441e+002	-2.033640e+001	-1.473787e+002	-1.452894e+001	7.236994e+001
2200000000.000	-2.257365e+001	7.883039e+001	-2.080832e+001	1.665551e+002	-2.068667e+001	1.648447e+002	-1.482422e+001	6.448278e+000
2204900000.000	-2.269236e+001	6.396602e+001	-2.090045e+001	1.206057e+002	-2.107636e+001	1.188059e+002	-1.528450e+001	-5.930341e+001
2209800000.000	-2.321384e+001	4.916132e+001	-2.116899e+001	7.353725e+001	-2.148628e+001	7.357868e+001	-1.572835e+001	-1.258362e+002
2214700000.000	-2.409415e+001	3.419003e+001	-2.161775e+001	2.771719e+001	-2.170166e+001	2.926787e+001	-1.597231e+001	1.680205e+002
2219600000.000	-2.549329e+001	1.902286e+001	-2.202477e+001	-1.706170e+001	-2.183372e+001	-1.637845e+001	-1.614558e+001	1.015448e+002
2224500000.000	-2.727684e+001	5.002452e+000	-2.240849e+001	-6.134819e+001	-2.225194e+001	-6.256271e+001	-1.683397e+001	3.508679e+001
2229400000.000	-2.881419e+001	-8.376280e+000	-2.274825e+001	-1.045740e+002	-2.283696e+001	-1.062699e+002	-1.778791e+001	-3.065884e+001
2234300000.000	-2.959736e+001	-2.753822e+001	-2.284477e+001	-1.478167e+002	-2.310108e+001	-1.484053e+002	-1.854682e+001	-9.469611e+001
2239200000.000	-3.075328e+001	-5.816401e+001	-2.298300e+001	1.680214e+002	-2.320684e+001	1.687691e+002	-1.920554e+001	-1.554646e+002
2244100000.000	-3.261058e+001	-9.198981e+001	-2.318414e+001	1.244681e+002	-2.322473e+001	1.257161e+002	-2.039920e+001	1.461665e+002
2249000000.000	-3.443694e+001	-1.270260e+002	-2.329375e+001	8.157812e+001	-2.319843e+001	8.231181e+001	-2.216093e+001	8.686945e+001
2253900000.000	-3.540717e+001	-1.616247e+002	-2.326178e+001	3.901727e+001	-2.315021e+001	3.884667e+001	-2.413196e+001	2.128822e+001
2258800000.000	-3.529601e+001	1.659117e+002	-2.303283e+001	-4.142060e+000	-2.300893e+001	-4.709777e+000	-2.522707e+001	-4.736954e+001
2263700000.000	-3.482525e+001	1.354404e+002	-2.271149e+001	-4.892740e+001	-2.274707e+001	-4.913342e+001	-2.551985e+001	-1.152582e+002
2268600000.000	-3.597830e+001	1.104469e+002	-2.264641e+001	-9.526685e+001	-2.261600e+001	-9.511109e+001	-2.721556e+001	-1.777130e+002
2273500000.000	-3.916373e+001	1.081861e+002	-2.277288e+001	-1.402410e+002	-2.271030e+001	-1.404470e+002	-3.092726e+001	1.352749e+002
2278400000.000	-3.947551e+001	1.324171e+002	-2.277206e+001	1.757133e+002	-2.270613e+001	1.750868e+002	-3.454469e+001	1.149122e+002
2283300000.000	-3.670326e+001	1.456255e+002	-2.270464e+001	1.308862e+002	-2.266284e+001	1.301738e+002	-3.348997e+001	1.011005e+002
2288200000.000	-3.446754e+001	1.460140e+002	-2.268793e+001	8.589549e+001	-2.267577e+001	8.497452e+001	-3.065840e+001	5.774048e+001
2293100000.000	-3.314922e+001	1.458546e+002	-2.269319e+001	4.116372e+001	-2.272456e+001	4.008553e+001	-2.831860e+001	-4.523433e+000
2298000000.000	-3.184297e+001	1.469778e+002	-2.264282e+001	-3.630790e+000	-2.275914e+001	-4.457412e+000	-2.565304e+001	-6.988723e+001
2302900000.000	-2.985164e+001	1.479361e+002	-2.260008e+001	-4.862145e+001	-2.274771e+001	-4.879506e+001	-2.324690e+001	-1.323140e+002
2307800000.000	-2.684852e+001	1.395393e+002	-2.255193e+001	-9.393489e+001	-2.261911e+001	-9.344725e+001	-2.157202e+001	1.667052e+002
2312700000.000	-2.470469e+001	1.212404e+002	-2.254759e+001	-1.394870e+002	-2.247138e+001	-1.391677e+002	-2.055745e+001	1.027041e+002
2317600000.000	-2.342062e+001	1.021962e+002	-2.259534e+001	1.750240e+002	-2.249073e+001	1.742676e+002	-1.973265e+001	3.556444e+001
2322500000.000	-2.258199e+001	8.363832e+001	-2.271206e+001	1.295481e+002	-2.278347e+001	1.281234e+002	-1.902548e+001	-3.149552e+001
2327400000.000	-2.220290e+001	6.599343e+001	-2.288687e+001	8.462809e+001	-2.314672e+001	8.402483e+001	-1.839426e+001	-9.651090e+001
2332300000.000	-2.226044e+001	4.985230e+001	-2.303147e+001	4.054924e+001	-2.323568e+001	4.165085e+001	-1.772458e+001	-1.613959e+002
2337200000.000	-2.273805e+001	3.510072e+001	-2.307699e+001	-3.303368e+000	-2.303255e+001	-1.780290e+000	-1.672917e+001	1.337016e+002
2342100000.000	-2.337758e+001	2.182971e+001	-2.305301e+001	-4.716281e+001	-2.280663e+001	-4.691265e+001	-1.550273e+001	6.751301e+001
2347000000.000	-2.399987e+001	6.044063e+000	-2.289097e+001	-9.116821e+001	-2.272147e+001	-9.277049e+001	-1.479339e+001	-1.975611e+000
2351900000.000	-2.510654e+001	-1.484180e+001	-2.271278e+001	-1.368126e+002	-2.286436e+001	-1.384859e+002	-1.486606e+001	-7.254071e+001
2356800000.000	-2.679298e+001	-3.922495e+001	-2.274692e+001	1.775143e+002	-2.302513e+001	1.775117e+002	-1.493077e+001	-1.400793e+002
2361700000.000	-2.834907e+001	-6.523315e+001	-2.277040e+001	1.323745e+002	-2.287672e+001	1.339511e+002	-1.469273e+001	1.549033e+002
2366600000.000	-2.920079e+001	-9.352973e+001	-2.281484e+001	8.704095e+001	-2.260820e+001	8.809760e+001	-1.473517e+001	8.877087e+001
2371500000.000	-2.976566e+001	-1.209368e+002	-2.295403e+001	4.160443e+001	-2.272013e+001	4.055179e+001	-1.531417e+001	2.044014e+001
2376400000.000	-3.017149e+001	-1.437662e+002	-2.309698e+001	-2.650738e+000	-2.317627e+001	-4.616748e+000	-1.578456e+001	-4.698028e+001
2381300000.000	-3.047763e+001	-1.645819e+002	-2.316505e+001	-4.709101e+001	-2.347252e+001	-4.741075e+001	-1.597804e+001	-1.093696e+002
2386200000.000	-3.038873e+001	1.759663e+002	-2.332957e+001	-9.120178e+001	-2.349512e+001	-8.952478e+001	-1.615562e+001	-1.676642e+002
2391100000.000	-2.947172e+001	1.539658e+002	-2.344985e+001	-1.338041e+002	-2.328252e+001	-1.322174e+002	-1.653361e+001	1.317625e+002
2396000000.000	-2.818066e+001	1.277025e+002	-2.327848e+001	-1.753061e+002	-2.299845e+001	-1.757309e+002	-1.711267e+001	6.611159e+001
2400900000.000	-2.700007e+001	1.005832e+002	-2.263089e+001	1.419479e+002	-2.257313e+001	1.402882e+002	-1.728704e+001	-1.536875e-001
2405800000.000	-2.670577e+001	7.461249e+001	-2.197300e+001	9.528151e+001	-2.215188e+001	9.423122e+001	-1.736714e+001	-6.449779e+001
2410700000.000	-2.736374e+001	5.293806e+001	-2.171055e+001	4.794254e+001	-2.188728e+001	4.819305e+001	-1.781686e+001	-1.259662e+002
2415600000.000	-2.890505e+001	3.305264e+001	-2.147307e+001	9.970668e-001	-2.150548e+001	1.870169e+000	-1.822313e+001	1.709939e+002
2420500000.000	-3.200333e+001	1.290470e+001	-2.124776e+001	-4.701355e+001	-2.115332e+001	-4.661157e+001	-1.879840e+001	1.036456e+002
2425400000.000	-3.846644e+001	-7.884603e+000	-2.136774e+001	-9.589164e+001	-2.125056e+001	-9.635144e+001	-2.048076e+001	3.829712e+001
2430300000.000	-6.393446e+001	-1.698155e+002	-2.167813e+001	-1.429415e+002	-2.165752e+001	-1.439056e+002	-2.301622e+001	-1.815453e+001
2435200000.000	-3.880270e+001	1.378707e+002	-2.193382e+001	1.708794e+002	-2.199969e+001	1.700333e+002	-2.538113e+001	-6.820384e+001
